!CSV A.01.01
!Keysight Technologies,N5224B,MY57181201,A.12.70.07
!Date: Tuesday, July 26, 2022 16:13:32
!Source: Standard

BEGIN CH1_DATA
Freq(Hz),S21(DB),S21(DEG)
22000000000,-0.72976989,-34.086498
22055000000,-0.64737529,-31.915344
22110000000,-0.47265863,-32.67852
22165000000,-0.58279896,-33.751076
22220000000,-0.80151278,-33.530941
22275000000,-0.69061285,-33.723572
22330000000,-0.88750672,-33.358852
22385000000,-0.75704682,-33.44035
22440000000,-0.89764154,-33.940132
22495000000,-0.88378781,-32.932304
22550000000,-0.80459434,-33.013081
22605000000,-0.82513344,-33.025658
22660000000,-0.90919721,-32.674004
22715000000,-0.82572454,-33.2304
22770000000,-0.82731521,-34.025909
22825000000,-1.096489,-34.156036
22880000000,-1.0403695,-32.461987
22935000000,-0.77287173,-33.877525
22990000000,-0.93537015,-33.012108
23045000000,-0.8746419,-32.49324
23100000000,-0.85315239,-33.295849
23155000000,-0.97958761,-33.658409
23210000000,-1.0968442,-34.086002
23265000000,-1.2055556,-34.095211
23320000000,-1.1337565,-33.328827
23375000000,-0.94412017,-32.998859
23430000000,-0.95288551,-33.865501
23485000000,-1.0128099,-33.063168
23540000000,-1.0118937,-33.987049
23595000000,-1.2618151,-34.407871
23650000000,-1.3855695,-32.125706
23705000000,-1.1621143,-32.107395
23760000000,-1.1736498,-33.659195
23815000000,-1.2962389,-33.953209
23870000000,-1.007996,-33.074917
23925000000,-1.1093004,-35.31102
23980000000,-1.3313137,-33.687687
24035000000,-1.2006329,-32.635796
24090000000,-1.4510052,-32.140266
24145000000,-1.3253523,-31.733404
24200000000,-1.4239175,-32.959301
24255000000,-1.201365,-33.018459
24310000000,-1.2214265,-34.00106
24365000000,-1.374324,-34.684963
24420000000,-1.4697709,-33.257843
24475000000,-1.5491011,-32.93647
24530000000,-1.5113692,-30.969816
24585000000,-1.3249508,-32.538589
24640000000,-1.3259906,-31.898113
24695000000,-1.1136358,-33.611622
24750000000,-1.3334408,-34.239464
24805000000,-1.5567108,-34.03231
24860000000,-1.6778808,-31.74366
24915000000,-1.4167913,-32.617706
24970000000,-1.5072974,-32.006409
25025000000,-1.264985,-31.574369
25080000000,-1.1203896,-33.090282
25135000000,-1.5086905,-34.35149
25190000000,-1.6848791,-32.956406
25245000000,-1.6033067,-32.479786
25300000000,-1.4845114,-31.734545
25355000000,-1.4762645,-31.935093
25410000000,-1.3763303,-31.237141
25465000000,-1.5026392,-31.451864
25520000000,-1.2435802,-33.121624
25575000000,-1.7521996,-34.708992
25630000000,-1.784629,-32.589802
25685000000,-1.44366,-31.426189
25740000000,-1.5277857,-33.286953
25795000000,-1.6610129,-30.13018
25850000000,-1.2778025,-31.048267
25905000000,-1.4681716,-33.447521
25960000000,-1.7919405,-33.458576
26015000000,-1.807228,-31.018812
26070000000,-1.4536521,-31.068205
26125000000,-1.5192038,-32.682297
26180000000,-1.6499628,-31.538368
26235000000,-1.4463322,-29.772068
26290000000,-1.3916903,-31.599628
26345000000,-1.5404252,-32.20977
26400000000,-1.7687411,-31.747252
26455000000,-1.5788771,-30.168779
26510000000,-1.3659149,-32.109547
26565000000,-1.6764487,-32.390842
26620000000,-1.553633,-30.114
26675000000,-1.2809736,-30.692453
26730000000,-1.4433804,-32.341045
26785000000,-1.7147597,-31.530436
26840000000,-1.5866302,-30.22831
26895000000,-1.49028,-32.284592
26950000000,-1.6397352,-31.807344
27005000000,-1.5324779,-30.994488
27060000000,-1.3340688,-30.998363
27115000000,-1.3929497,-31.380928
27170000000,-1.5164938,-31.149231
27225000000,-1.5443193,-30.72184
27280000000,-1.4758573,-31.632185
27335000000,-1.5451573,-33.370522
27390000000,-1.9026231,-30.890375
27445000000,-1.4331869,-29.523678
27500000000,-1.3885353,-31.548542
27555000000,-1.4990646,-31.75647
27610000000,-1.4938149,-30.705929
27665000000,-1.3352703,-30.598463
27720000000,-1.4620717,-31.707914
27775000000,-1.7319343,-30.806623
27830000000,-1.6856239,-29.264923
27885000000,-1.3543731,-31.012669
27940000000,-1.5682384,-32.075371
27995000000,-1.3997339,-30.95715
28050000000,-1.1319029,-31.287182
28105000000,-1.3191593,-33.484608
28160000000,-1.7518036,-31.57324
28215000000,-1.5976263,-30.395281
28270000000,-1.4653957,-29.886049
28325000000,-1.3766576,-31.41745
28380000000,-1.499338,-31.627201
28435000000,-1.3934147,-31.041048
28490000000,-1.1350298,-32.215397
28545000000,-1.6557781,-33.967407
28600000000,-1.7035315,-29.929268
28655000000,-1.2860999,-30.707859
28710000000,-1.3714874,-31.447338
28765000000,-1.4209058,-30.96121
28820000000,-1.1323894,-31.137428
28875000000,-1.4633884,-32.738914
28930000000,-1.4086201,-31.71179
28985000000,-1.6493914,-31.191381
29040000000,-1.3879349,-30.713476
29095000000,-1.4518517,-31.17202
29150000000,-1.1674094,-30.905565
29205000000,-1.3109753,-32.0672
29260000000,-1.2047013,-32.143784
29315000000,-1.3875288,-32.279442
29370000000,-1.488068,-31.192738
29425000000,-1.4955101,-30.282152
29480000000,-1.3518465,-30.949831
29535000000,-1.3834217,-31.517673
29590000000,-1.2169713,-31.895948
29645000000,-1.2613351,-31.817558
29700000000,-1.2522129,-32.004124
29755000000,-1.5441391,-31.191347
29810000000,-1.3227006,-31.051754
29865000000,-1.4740736,-30.997168
29920000000,-1.2449137,-31.846607
29975000000,-1.2432326,-31.766346
30030000000,-1.2288995,-32.174915
30085000000,-1.3478653,-31.979605
30140000000,-1.2673284,-31.431314
30195000000,-1.3320614,-31.654072
30250000000,-1.3418914,-31.62628
30305000000,-1.2697643,-31.127928
30360000000,-1.2146994,-32.336021
30415000000,-1.2973695,-32.750645
30470000000,-1.2947876,-31.674541
30525000000,-1.2914112,-32.141083
30580000000,-1.2660894,-31.590879
30635000000,-1.2137722,-31.686388
30690000000,-1.1527567,-32.476063
30745000000,-1.3110199,-31.540844
30800000000,-1.3231552,-32.800518
30855000000,-1.369496,-30.41387
30910000000,-1.077522,-31.875391
30965000000,-1.3400435,-32.36552
31020000000,-1.2981704,-32.251083
31075000000,-1.0987028,-32.168613
31130000000,-1.2282293,-32.995174
31185000000,-1.2130529,-31.509863
31240000000,-1.3051381,-32.162235
31295000000,-1.170087,-30.858562
31350000000,-1.1244503,-32.379112
31405000000,-1.1948388,-31.209328
31460000000,-1.0412042,-32.150963
31515000000,-1.0389315,-33.289959
31570000000,-1.3339268,-34.053078
31625000000,-1.2605879,-31.809198
31680000000,-1.2368529,-32.258064
31735000000,-1.1539053,-31.229412
31790000000,-1.0267758,-32.368122
31845000000,-1.0562793,-33.267284
31900000000,-0.99372119,-32.579865
31955000000,-0.92864084,-34.277287
32010000000,-1.4469656,-33.746613
32065000000,-1.2182572,-29.609451
32120000000,-1.0256947,-33.077496
32175000000,-1.3829941,-32.358372
32230000000,-1.0836192,-32.145233
32285000000,-0.84720415,-33.137585
32340000000,-0.93267232,-33.117882
32395000000,-1.0260248,-34.083187
32450000000,-1.2383772,-32.110527
32505000000,-0.98631918,-31.744982
32560000000,-1.178462,-33.786125
32615000000,-1.0983877,-31.943829
32670000000,-1.0000232,-31.785553
32725000000,-0.62913382,-34.724857
32780000000,-1.1739919,-34.800884
32835000000,-1.0559254,-33.063713
32890000000,-1.1680024,-32.28986
32945000000,-0.92684919,-33.362534
33000000000,-1.2483277,-33.337265
END

