!Keysight Technologies,N5224B,MY57181201,A.12.70.07
!Date: Friday, July 15, 2022 11:54:27
!Correction: S11(Response(S12)) 
!S21(Response(S12)) 
!S12(Response(S12)) 
!S22(Response(S12)) 
!S2P File: Measurements: S11, S21, S12, S22:
# Hz S  dB   R 50
22000000000 -24.422266 11.297232 -24.422266 11.297232 -24.422266 11.297232 -24.422266 11.297232
22055000000 -24.288019 139.07353 -24.288019 139.07353 -24.288019 139.07353 -24.288019 139.07353
22110000000 -24.604698 -91.468887 -24.604698 -91.468887 -24.604698 -91.468887 -24.604698 -91.468887
22165000000 -24.424721 39.381123 -24.424721 39.381123 -24.424721 39.381123 -24.424721 39.381123
22220000000 -24.346407 167.95876 -24.346407 167.95876 -24.346407 167.95876 -24.346407 167.95876
22275000000 -24.414415 -63.576317 -24.414415 -63.576317 -24.414415 -63.576317 -24.414415 -63.576317
22330000000 -24.637075 66.229332 -24.637075 66.229332 -24.637075 66.229332 -24.637075 66.229332
22385000000 -24.419792 -161.01961 -24.419792 -161.01961 -24.419792 -161.01961 -24.419792 -161.01961
22440000000 -24.283506 -34.843777 -24.283506 -34.843777 -24.283506 -34.843777 -24.283506 -34.843777
22495000000 -24.450211 95.641647 -24.450211 95.641647 -24.450211 95.641647 -24.450211 95.641647
22550000000 -24.44688 -136.13402 -24.44688 -136.13402 -24.44688 -136.13402 -24.44688 -136.13402
22605000000 -24.446596 -5.6663437 -24.446596 -5.6663437 -24.446596 -5.6663437 -24.446596 -5.6663437
22660000000 -24.515951 124.74943 -24.515951 124.74943 -24.515951 124.74943 -24.515951 124.74943
22715000000 -24.445955 -105.19814 -24.445955 -105.19814 -24.445955 -105.19814 -24.445955 -105.19814
22770000000 -24.131453 23.924631 -24.131453 23.924631 -24.131453 23.924631 -24.131453 23.924631
22825000000 -24.236917 153.51779 -24.236917 153.51779 -24.236917 153.51779 -24.236917 153.51779
22880000000 -24.236036 -77.874443 -24.236036 -77.874443 -24.236036 -77.874443 -24.236036 -77.874443
22935000000 -24.372841 54.404922 -24.372841 54.404922 -24.372841 54.404922 -24.372841 54.404922
22990000000 -24.118629 -177.95021 -24.118629 -177.95021 -24.118629 -177.95021 -24.118629 -177.95021
23045000000 -24.175774 -48.184216 -24.175774 -48.184216 -24.175774 -48.184216 -24.175774 -48.184216
23100000000 -24.086845 81.679611 -24.086845 81.679611 -24.086845 81.679611 -24.086845 81.679611
23155000000 -24.228815 -148.36125 -24.228815 -148.36125 -24.228815 -148.36125 -24.228815 -148.36125
23210000000 -24.169731 -19.347637 -24.169731 -19.347637 -24.169731 -19.347637 -24.169731 -19.347637
23265000000 -24.299257 111.65736 -24.299257 111.65736 -24.299257 111.65736 -24.299257 111.65736
23320000000 -23.940809 -118.73064 -23.940809 -118.73064 -23.940809 -118.73064 -23.940809 -118.73064
23375000000 -23.903931 10.612466 -23.903931 10.612466 -23.903931 10.612466 -23.903931 10.612466
23430000000 -23.89337 139.08644 -23.89337 139.08644 -23.89337 139.08644 -23.89337 139.08644
23485000000 -24.058453 -90.013145 -24.058453 -90.013145 -24.058453 -90.013145 -24.058453 -90.013145
23540000000 -24.013191 41.376984 -24.013191 41.376984 -24.013191 41.376984 -24.013191 41.376984
23595000000 -24.046833 170.67201 -24.046833 170.67201 -24.046833 170.67201 -24.046833 170.67201
23650000000 -24.130255 -59.68586 -24.130255 -59.68586 -24.130255 -59.68586 -24.130255 -59.68586
23705000000 -24.251482 70.95797 -24.251482 70.95797 -24.251482 70.95797 -24.251482 70.95797
23760000000 -24.051928 -157.6376 -24.051928 -157.6376 -24.051928 -157.6376 -24.051928 -157.6376
23815000000 -24.171263 -28.52198 -24.171263 -28.52198 -24.171263 -28.52198 -24.171263 -28.52198
23870000000 -24.18087 102.09904 -24.18087 102.09904 -24.18087 102.09904 -24.18087 102.09904
23925000000 -24.167562 -127.53696 -24.167562 -127.53696 -24.167562 -127.53696 -24.167562 -127.53696
23980000000 -24.201994 1.5447085 -24.201994 1.5447085 -24.201994 1.5447085 -24.201994 1.5447085
24035000000 -24.375795 131.51215 -24.375795 131.51215 -24.375795 131.51215 -24.375795 131.51215
24090000000 -24.54421 -97.058533 -24.54421 -97.058533 -24.54421 -97.058533 -24.54421 -97.058533
24145000000 -24.202108 33.513412 -24.202108 33.513412 -24.202108 33.513412 -24.202108 33.513412
24200000000 -24.188257 162.19136 -24.188257 162.19136 -24.188257 162.19136 -24.188257 162.19136
24255000000 -24.356405 -68.100578 -24.356405 -68.100578 -24.356405 -68.100578 -24.356405 -68.100578
24310000000 -24.412876 63.819233 -24.412876 63.819233 -24.412876 63.819233 -24.412876 63.819233
24365000000 -24.161255 -164.70045 -24.161255 -164.70045 -24.161255 -164.70045 -24.161255 -164.70045
24420000000 -23.968418 -34.850815 -23.968418 -34.850815 -23.968418 -34.850815 -23.968418 -34.850815
24475000000 -23.980539 94.251389 -23.980539 94.251389 -23.980539 94.251389 -23.980539 94.251389
24530000000 -24.074602 -134.709 -24.074602 -134.709 -24.074602 -134.709 -24.074602 -134.709
24585000000 -24.041153 -2.7361507 -24.041153 -2.7361507 -24.041153 -2.7361507 -24.041153 -2.7361507
24640000000 -23.983284 127.87888 -23.983284 127.87888 -23.983284 127.87888 -23.983284 127.87888
24695000000 -23.902815 -102.06981 -23.902815 -102.06981 -23.902815 -102.06981 -23.902815 -102.06981
24750000000 -23.963737 26.490774 -23.963737 26.490774 -23.963737 26.490774 -23.963737 26.490774
24805000000 -23.85239 158.46178 -23.85239 158.46178 -23.85239 158.46178 -23.85239 158.46178
24860000000 -24.11643 -71.459839 -24.11643 -71.459839 -24.11643 -71.459839 -24.11643 -71.459839
24915000000 -24.033237 60.466164 -24.033237 60.466164 -24.033237 60.466164 -24.033237 60.466164
24970000000 -23.783325 -168.70251 -23.783325 -168.70251 -23.783325 -168.70251 -23.783325 -168.70251
25025000000 -23.781921 -39.518532 -23.781921 -39.518532 -23.781921 -39.518532 -23.781921 -39.518532
25080000000 -24.033367 91.904297 -24.033367 91.904297 -24.033367 91.904297 -24.033367 91.904297
25135000000 -23.96538 -137.18002 -23.96538 -137.18002 -23.96538 -137.18002 -23.96538 -137.18002
25190000000 -23.633415 -8.4800692 -23.633415 -8.4800692 -23.633415 -8.4800692 -23.633415 -8.4800692
25245000000 -23.708775 123.17942 -23.708775 123.17942 -23.708775 123.17942 -23.708775 123.17942
25300000000 -23.497681 -106.0536 -23.497681 -106.0536 -23.497681 -106.0536 -23.497681 -106.0536
25355000000 -23.23657 23.959274 -23.23657 23.959274 -23.23657 23.959274 -23.23657 23.959274
25410000000 -23.496113 153.03299 -23.496113 153.03299 -23.496113 153.03299 -23.496113 153.03299
25465000000 -23.516302 -74.509743 -23.516302 -74.509743 -23.516302 -74.509743 -23.516302 -74.509743
25520000000 -23.257421 56.136581 -23.257421 56.136581 -23.257421 56.136581 -23.257421 56.136581
25575000000 -23.326588 -175.02444 -23.326588 -175.02444 -23.326588 -175.02444 -23.326588 -175.02444
25630000000 -23.380077 -44.83902 -23.380077 -44.83902 -23.380077 -44.83902 -23.380077 -44.83902
25685000000 -23.480772 86.661018 -23.480772 86.661018 -23.480772 86.661018 -23.480772 86.661018
25740000000 -23.393112 -142.46181 -23.393112 -142.46181 -23.393112 -142.46181 -23.393112 -142.46181
25795000000 -23.487928 -12.083184 -23.487928 -12.083184 -23.487928 -12.083184 -23.487928 -12.083184
25850000000 -23.389078 119.01602 -23.389078 119.01602 -23.389078 119.01602 -23.389078 119.01602
25905000000 -23.398767 -111.32587 -23.398767 -111.32587 -23.398767 -111.32587 -23.398767 -111.32587
25960000000 -23.601524 19.275755 -23.601524 19.275755 -23.601524 19.275755 -23.601524 19.275755
26015000000 -23.635153 151.0759 -23.635153 151.0759 -23.635153 151.0759 -23.635153 151.0759
26070000000 -23.477095 -78.639694 -23.477095 -78.639694 -23.477095 -78.639694 -23.477095 -78.639694
26125000000 -23.329828 51.198257 -23.329828 51.198257 -23.329828 51.198257 -23.329828 51.198257
26180000000 -23.634378 -178.69969 -23.634378 -178.69969 -23.634378 -178.69969 -23.634378 -178.69969
26235000000 -23.688995 -47.280914 -23.688995 -47.280914 -23.688995 -47.280914 -23.688995 -47.280914
26290000000 -23.459459 84.244553 -23.459459 84.244553 -23.459459 84.244553 -23.459459 84.244553
26345000000 -23.1726 -146.48068 -23.1726 -146.48068 -23.1726 -146.48068 -23.1726 -146.48068
26400000000 -23.420267 -17.805614 -23.420267 -17.805614 -23.420267 -17.805614 -23.420267 -17.805614
26455000000 -23.687401 114.663 -23.687401 114.663 -23.687401 114.663 -23.687401 114.663
26510000000 -23.371983 -114.23645 -23.371983 -114.23645 -23.371983 -114.23645 -23.371983 -114.23645
26565000000 -23.082201 16.883827 -23.082201 16.883827 -23.082201 16.883827 -23.082201 16.883827
26620000000 -23.300312 146.59485 -23.300312 146.59485 -23.300312 146.59485 -23.300312 146.59485
26675000000 -23.281532 -79.911942 -23.281532 -79.911942 -23.281532 -79.911942 -23.281532 -79.911942
26730000000 -23.151682 50.191006 -23.151682 50.191006 -23.151682 50.191006 -23.151682 50.191006
26785000000 -23.127905 -179.94438 -23.127905 -179.94438 -23.127905 -179.94438 -23.127905 -179.94438
26840000000 -23.355742 -47.997181 -23.355742 -47.997181 -23.355742 -47.997181 -23.355742 -47.997181
26895000000 -23.313305 84.561775 -23.313305 84.561775 -23.313305 84.561775 -23.313305 84.561775
26950000000 -22.920938 -145.95776 -22.920938 -145.95776 -22.920938 -145.95776 -22.920938 -145.95776
27005000000 -23.129641 -15.33615 -23.129641 -15.33615 -23.129641 -15.33615 -23.129641 -15.33615
27060000000 -22.905722 115.078 -22.905722 115.078 -22.905722 115.078 -22.905722 115.078
27115000000 -22.847338 -113.48445 -22.847338 -113.48445 -22.847338 -113.48445 -22.847338 -113.48445
27170000000 -22.895596 15.599046 -22.895596 15.599046 -22.895596 15.599046 -22.895596 15.599046
27225000000 -22.861135 146.85387 -22.861135 146.85387 -22.861135 146.85387 -22.861135 146.85387
27280000000 -22.873259 -83.490105 -22.873259 -83.490105 -22.873259 -83.490105 -22.873259 -83.490105
27335000000 -23.013496 47.016659 -23.013496 47.016659 -23.013496 47.016659 -23.013496 47.016659
27390000000 -22.924297 179.11221 -22.924297 179.11221 -22.924297 179.11221 -22.924297 179.11221
27445000000 -22.585745 -50.108166 -22.585745 -50.108166 -22.585745 -50.108166 -22.585745 -50.108166
27500000000 -22.458071 77.579765 -22.458071 77.579765 -22.458071 77.579765 -22.458071 77.579765
27555000000 -22.683771 -151.6842 -22.683771 -151.6842 -22.683771 -151.6842 -22.683771 -151.6842
27610000000 -22.926676 -18.999537 -22.926676 -18.999537 -22.926676 -18.999537 -22.926676 -18.999537
27665000000 -22.538717 113.85989 -22.538717 113.85989 -22.538717 113.85989 -22.538717 113.85989
27720000000 -22.363415 -117.09514 -22.363415 -117.09514 -22.363415 -117.09514 -22.363415 -117.09514
27775000000 -22.441004 12.67815 -22.441004 12.67815 -22.441004 12.67815 -22.441004 12.67815
27830000000 -22.779465 145.00778 -22.779465 145.00778 -22.779465 145.00778 -22.779465 145.00778
27885000000 -22.612949 -81.406906 -22.612949 -81.406906 -22.612949 -81.406906 -22.612949 -81.406906
27940000000 -22.278904 48.045822 -22.278904 48.045822 -22.278904 48.045822 -22.278904 48.045822
27995000000 -22.431944 176.36929 -22.431944 176.36929 -22.431944 176.36929 -22.431944 176.36929
28050000000 -22.874588 -52.315731 -22.874588 -52.315731 -22.874588 -52.315731 -22.874588 -52.315731
28105000000 -22.993559 81.41349 -22.993559 81.41349 -22.993559 81.41349 -22.993559 81.41349
28160000000 -22.723232 -147.36868 -22.723232 -147.36868 -22.723232 -147.36868 -22.723232 -147.36868
28215000000 -22.670855 -17.89176 -22.670855 -17.89176 -22.670855 -17.89176 -22.670855 -17.89176
28270000000 -22.861538 112.5801 -22.861538 112.5801 -22.861538 112.5801 -22.861538 112.5801
28325000000 -22.976503 -115.88914 -22.976503 -115.88914 -22.976503 -115.88914 -22.976503 -115.88914
28380000000 -23.047316 15.334009 -23.047316 15.334009 -23.047316 15.334009 -23.047316 15.334009
28435000000 -22.901941 146.44751 -22.901941 146.44751 -22.901941 146.44751 -22.901941 146.44751
28490000000 -22.993811 -82.855019 -22.993811 -82.855019 -22.993811 -82.855019 -22.993811 -82.855019
28545000000 -23.085894 48.716309 -23.085894 48.716309 -23.085894 48.716309 -23.085894 48.716309
28600000000 -23.156651 179.4019 -23.156651 179.4019 -23.156651 179.4019 -23.156651 179.4019
28655000000 -23.081732 -48.937595 -23.081732 -48.937595 -23.081732 -48.937595 -23.081732 -48.937595
28710000000 -22.960217 81.749336 -22.960217 81.749336 -22.960217 81.749336 -22.960217 81.749336
28765000000 -22.970671 -147.24173 -22.970671 -147.24173 -22.970671 -147.24173 -22.970671 -147.24173
28820000000 -22.99115 -16.275045 -22.99115 -16.275045 -22.99115 -16.275045 -22.99115 -16.275045
28875000000 -23.027271 114.49364 -23.027271 114.49364 -23.027271 114.49364 -23.027271 114.49364
28930000000 -22.970963 -113.4829 -22.970963 -113.4829 -22.970963 -113.4829 -22.970963 -113.4829
28985000000 -23.169518 18.579752 -23.169518 18.579752 -23.169518 18.579752 -23.169518 18.579752
29040000000 -23.152885 150.18315 -23.152885 150.18315 -23.152885 150.18315 -23.152885 150.18315
29095000000 -23.095776 -79.780571 -23.095776 -79.780571 -23.095776 -79.780571 -23.095776 -79.780571
29150000000 -22.974766 51.235058 -22.974766 51.235058 -22.974766 51.235058 -22.974766 51.235058
29205000000 -23.197355 -177.2648 -23.197355 -177.2648 -23.197355 -177.2648 -23.197355 -177.2648
29260000000 -23.124456 -44.720284 -23.124456 -44.720284 -23.124456 -44.720284 -23.124456 -44.720284
29315000000 -22.941246 85.758163 -22.941246 85.758163 -22.941246 85.758163 -22.941246 85.758163
29370000000 -22.932423 -143.49696 -22.932423 -143.49696 -22.932423 -143.49696 -22.932423 -143.49696
29425000000 -23.124037 -12.917333 -23.124037 -12.917333 -23.124037 -12.917333 -23.124037 -12.917333
29480000000 -23.319679 121.11481 -23.319679 121.11481 -23.319679 121.11481 -23.319679 121.11481
29535000000 -22.969545 -109.21729 -22.969545 -109.21729 -22.969545 -109.21729 -22.969545 -109.21729
29590000000 -22.781044 21.111887 -22.781044 21.111887 -22.781044 21.111887 -22.781044 21.111887
29645000000 -22.782269 152.55673 -22.782269 152.55673 -22.782269 152.55673 -22.782269 152.55673
29700000000 -22.796516 -76.327614 -22.796516 -76.327614 -22.796516 -76.327614 -22.796516 -76.327614
29755000000 -22.647062 54.195911 -22.647062 54.195911 -22.647062 54.195911 -22.647062 54.195911
29810000000 -22.528854 -173.91905 -22.528854 -173.91905 -22.528854 -173.91905 -22.528854 -173.91905
29865000000 -22.299501 -43.849621 -22.299501 -43.849621 -22.299501 -43.849621 -22.299501 -43.849621
29920000000 -22.599401 86.474182 -22.599401 86.474182 -22.599401 86.474182 -22.599401 86.474182
29975000000 -22.781105 -142.5954 -22.781105 -142.5954 -22.781105 -142.5954 -22.781105 -142.5954
30030000000 -22.569502 -8.6684618 -22.569502 -8.6684618 -22.569502 -8.6684618 -22.569502 -8.6684618
30085000000 -22.229576 121.76202 -22.229576 121.76202 -22.229576 121.76202 -22.229576 121.76202
30140000000 -22.212532 -107.36667 -22.212532 -107.36667 -22.212532 -107.36667 -22.212532 -107.36667
30195000000 -22.494791 22.843168 -22.494791 22.843168 -22.494791 22.843168 -22.494791 22.843168
30250000000 -22.43399 155.27815 -22.43399 155.27815 -22.43399 155.27815 -22.43399 155.27815
30305000000 -22.339195 -73.842354 -22.339195 -73.842354 -22.339195 -73.842354 -22.339195 -73.842354
30360000000 -22.412868 57.974468 -22.412868 57.974468 -22.412868 57.974468 -22.412868 57.974468
30415000000 -22.414072 -172.01395 -22.414072 -172.01395 -22.414072 -172.01395 -22.414072 -172.01395
30470000000 -22.31035 -40.649784 -22.31035 -40.649784 -22.31035 -40.649784 -22.31035 -40.649784
30525000000 -22.425922 90.181801 -22.425922 90.181801 -22.425922 90.181801 -22.425922 90.181801
30580000000 -22.444649 -136.82599 -22.444649 -136.82599 -22.444649 -136.82599 -22.444649 -136.82599
30635000000 -22.506023 -7.2090101 -22.506023 -7.2090101 -22.506023 -7.2090101 -22.506023 -7.2090101
30690000000 -22.404181 124.11947 -22.404181 124.11947 -22.404181 124.11947 -22.404181 124.11947
30745000000 -22.50621 -104.10706 -22.50621 -104.10706 -22.50621 -104.10706 -22.50621 -104.10706
30800000000 -22.639847 27.98856 -22.639847 27.98856 -22.639847 27.98856 -22.639847 27.98856
30855000000 -22.44706 158.91289 -22.44706 158.91289 -22.44706 158.91289 -22.44706 158.91289
30910000000 -22.612335 -70.619751 -22.612335 -70.619751 -22.612335 -70.619751 -22.612335 -70.619751
30965000000 -22.318987 61.013451 -22.318987 61.013451 -22.318987 61.013451 -22.318987 61.013451
31020000000 -22.541111 -167.56213 -22.541111 -167.56213 -22.541111 -167.56213 -22.541111 -167.56213
31075000000 -22.507149 -37.206741 -22.507149 -37.206741 -22.507149 -37.206741 -22.507149 -37.206741
31130000000 -22.257559 95.271889 -22.257559 95.271889 -22.257559 95.271889 -22.257559 95.271889
31185000000 -22.223139 -134.47282 -22.223139 -134.47282 -22.223139 -134.47282 -22.223139 -134.47282
31240000000 -22.193026 -2.1388333 -22.193026 -2.1388333 -22.193026 -2.1388333 -22.193026 -2.1388333
31295000000 -22.593809 128.25287 -22.593809 128.25287 -22.593809 128.25287 -22.593809 128.25287
31350000000 -22.485039 -99.002647 -22.485039 -99.002647 -22.485039 -99.002647 -22.485039 -99.002647
31405000000 -22.102356 34.023388 -22.102356 34.023388 -22.102356 34.023388 -22.102356 34.023388
31460000000 -22.16223 164.24564 -22.16223 164.24564 -22.16223 164.24564 -22.16223 164.24564
31515000000 -22.316517 -64.517723 -22.316517 -64.517723 -22.316517 -64.517723 -22.316517 -64.517723
31570000000 -22.572195 67.480118 -22.572195 67.480118 -22.572195 67.480118 -22.572195 67.480118
31625000000 -22.241493 -161.70822 -22.241493 -161.70822 -22.241493 -161.70822 -22.241493 -161.70822
31680000000 -22.085814 -26.98394 -22.085814 -26.98394 -22.085814 -26.98394 -22.085814 -26.98394
31735000000 -22.370682 100.56055 -22.370682 100.56055 -22.370682 100.56055 -22.370682 100.56055
31790000000 -22.28302 -127.54107 -22.28302 -127.54107 -22.28302 -127.54107 -22.28302 -127.54107
31845000000 -22.303101 5.2903728 -22.303101 5.2903728 -22.303101 5.2903728 -22.303101 5.2903728
31900000000 -22.010269 135.44464 -22.010269 135.44464 -22.010269 135.44464 -22.010269 135.44464
31955000000 -22.023155 -93.20649 -22.023155 -93.20649 -22.023155 -93.20649 -22.023155 -93.20649
32010000000 -22.51429 37.869488 -22.51429 37.869488 -22.51429 37.869488 -22.51429 37.869488
32065000000 -22.08839 170.25189 -22.08839 170.25189 -22.08839 170.25189 -22.08839 170.25189
32120000000 -22.03056 -56.107155 -22.03056 -56.107155 -22.03056 -56.107155 -22.03056 -56.107155
32175000000 -22.097586 72.407791 -22.097586 72.407791 -22.097586 72.407791 -22.097586 72.407791
32230000000 -22.322582 -156.21959 -22.322582 -156.21959 -22.322582 -156.21959 -22.322582 -156.21959
32285000000 -22.235645 -24.504858 -22.235645 -24.504858 -22.235645 -24.504858 -22.235645 -24.504858
32340000000 -22.174555 107.80603 -22.174555 107.80603 -22.174555 107.80603 -22.174555 107.80603
32395000000 -22.017565 -121.75834 -22.017565 -121.75834 -22.017565 -121.75834 -22.017565 -121.75834
32450000000 -22.178726 8.9085493 -22.178726 8.9085493 -22.178726 8.9085493 -22.178726 8.9085493
32505000000 -22.188894 139.75996 -22.188894 139.75996 -22.188894 139.75996 -22.188894 139.75996
32560000000 -21.985535 -88.256104 -21.985535 -88.256104 -21.985535 -88.256104 -21.985535 -88.256104
32615000000 -22.041641 42.231331 -22.041641 42.231331 -22.041641 42.231331 -22.041641 42.231331
32670000000 -22.397255 173.19547 -22.397255 173.19547 -22.397255 173.19547 -22.397255 173.19547
32725000000 -22.118851 -53.287701 -22.118851 -53.287701 -22.118851 -53.287701 -22.118851 -53.287701
32780000000 -22.275799 79.148842 -22.275799 79.148842 -22.275799 79.148842 -22.275799 79.148842
32835000000 -21.993797 -150.74309 -21.993797 -150.74309 -21.993797 -150.74309 -21.993797 -150.74309
32890000000 -22.358904 -19.667465 -22.358904 -19.667465 -22.358904 -19.667465 -22.358904 -19.667465
32945000000 -22.551241 112.08716 -22.551241 112.08716 -22.551241 112.08716 -22.551241 112.08716
33000000000 -21.965727 -115.97328 -21.965727 -115.97328 -21.965727 -115.97328 -21.965727 -115.97328
