!Keysight Technologies,N5224B,MY57181201,A.12.70.07
!Date: Friday, July 15, 2022 11:53:32
!Correction: S11(Off) 
!S21(Off) 
!S12(Off) 
!S22(Off) 
!S2P File: Measurements: S11, S21, S12, S22:
# Hz S  dB   R 50
22000000000 -18.736362 -79.434807 -200 45 -200 45 -200 45
22055000000 -30.647598 -122.83067 -200 45 -200 45 -200 45
22110000000 -17.618538 -102.45461 -200 45 -200 45 -200 45
22165000000 -21.545094 -40.948708 -200 45 -200 45 -200 45
22220000000 -21.596205 -121.59417 -200 45 -200 45 -200 45
22275000000 -16.596279 -67.921829 -200 45 -200 45 -200 45
22330000000 -28.023212 -36.918636 -200 45 -200 45 -200 45
22385000000 -17.604969 -94.192657 -200 45 -200 45 -200 45
22440000000 -17.639727 -34.32983 -200 45 -200 45 -200 45
22495000000 -26.646196 -104.59721 -200 45 -200 45 -200 45
22550000000 -16.390888 -63.000423 -200 45 -200 45 -200 45
22605000000 -21.082504 -10.167175 -200 45 -200 45 -200 45
22660000000 -20.32766 -85.140144 -200 45 -200 45 -200 45
22715000000 -16.433798 -35.091927 -200 45 -200 45 -200 45
22770000000 -26.766529 -11.875516 -200 45 -200 45 -200 45
22825000000 -17.706619 -60.357147 -200 45 -200 45 -200 45
22880000000 -18.037247 -11.961057 -200 45 -200 45 -200 45
22935000000 -25.952108 -53.001949 -200 45 -200 45 -200 45
22990000000 -17.337797 -35.376751 -200 45 -200 45 -200 45
23045000000 -21.2679 2.2570884 -200 45 -200 45 -200 45
23100000000 -22.525784 -52.658543 -200 45 -200 45 -200 45
23155000000 -18.30121 -15.830885 -200 45 -200 45 -200 45
23210000000 -25.274729 9.0569763 -200 45 -200 45 -200 45
23265000000 -21.212587 -39.222927 -200 45 -200 45 -200 45
23320000000 -19.986101 9.4062939 -200 45 -200 45 -200 45
23375000000 -28.379501 -1.9077146 -200 45 -200 45 -200 45
23430000000 -20.97374 -14.926089 -200 45 -200 45 -200 45
23485000000 -22.734974 23.370127 -200 45 -200 45 -200 45
23540000000 -28.351736 -15.405831 -200 45 -200 45 -200 45
23595000000 -21.832453 -0.054683179 -200 45 -200 45 -200 45
23650000000 -28.057426 39.459164 -200 45 -200 45 -200 45
23705000000 -27.719059 -13.486292 -200 45 -200 45 -200 45
23760000000 -25.744423 30.775316 -200 45 -200 45 -200 45
23815000000 -35.124729 35.471558 -200 45 -200 45 -200 45
23870000000 -32.857544 8.1287241 -200 45 -200 45 -200 45
23925000000 -33.882862 83.738403 -200 45 -200 45 -200 45
23980000000 -41.811378 75.649078 -200 45 -200 45 -200 45
24035000000 -33.521069 114.60645 -200 45 -200 45 -200 45
24090000000 -34.264507 145.11908 -200 45 -200 45 -200 45
24145000000 -29.422482 119.69508 -200 45 -200 45 -200 45
24200000000 -30.119576 147.32272 -200 45 -200 45 -200 45
24255000000 -44.614502 174.47456 -200 45 -200 45 -200 45
24310000000 -26.291037 159.45197 -200 45 -200 45 -200 45
24365000000 -27.045128 -155.17821 -200 45 -200 45 -200 45
24420000000 -28.946285 145.12929 -200 45 -200 45 -200 45
24475000000 -22.297714 -175.2601 -200 45 -200 45 -200 45
24530000000 -29.21339 -148.52223 -200 45 -200 45 -200 45
24585000000 -24.003344 163.78557 -200 45 -200 45 -200 45
24640000000 -21.327785 -147.33679 -200 45 -200 45 -200 45
24695000000 -32.22987 170.03079 -200 45 -200 45 -200 45
24750000000 -20.052029 -171.56511 -200 45 -200 45 -200 45
24805000000 -25.577444 -131.32652 -200 45 -200 45 -200 45
24860000000 -25.079676 178.60129 -200 45 -200 45 -200 45
24915000000 -20.454378 -140.30392 -200 45 -200 45 -200 45
24970000000 -27.336042 -136.23875 -200 45 -200 45 -200 45
25025000000 -22.09235 -159.92735 -200 45 -200 45 -200 45
25080000000 -22.331553 -126.05147 -200 45 -200 45 -200 45
25135000000 -25.9939 -159.28416 -200 45 -200 45 -200 45
25190000000 -21.565081 -137.12685 -200 45 -200 45 -200 45
25245000000 -25.531147 -125.57275 -200 45 -200 45 -200 45
25300000000 -23.470779 -139.64131 -200 45 -200 45 -200 45
25355000000 -23.710402 -117.75188 -200 45 -200 45 -200 45
25410000000 -26.720825 -139.35991 -200 45 -200 45 -200 45
25465000000 -25.543798 -112.6481 -200 45 -200 45 -200 45
25520000000 -29.070181 -110.92902 -200 45 -200 45 -200 45
25575000000 -23.868717 -113.8948 -200 45 -200 45 -200 45
25630000000 -30.890055 -78.438515 -200 45 -200 45 -200 45
25685000000 -28.759068 -123.45127 -200 45 -200 45 -200 45
25740000000 -24.867296 -58.748383 -200 45 -200 45 -200 45
25795000000 -39.524807 18.772877 -200 45 -200 45 -200 45
25850000000 -24.987118 -83.072815 -200 45 -200 45 -200 45
25905000000 -24.453823 -5.8861017 -200 45 -200 45 -200 45
25960000000 -36.960167 -132.15981 -200 45 -200 45 -200 45
26015000000 -21.995483 -39.651615 -200 45 -200 45 -200 45
26070000000 -25.055347 48.232773 -200 45 -200 45 -200 45
26125000000 -28.287914 -71.132301 -200 45 -200 45 -200 45
26180000000 -20.071882 10.86655 -200 45 -200 45 -200 45
26235000000 -30.143663 80.047569 -200 45 -200 45 -200 45
26290000000 -21.351864 -20.623793 -200 45 -200 45 -200 45
26345000000 -19.436834 40.021069 -200 45 -200 45 -200 45
26400000000 -33.151001 -44.482937 -200 45 -200 45 -200 45
26455000000 -19.145468 11.411433 -200 45 -200 45 -200 45
26510000000 -22.427895 90.029343 -200 45 -200 45 -200 45
26565000000 -22.079594 -0.73284549 -200 45 -200 45 -200 45
26620000000 -18.407694 56.819168 -200 45 -200 45 -200 45
26675000000 -30.403322 71.030792 -200 45 -200 45 -200 45
26730000000 -18.973772 28.232883 -200 45 -200 45 -200 45
26785000000 -20.288597 78.555443 -200 45 -200 45 -200 45
26840000000 -24.639887 22.114088 -200 45 -200 45 -200 45
26895000000 -18.278624 53.559952 -200 45 -200 45 -200 45
26950000000 -23.99605 73.957558 -200 45 -200 45 -200 45
27005000000 -21.032953 30.909451 -200 45 -200 45 -200 45
27060000000 -21.136372 71.516182 -200 45 -200 45 -200 45
27115000000 -25.325346 50.568134 -200 45 -200 45 -200 45
27170000000 -21.1999 51.755711 -200 45 -200 45 -200 45
27225000000 -23.519247 68.722694 -200 45 -200 45 -200 45
27280000000 -24.363953 45.380127 -200 45 -200 45 -200 45
27335000000 -23.631552 56.431114 -200 45 -200 45 -200 45
27390000000 -26.748669 63.143276 -200 45 -200 45 -200 45
27445000000 -26.626102 62.963013 -200 45 -200 45 -200 45
27500000000 -24.827276 49.748375 -200 45 -200 45 -200 45
27555000000 -27.662125 58.441319 -200 45 -200 45 -200 45
27610000000 -29.919889 16.466248 -200 45 -200 45 -200 45
27665000000 -26.99534 49.321491 -200 45 -200 45 -200 45
27720000000 -50.971752 26.444933 -200 45 -200 45 -200 45
27775000000 -28.331047 1.5537214 -200 45 -200 45 -200 45
27830000000 -34.734837 63.146854 -200 45 -200 45 -200 45
27885000000 -27.664438 -67.375648 -200 45 -200 45 -200 45
27940000000 -29.046949 16.209103 -200 45 -200 45 -200 45
27995000000 -31.467772 -105.96653 -200 45 -200 45 -200 45
28050000000 -25.619265 -33.627819 -200 45 -200 45 -200 45
28105000000 -38.845306 -96.287384 -200 45 -200 45 -200 45
28160000000 -24.581444 -80.272057 -200 45 -200 45 -200 45
28215000000 -28.432455 -22.7789 -200 45 -200 45 -200 45
28270000000 -26.662088 -98.447975 -200 45 -200 45 -200 45
28325000000 -23.412575 -38.63129 -200 45 -200 45 -200 45
28380000000 -33.05127 -67.474007 -200 45 -200 45 -200 45
28435000000 -22.044912 -63.395855 -200 45 -200 45 -200 45
28490000000 -27.390844 -21.447205 -200 45 -200 45 -200 45
28545000000 -23.782751 -80.516006 -200 45 -200 45 -200 45
28600000000 -21.702579 -33.616024 -200 45 -200 45 -200 45
28655000000 -28.311781 -59.08305 -200 45 -200 45 -200 45
28710000000 -20.091047 -52.611866 -200 45 -200 45 -200 45
28765000000 -25.573484 -5.6131401 -200 45 -200 45 -200 45
28820000000 -22.127796 -73.44043 -200 45 -200 45 -200 45
28875000000 -20.753407 -19.156187 -200 45 -200 45 -200 45
28930000000 -32.768177 -47.126122 -200 45 -200 45 -200 45
28985000000 -19.170574 -37.921223 -200 45 -200 45 -200 45
29040000000 -23.597721 11.420413 -200 45 -200 45 -200 45
29095000000 -23.459352 -58.018921 -200 45 -200 45 -200 45
29150000000 -18.255024 -5.4058833 -200 45 -200 45 -200 45
29205000000 -31.521862 8.7244549 -200 45 -200 45 -200 45
29260000000 -19.17164 -31.363949 -200 45 -200 45 -200 45
29315000000 -20.704086 29.220335 -200 45 -200 45 -200 45
29370000000 -23.775595 -46.433353 -200 45 -200 45 -200 45
29425000000 -18.061064 4.0495381 -200 45 -200 45 -200 45
29480000000 -27.36895 41.360039 -200 45 -200 45 -200 45
29535000000 -19.875893 -18.645374 -200 45 -200 45 -200 45
29590000000 -19.877695 37.687187 -200 45 -200 45 -200 45
29645000000 -28.194681 -8.00702 -200 45 -200 45 -200 45
29700000000 -17.959448 17.163174 -200 45 -200 45 -200 45
29755000000 -23.934978 51.937824 -200 45 -200 45 -200 45
29810000000 -20.61751 -0.72626549 -200 45 -200 45 -200 45
29865000000 -19.233994 44.260101 -200 45 -200 45 -200 45
29920000000 -25.151945 22.772205 -200 45 -200 45 -200 45
29975000000 -19.000605 27.93586 -200 45 -200 45 -200 45
30030000000 -23.179148 55.61813 -200 45 -200 45 -200 45
30085000000 -20.183914 19.114597 -200 45 -200 45 -200 45
30140000000 -20.465305 46.543293 -200 45 -200 45 -200 45
30195000000 -23.791588 17.763601 -200 45 -200 45 -200 45
30250000000 -19.543318 39.983891 -200 45 -200 45 -200 45
30305000000 -25.711052 46.029461 -200 45 -200 45 -200 45
30360000000 -19.629942 24.566761 -200 45 -200 45 -200 45
30415000000 -22.734486 62.778538 -200 45 -200 45 -200 45
30470000000 -22.037855 -0.22482014 -200 45 -200 45 -200 45
30525000000 -19.768909 43.84383 -200 45 -200 45 -200 45
30580000000 -31.187521 -17.217426 -200 45 -200 45 -200 45
30635000000 -19.198135 19.232458 -200 45 -200 45 -200 45
30690000000 -27.701225 88.819931 -200 45 -200 45 -200 45
30745000000 -20.568981 -22.052656 -200 45 -200 45 -200 45
30800000000 -20.953255 43.13224 -200 45 -200 45 -200 45
30855000000 -25.654531 -83.575417 -200 45 -200 45 -200 45
30910000000 -18.612341 5.4548087 -200 45 -200 45 -200 45
30965000000 -31.986292 124.10889 -200 45 -200 45 -200 45
31020000000 -18.356981 -40.750046 -200 45 -200 45 -200 45
31075000000 -21.636408 38.44923 -200 45 -200 45 -200 45
31130000000 -21.928944 -93.301109 -200 45 -200 45 -200 45
31185000000 -17.186279 -12.896132 -200 45 -200 45 -200 45
31240000000 -40.083145 -158.95082 -200 45 -200 45 -200 45
31295000000 -16.17054 -52.686321 -200 45 -200 45 -200 45
31350000000 -21.185179 18.792667 -200 45 -200 45 -200 45
31405000000 -18.558187 -90.323669 -200 45 -200 45 -200 45
31460000000 -16.240705 -27.592409 -200 45 -200 45 -200 45
31515000000 -30.78994 -82.013252 -200 45 -200 45 -200 45
31570000000 -15.146774 -57.074589 -200 45 -200 45 -200 45
31625000000 -20.372463 -5.548945 -200 45 -200 45 -200 45
31680000000 -17.381645 -82.620758 -200 45 -200 45 -200 45
31735000000 -14.786662 -35.588661 -200 45 -200 45 -200 45
31790000000 -24.067877 -77.83979 -200 45 -200 45 -200 45
31845000000 -14.320162 -60.20837 -200 45 -200 45 -200 45
31900000000 -19.56212 -22.990818 -200 45 -200 45 -200 45
31955000000 -15.804591 -76.897942 -200 45 -200 45 -200 45
32010000000 -14.624168 -39.823765 -200 45 -200 45 -200 45
32065000000 -21.387815 -76.774178 -200 45 -200 45 -200 45
32120000000 -14.0311 -61.209343 -200 45 -200 45 -200 45
32175000000 -19.971537 -31.964586 -200 45 -200 45 -200 45
32230000000 -15.181577 -75.288971 -200 45 -200 45 -200 45
32285000000 -14.509624 -35.455318 -200 45 -200 45 -200 45
32340000000 -19.513725 -81.462418 -200 45 -200 45 -200 45
32395000000 -13.671465 -60.15588 -200 45 -200 45 -200 45
32450000000 -21.782181 -39.110889 -200 45 -200 45 -200 45
32505000000 -15.781272 -75.02063 -200 45 -200 45 -200 45
32560000000 -15.304603 -32.442459 -200 45 -200 45 -200 45
32615000000 -20.451662 -88.542923 -200 45 -200 45 -200 45
32670000000 -13.981411 -57.394939 -200 45 -200 45 -200 45
32725000000 -23.420223 -35.524761 -200 45 -200 45 -200 45
32780000000 -16.218512 -79.83532 -200 45 -200 45 -200 45
32835000000 -17.546738 -29.372082 -200 45 -200 45 -200 45
32890000000 -21.888647 -95.771561 -200 45 -200 45 -200 45
32945000000 -14.926406 -58.204865 -200 45 -200 45 -200 45
33000000000 -27.112507 -45.99036 -200 45 -200 45 -200 45
