!Keysight Technologies,N5224B,MY57181201,A.12.70.07
!Date: Friday, July 15, 2022 11:53:56
!Correction: S11(Response(S21)) 
!S21(Response(S21)) 
!S12(Response(S21)) 
!S22(Response(S21)) 
!S2P File: Measurements: S11, S21, S12, S22:
# Hz S  dB   R 50
22000000000 -24.397615 10.573853 -24.397615 10.573853 -24.397615 10.573853 -24.397615 10.573853
22055000000 -24.483873 140.41373 -24.483873 140.41373 -24.483873 140.41373 -24.483873 140.41373
22110000000 -24.406393 -89.996956 -24.406393 -89.996956 -24.406393 -89.996956 -24.406393 -89.996956
22165000000 -24.366894 39.440277 -24.366894 39.440277 -24.366894 39.440277 -24.366894 39.440277
22220000000 -24.388523 167.42693 -24.388523 167.42693 -24.388523 167.42693 -24.388523 167.42693
22275000000 -24.605673 -62.396511 -24.605673 -62.396511 -24.605673 -62.396511 -24.605673 -62.396511
22330000000 -24.338482 65.127289 -24.338482 65.127289 -24.338482 65.127289 -24.338482 65.127289
22385000000 -24.569712 -163.8636 -24.569712 -163.8636 -24.569712 -163.8636 -24.569712 -163.8636
22440000000 -23.906059 -35.51313 -23.906059 -35.51313 -23.906059 -35.51313 -23.906059 -35.51313
22495000000 -24.147959 93.531166 -24.147959 93.531166 -24.147959 93.531166 -24.147959 93.531166
22550000000 -24.132389 -137.81293 -24.132389 -137.81293 -24.132389 -137.81293 -24.132389 -137.81293
22605000000 -24.223413 -6.9060221 -24.223413 -6.9060221 -24.223413 -6.9060221 -24.223413 -6.9060221
22660000000 -24.022301 125.85477 -24.022301 125.85477 -24.022301 125.85477 -24.022301 125.85477
22715000000 -24.022936 -105.58429 -24.022936 -105.58429 -24.022936 -105.58429 -24.022936 -105.58429
22770000000 -23.64452 23.554329 -23.64452 23.554329 -23.64452 23.554329 -23.64452 23.554329
22825000000 -24.177361 152.24796 -24.177361 152.24796 -24.177361 152.24796 -24.177361 152.24796
22880000000 -23.733021 -76.701523 -23.733021 -76.701523 -23.733021 -76.701523 -23.733021 -76.701523
22935000000 -24.069304 51.18174 -24.069304 51.18174 -24.069304 51.18174 -24.069304 51.18174
22990000000 -24.195995 -178.26277 -24.195995 -178.26277 -24.195995 -178.26277 -24.195995 -178.26277
23045000000 -24.067989 -49.513554 -24.067989 -49.513554 -24.067989 -49.513554 -24.067989 -49.513554
23100000000 -23.770161 81.772011 -23.770161 81.772011 -23.770161 81.772011 -23.770161 81.772011
23155000000 -23.80867 -151.52612 -23.80867 -151.52612 -23.80867 -151.52612 -23.80867 -151.52612
23210000000 -24.089226 -19.703516 -24.089226 -19.703516 -24.089226 -19.703516 -24.089226 -19.703516
23265000000 -24.211075 110.33901 -24.211075 110.33901 -24.211075 110.33901 -24.211075 110.33901
23320000000 -24.00478 -118.45023 -24.00478 -118.45023 -24.00478 -118.45023 -24.00478 -118.45023
23375000000 -24.091097 10.361798 -24.091097 10.361798 -24.091097 10.361798 -24.091097 10.361798
23430000000 -24.154121 142.26128 -24.154121 142.26128 -24.154121 142.26128 -24.154121 142.26128
23485000000 -24.180721 -89.044182 -24.180721 -89.044182 -24.180721 -89.044182 -24.180721 -89.044182
23540000000 -24.433569 41.923512 -24.433569 41.923512 -24.433569 41.923512 -24.433569 41.923512
23595000000 -24.366432 170.85222 -24.366432 170.85222 -24.366432 170.85222 -24.366432 170.85222
23650000000 -24.373808 -57.588589 -24.373808 -57.588589 -24.373808 -57.588589 -24.373808 -57.588589
23705000000 -24.222521 70.722473 -24.222521 70.722473 -24.222521 70.722473 -24.222521 70.722473
23760000000 -24.380224 -158.472 -24.380224 -158.472 -24.380224 -158.472 -24.380224 -158.472
23815000000 -24.222569 -28.583422 -24.222569 -28.583422 -24.222569 -28.583422 -24.222569 -28.583422
23870000000 -24.136093 101.82599 -24.136093 101.82599 -24.136093 101.82599 -24.136093 101.82599
23925000000 -24.159615 -127.6262 -24.159615 -127.6262 -24.159615 -127.6262 -24.159615 -127.6262
23980000000 -24.326736 3.2162728 -24.326736 3.2162728 -24.326736 3.2162728 -24.326736 3.2162728
24035000000 -24.19014 134.44348 -24.19014 134.44348 -24.19014 134.44348 -24.19014 134.44348
24090000000 -24.111591 -95.754776 -24.111591 -95.754776 -24.111591 -95.754776 -24.111591 -95.754776
24145000000 -24.207024 33.084896 -24.207024 33.084896 -24.207024 33.084896 -24.207024 33.084896
24200000000 -24.31823 163.86015 -24.31823 163.86015 -24.31823 163.86015 -24.31823 163.86015
24255000000 -24.537291 -65.76564 -24.537291 -65.76564 -24.537291 -65.76564 -24.537291 -65.76564
24310000000 -24.253538 65.605057 -24.253538 65.605057 -24.253538 65.605057 -24.253538 65.605057
24365000000 -24.095654 -165.06979 -24.095654 -165.06979 -24.095654 -165.06979 -24.095654 -165.06979
24420000000 -24.04899 -36.05674 -24.04899 -36.05674 -24.04899 -36.05674 -24.04899 -36.05674
24475000000 -24.165642 92.936699 -24.165642 92.936699 -24.165642 92.936699 -24.165642 92.936699
24530000000 -24.183914 -135.03975 -24.183914 -135.03975 -24.183914 -135.03975 -24.183914 -135.03975
24585000000 -24.0776 -3.5300345 -24.0776 -3.5300345 -24.0776 -3.5300345 -24.0776 -3.5300345
24640000000 -23.838545 128.21735 -23.838545 128.21735 -23.838545 128.21735 -23.838545 128.21735
24695000000 -23.735561 -103.19256 -23.735561 -103.19256 -23.735561 -103.19256 -23.735561 -103.19256
24750000000 -23.845282 27.836323 -23.845282 27.836323 -23.845282 27.836323 -23.845282 27.836323
24805000000 -23.926861 158.23172 -23.926861 158.23172 -23.926861 158.23172 -23.926861 158.23172
24860000000 -24.148417 -69.431282 -24.148417 -69.431282 -24.148417 -69.431282 -24.148417 -69.431282
24915000000 -24.075684 60.152718 -24.075684 60.152718 -24.075684 60.152718 -24.075684 60.152718
24970000000 -23.966093 -169.65068 -23.966093 -169.65068 -23.966093 -169.65068 -23.966093 -169.65068
25025000000 -23.699913 -40.320499 -23.699913 -40.320499 -23.699913 -40.320499 -23.699913 -40.320499
25080000000 -23.776625 88.878937 -23.776625 88.878937 -23.776625 88.878937 -23.776625 88.878937
25135000000 -23.952505 -141.73805 -23.952505 -141.73805 -23.952505 -141.73805 -23.952505 -141.73805
25190000000 -23.948381 -9.6042719 -23.948381 -9.6042719 -23.948381 -9.6042719 -23.948381 -9.6042719
25245000000 -23.58317 122.58308 -23.58317 122.58308 -23.58317 122.58308 -23.58317 122.58308
25300000000 -23.410847 -107.00166 -23.410847 -107.00166 -23.410847 -107.00166 -23.410847 -107.00166
25355000000 -23.306078 22.580328 -23.306078 22.580328 -23.306078 22.580328 -23.306078 22.580328
25410000000 -23.681042 153.18471 -23.681042 153.18471 -23.681042 153.18471 -23.681042 153.18471
25465000000 -23.527527 -75.526192 -23.527527 -75.526192 -23.527527 -75.526192 -23.527527 -75.526192
25520000000 -23.673552 54.569344 -23.673552 54.569344 -23.673552 54.569344 -23.673552 54.569344
25575000000 -23.656519 -173.89058 -23.656519 -173.89058 -23.656519 -173.89058 -23.656519 -173.89058
25630000000 -23.413857 -44.383888 -23.413857 -44.383888 -23.413857 -44.383888 -23.413857 -44.383888
25685000000 -23.356159 85.918549 -23.356159 85.918549 -23.356159 85.918549 -23.356159 85.918549
25740000000 -23.329853 -145.17888 -23.329853 -145.17888 -23.329853 -145.17888 -23.329853 -145.17888
25795000000 -23.631857 -13.263606 -23.631857 -13.263606 -23.631857 -13.263606 -23.631857 -13.263606
25850000000 -23.287619 118.28793 -23.287619 118.28793 -23.287619 118.28793 -23.287619 118.28793
25905000000 -23.427362 -111.2402 -23.427362 -111.2402 -23.427362 -111.2402 -23.427362 -111.2402
25960000000 -23.294538 19.604561 -23.294538 19.604561 -23.294538 19.604561 -23.294538 19.604561
26015000000 -23.239805 151.10176 -23.239805 151.10176 -23.239805 151.10176 -23.239805 151.10176
26070000000 -23.119461 -79.160149 -23.119461 -79.160149 -23.119461 -79.160149 -23.119461 -79.160149
26125000000 -23.436056 51.393436 -23.436056 51.393436 -23.436056 51.393436 -23.436056 51.393436
26180000000 -23.574203 -175.34245 -23.574203 -175.34245 -23.574203 -175.34245 -23.574203 -175.34245
26235000000 -23.411551 -43.878723 -23.411551 -43.878723 -23.411551 -43.878723 -23.411551 -43.878723
26290000000 -23.089622 84.935425 -23.089622 84.935425 -23.089622 84.935425 -23.089622 84.935425
26345000000 -23.44894 -146.09152 -23.44894 -146.09152 -23.44894 -146.09152 -23.44894 -146.09152
26400000000 -23.477837 -14.542619 -23.477837 -14.542619 -23.477837 -14.542619 -23.477837 -14.542619
26455000000 -23.473055 115.93417 -23.473055 115.93417 -23.473055 115.93417 -23.473055 115.93417
26510000000 -23.247404 -113.70752 -23.247404 -113.70752 -23.247404 -113.70752 -23.247404 -113.70752
26565000000 -22.998798 16.167639 -22.998798 16.167639 -22.998798 16.167639 -22.998798 16.167639
26620000000 -22.990644 146.83688 -22.990644 146.83688 -22.990644 146.83688 -22.990644 146.83688
26675000000 -23.001602 -83.83667 -23.001602 -83.83667 -23.001602 -83.83667 -23.001602 -83.83667
26730000000 -23.093111 48.438061 -23.093111 48.438061 -23.093111 48.438061 -23.093111 48.438061
26785000000 -22.938837 179.19507 -22.938837 179.19507 -22.938837 179.19507 -22.938837 179.19507
26840000000 -22.899576 -49.438278 -22.899576 -49.438278 -22.899576 -49.438278 -22.899576 -49.438278
26895000000 -23.107471 81.639931 -23.107471 81.639931 -23.107471 81.639931 -23.107471 81.639931
26950000000 -22.907927 -147.63203 -22.907927 -147.63203 -22.907927 -147.63203 -22.907927 -147.63203
27005000000 -23.145861 -16.812479 -23.145861 -16.812479 -23.145861 -16.812479 -23.145861 -16.812479
27060000000 -23.103844 115.31744 -23.103844 115.31744 -23.103844 115.31744 -23.103844 115.31744
27115000000 -22.986874 -114.28957 -22.986874 -114.28957 -22.986874 -114.28957 -22.986874 -114.28957
27170000000 -22.862045 15.886438 -22.862045 15.886438 -22.862045 15.886438 -22.862045 15.886438
27225000000 -22.814327 144.65268 -22.814327 144.65268 -22.814327 144.65268 -22.814327 144.65268
27280000000 -22.792313 -85.115753 -22.792313 -85.115753 -22.792313 -85.115753 -22.792313 -85.115753
27335000000 -23.034233 45.660351 -23.034233 45.660351 -23.034233 45.660351 -23.034233 45.660351
27390000000 -22.878569 178.1568 -22.878569 178.1568 -22.878569 178.1568 -22.878569 178.1568
27445000000 -22.650669 -50.019997 -22.650669 -50.019997 -22.650669 -50.019997 -22.650669 -50.019997
27500000000 -22.365162 78.90873 -22.365162 78.90873 -22.365162 78.90873 -22.365162 78.90873
27555000000 -22.614546 -151.49799 -22.614546 -151.49799 -22.614546 -151.49799 -22.614546 -151.49799
27610000000 -22.765146 -19.282152 -22.765146 -19.282152 -22.765146 -19.282152 -22.765146 -19.282152
27665000000 -22.815496 111.98438 -22.815496 111.98438 -22.815496 111.98438 -22.815496 111.98438
27720000000 -22.671057 -115.93523 -22.671057 -115.93523 -22.671057 -115.93523 -22.671057 -115.93523
27775000000 -22.750793 13.902894 -22.750793 13.902894 -22.750793 13.902894 -22.750793 13.902894
27830000000 -22.762602 144.63683 -22.762602 144.63683 -22.762602 144.63683 -22.762602 144.63683
27885000000 -22.834341 -85.442558 -22.834341 -85.442558 -22.834341 -85.442558 -22.834341 -85.442558
27940000000 -22.878347 45.756096 -22.878347 45.756096 -22.878347 45.756096 -22.878347 45.756096
27995000000 -22.934866 175.59468 -22.934866 175.59468 -22.934866 175.59468 -22.934866 175.59468
28050000000 -22.965916 -51.610481 -22.965916 -51.610481 -22.965916 -51.610481 -22.965916 -51.610481
28105000000 -23.027422 79.550926 -23.027422 79.550926 -23.027422 79.550926 -23.027422 79.550926
28160000000 -22.753548 -148.02731 -22.753548 -148.02731 -22.753548 -148.02731 -22.753548 -148.02731
28215000000 -22.457409 -20.220053 -22.457409 -20.220053 -22.457409 -20.220053 -22.457409 -20.220053
28270000000 -22.888447 111.92056 -22.888447 111.92056 -22.888447 111.92056 -22.888447 111.92056
28325000000 -22.967535 -116.57815 -22.967535 -116.57815 -22.967535 -116.57815 -22.967535 -116.57815
28380000000 -22.893227 16.85216 -22.893227 16.85216 -22.893227 16.85216 -22.893227 16.85216
28435000000 -22.615471 146.73015 -22.615471 146.73015 -22.615471 146.73015 -22.615471 146.73015
28490000000 -22.871046 -84.29615 -22.871046 -84.29615 -22.871046 -84.29615 -22.871046 -84.29615
28545000000 -23.0014 47.096992 -23.0014 47.096992 -23.0014 47.096992 -23.0014 47.096992
28600000000 -23.182781 178.29214 -23.182781 178.29214 -23.182781 178.29214 -23.182781 178.29214
28655000000 -22.965811 -50.235401 -22.965811 -50.235401 -22.965811 -50.235401 -22.965811 -50.235401
28710000000 -22.867153 80.488449 -22.867153 80.488449 -22.867153 80.488449 -22.867153 80.488449
28765000000 -22.788311 -147.90459 -22.788311 -147.90459 -22.788311 -147.90459 -22.788311 -147.90459
28820000000 -22.779243 -18.245819 -22.779243 -18.245819 -22.779243 -18.245819 -22.779243 -18.245819
28875000000 -22.816692 112.32296 -22.816692 112.32296 -22.816692 112.32296 -22.816692 112.32296
28930000000 -22.990881 -114.56905 -22.990881 -114.56905 -22.990881 -114.56905 -22.990881 -114.56905
28985000000 -23.09042 18.631176 -23.09042 18.631176 -23.09042 18.631176 -23.09042 18.631176
29040000000 -22.984905 150.14746 -22.984905 150.14746 -22.984905 150.14746 -22.984905 150.14746
29095000000 -22.977938 -79.027237 -22.977938 -79.027237 -22.977938 -79.027237 -22.977938 -79.027237
29150000000 -22.888609 50.337479 -22.888609 50.337479 -22.888609 50.337479 -22.888609 50.337479
29205000000 -23.139353 -178.70503 -23.139353 -178.70503 -23.139353 -178.70503 -23.139353 -178.70503
29260000000 -23.354723 -47.14801 -23.354723 -47.14801 -23.354723 -47.14801 -23.354723 -47.14801
29315000000 -23.183455 84.252464 -23.183455 84.252464 -23.183455 84.252464 -23.183455 84.252464
29370000000 -22.854631 -144.62506 -22.854631 -144.62506 -22.854631 -144.62506 -22.854631 -144.62506
29425000000 -22.62862 -14.804746 -22.62862 -14.804746 -22.62862 -14.804746 -22.62862 -14.804746
29480000000 -22.94071 117.67812 -22.94071 117.67812 -22.94071 117.67812 -22.94071 117.67812
29535000000 -22.838345 -110.84492 -22.838345 -110.84492 -22.838345 -110.84492 -22.838345 -110.84492
29590000000 -22.744453 20.311478 -22.744453 20.311478 -22.744453 20.311478 -22.744453 20.311478
29645000000 -22.722021 154.89427 -22.722021 154.89427 -22.722021 154.89427 -22.722021 154.89427
29700000000 -22.749937 -73.94355 -22.749937 -73.94355 -22.749937 -73.94355 -22.749937 -73.94355
29755000000 -22.508204 55.210697 -22.508204 55.210697 -22.508204 55.210697 -22.508204 55.210697
29810000000 -22.598667 -175.04958 -22.598667 -175.04958 -22.598667 -175.04958 -22.598667 -175.04958
29865000000 -22.630247 -43.876587 -22.630247 -43.876587 -22.630247 -43.876587 -22.630247 -43.876587
29920000000 -22.59214 87.339088 -22.59214 87.339088 -22.59214 87.339088 -22.59214 87.339088
29975000000 -22.638731 -142.4959 -22.638731 -142.4959 -22.638731 -142.4959 -22.638731 -142.4959
30030000000 -22.596502 -9.334219 -22.596502 -9.334219 -22.596502 -9.334219 -22.596502 -9.334219
30085000000 -22.175213 122.13929 -22.175213 122.13929 -22.175213 122.13929 -22.175213 122.13929
30140000000 -22.28768 -106.74434 -22.28768 -106.74434 -22.28768 -106.74434 -22.28768 -106.74434
30195000000 -22.378448 24.129257 -22.378448 24.129257 -22.378448 24.129257 -22.378448 24.129257
30250000000 -22.619137 154.77747 -22.619137 154.77747 -22.619137 154.77747 -22.619137 154.77747
30305000000 -22.490147 -71.255577 -22.490147 -71.255577 -22.490147 -71.255577 -22.490147 -71.255577
30360000000 -22.398594 60.172832 -22.398594 60.172832 -22.398594 60.172832 -22.398594 60.172832
30415000000 -22.248234 -171.40906 -22.248234 -171.40906 -22.248234 -171.40906 -22.248234 -171.40906
30470000000 -22.418137 -41.702702 -22.418137 -41.702702 -22.418137 -41.702702 -22.418137 -41.702702
30525000000 -22.62108 89.169128 -22.62108 89.169128 -22.62108 89.169128 -22.62108 89.169128
30580000000 -22.86812 -138.07509 -22.86812 -138.07509 -22.86812 -138.07509 -22.86812 -138.07509
30635000000 -22.58897 -7.0480995 -22.58897 -7.0480995 -22.58897 -7.0480995 -22.58897 -7.0480995
30690000000 -22.480774 122.94511 -22.480774 122.94511 -22.480774 122.94511 -22.480774 122.94511
30745000000 -22.24247 -105.35346 -22.24247 -105.35346 -22.24247 -105.35346 -22.24247 -105.35346
30800000000 -22.324041 22.983553 -22.324041 22.983553 -22.324041 22.983553 -22.324041 22.983553
30855000000 -22.61854 156.9465 -22.61854 156.9465 -22.61854 156.9465 -22.61854 156.9465
30910000000 -22.52421 -71.332489 -22.52421 -71.332489 -22.52421 -71.332489 -22.52421 -71.332489
30965000000 -22.309481 62.355843 -22.309481 62.355843 -22.309481 62.355843 -22.309481 62.355843
31020000000 -22.246445 -165.31931 -22.246445 -165.31931 -22.246445 -165.31931 -22.246445 -165.31931
31075000000 -22.292187 -36.756107 -22.292187 -36.756107 -22.292187 -36.756107 -22.292187 -36.756107
31130000000 -22.437246 94.295219 -22.437246 94.295219 -22.437246 94.295219 -22.437246 94.295219
31185000000 -22.751629 -134.46716 -22.751629 -134.46716 -22.751629 -134.46716 -22.751629 -134.46716
31240000000 -22.944237 -2.2893701 -22.944237 -2.2893701 -22.944237 -2.2893701 -22.944237 -2.2893701
31295000000 -22.729271 129.65453 -22.729271 129.65453 -22.729271 129.65453 -22.729271 129.65453
31350000000 -22.31584 -102.19489 -22.31584 -102.19489 -22.31584 -102.19489 -22.31584 -102.19489
31405000000 -22.245279 28.493439 -22.245279 28.493439 -22.245279 28.493439 -22.245279 28.493439
31460000000 -22.396954 159.33537 -22.396954 159.33537 -22.396954 159.33537 -22.396954 159.33537
31515000000 -22.694765 -67.044312 -22.694765 -67.044312 -22.694765 -67.044312 -22.694765 -67.044312
31570000000 -22.548233 66.705116 -22.548233 66.705116 -22.548233 66.705116 -22.548233 66.705116
31625000000 -22.102907 -161.19432 -22.102907 -161.19432 -22.102907 -161.19432 -22.102907 -161.19432
31680000000 -22.020208 -27.018972 -22.020208 -27.018972 -22.020208 -27.018972 -22.020208 -27.018972
31735000000 -22.265436 101.01034 -22.265436 101.01034 -22.265436 101.01034 -22.265436 101.01034
31790000000 -22.619576 -127.73401 -22.619576 -127.73401 -22.619576 -127.73401 -22.619576 -127.73401
31845000000 -22.712257 5.2508144 -22.712257 5.2508144 -22.712257 5.2508144 -22.712257 5.2508144
31900000000 -22.48102 135.60954 -22.48102 135.60954 -22.48102 135.60954 -22.48102 135.60954
31955000000 -22.305136 -92.747849 -22.305136 -92.747849 -22.305136 -92.747849 -22.305136 -92.747849
32010000000 -22.26515 33.157814 -22.26515 33.157814 -22.26515 33.157814 -22.26515 33.157814
32065000000 -22.095146 162.41345 -22.095146 162.41345 -22.095146 162.41345 -22.095146 162.41345
32120000000 -22.578934 -63.367355 -22.578934 -63.367355 -22.578934 -63.367355 -22.578934 -63.367355
32175000000 -22.271338 69.480392 -22.271338 69.480392 -22.271338 69.480392 -22.271338 69.480392
32230000000 -21.92296 -157.07341 -21.92296 -157.07341 -21.92296 -157.07341 -21.92296 -157.07341
32285000000 -21.590149 -26.304529 -21.590149 -26.304529 -21.590149 -26.304529 -21.590149 -26.304529
32340000000 -21.648445 103.97665 -21.648445 103.97665 -21.648445 103.97665 -21.648445 103.97665
32395000000 -21.926895 -123.11319 -21.926895 -123.11319 -21.926895 -123.11319 -21.926895 -123.11319
32450000000 -22.541185 9.0968199 -22.541185 9.0968199 -22.541185 9.0968199 -22.541185 9.0968199
32505000000 -22.513086 144.64323 -22.513086 144.64323 -22.513086 144.64323 -22.513086 144.64323
32560000000 -21.975237 -86.011459 -21.975237 -86.011459 -21.975237 -86.011459 -21.975237 -86.011459
32615000000 -21.965261 42.021626 -21.965261 42.021626 -21.965261 42.021626 -21.965261 42.021626
32670000000 -22.313055 168.84041 -22.313055 168.84041 -22.313055 168.84041 -22.313055 168.84041
32725000000 -22.650764 -59.435966 -22.650764 -59.435966 -22.650764 -59.435966 -22.650764 -59.435966
32780000000 -22.537264 76.900864 -22.537264 76.900864 -22.537264 76.900864 -22.537264 76.900864
32835000000 -22.101784 -152.72884 -22.101784 -152.72884 -22.101784 -152.72884 -22.101784 -152.72884
32890000000 -21.603294 -20.665594 -21.603294 -20.665594 -21.603294 -20.665594 -21.603294 -20.665594
32945000000 -21.518024 108.61852 -21.518024 108.61852 -21.518024 108.61852 -21.518024 108.61852
33000000000 -21.738867 -121.85998 -21.738867 -121.85998 -21.738867 -121.85998 -21.738867 -121.85998
