!Keysight Technologies,N5224B,MY57181201,A.12.70.07
!Date: Friday, July 15, 2022 11:54:43
!Correction: S11(Off) 
!S21(Off) 
!S12(Off) 
!S22(Off) 
!S2P File: Measurements: S11, S21, S12, S22:
# Hz S  dB   R 50
22000000000 -200 45 -200 45 -200 45 -18.425516 -25.693882
22055000000 -200 45 -200 45 -200 45 -20.580973 -44.587757
22110000000 -200 45 -200 45 -200 45 -13.483455 -43.223457
22165000000 -200 45 -200 45 -200 45 -21.08456 -28.307051
22220000000 -200 45 -200 45 -200 45 -16.336678 -46.171837
22275000000 -200 45 -200 45 -200 45 -13.80407 -20.876432
22330000000 -200 45 -200 45 -200 45 -19.219042 -49.69453
22385000000 -200 45 -200 45 -200 45 -14.50476 -33.057098
22440000000 -200 45 -200 45 -200 45 -16.03723 -3.6262584
22495000000 -200 45 -200 45 -200 45 -15.137823 -46.324707
22550000000 -200 45 -200 45 -200 45 -14.476601 -17.87846
22605000000 -200 45 -200 45 -200 45 -19.002197 -7.5693378
22660000000 -200 45 -200 45 -200 45 -13.538084 -26.500023
22715000000 -200 45 -200 45 -200 45 -15.381511 -6.8754163
22770000000 -200 45 -200 45 -200 45 -18.945644 -23.97299
22825000000 -200 45 -200 45 -200 45 -13.535492 -9.0265369
22880000000 -200 45 -200 45 -200 45 -16.618109 -2.7851965
22935000000 -200 45 -200 45 -200 45 -16.832333 -25.263237
22990000000 -200 45 -200 45 -200 45 -14.338243 6.8490252
23045000000 -200 45 -200 45 -200 45 -17.4189 -2.0297954
23100000000 -200 45 -200 45 -200 45 -15.424314 -19.63201
23155000000 -200 45 -200 45 -200 45 -16.805555 19.340973
23210000000 -200 45 -200 45 -200 45 -18.486601 -4.8387885
23265000000 -200 45 -200 45 -200 45 -14.786873 -6.2609448
23320000000 -200 45 -200 45 -200 45 -21.560862 23.873657
23375000000 -200 45 -200 45 -200 45 -18.576744 -2.1031699
23430000000 -200 45 -200 45 -200 45 -15.470293 9.4470806
23485000000 -200 45 -200 45 -200 45 -25.94805 -17.466288
23540000000 -200 45 -200 45 -200 45 -18.934732 2.7618179
23595000000 -200 45 -200 45 -200 45 -18.109636 29.245043
23650000000 -200 45 -200 45 -200 45 -20.608057 -36.727222
23705000000 -200 45 -200 45 -200 45 -21.423334 12.219417
23760000000 -200 45 -200 45 -200 45 -26.24127 34.409889
23815000000 -200 45 -200 45 -200 45 -19.843739 -20.558014
23870000000 -200 45 -200 45 -200 45 -27.887352 7.7451863
23925000000 -200 45 -200 45 -200 45 -30.616302 -50.002281
23980000000 -200 45 -200 45 -200 45 -22.303856 2.5226951
24035000000 -200 45 -200 45 -200 45 -27.045891 -65.7239
24090000000 -200 45 -200 45 -200 45 -26.05442 -51.038017
24145000000 -200 45 -200 45 -200 45 -36.375336 -31.884802
24200000000 -200 45 -200 45 -200 45 -22.117853 -62.899826
24255000000 -200 45 -200 45 -200 45 -27.908163 -79.845886
24310000000 -200 45 -200 45 -200 45 -23.698824 -107.62384
24365000000 -200 45 -200 45 -200 45 -23.820318 -36.751781
24420000000 -200 45 -200 45 -200 45 -21.381819 -104.92281
24475000000 -200 45 -200 45 -200 45 -19.997379 -86.669182
24530000000 -200 45 -200 45 -200 45 -35.639412 -72.523476
24585000000 -200 45 -200 45 -200 45 -17.714943 -85.440659
24640000000 -200 45 -200 45 -200 45 -20.575365 -71.918381
24695000000 -200 45 -200 45 -200 45 -21.092323 -122.32788
24750000000 -200 45 -200 45 -200 45 -16.787617 -66.779076
24805000000 -200 45 -200 45 -200 45 -21.272587 -82.493057
24860000000 -200 45 -200 45 -200 45 -16.010929 -102.12057
24915000000 -200 45 -200 45 -200 45 -19.295589 -53.690178
24970000000 -200 45 -200 45 -200 45 -18.060013 -97.83419
25025000000 -200 45 -200 45 -200 45 -15.055155 -80.941368
25080000000 -200 45 -200 45 -200 45 -23.083248 -82.187805
25135000000 -200 45 -200 45 -200 45 -15.960078 -83.257095
25190000000 -200 45 -200 45 -200 45 -16.511873 -65.030228
25245000000 -200 45 -200 45 -200 45 -18.335934 -99.225662
25300000000 -200 45 -200 45 -200 45 -16.143957 -67.098381
25355000000 -200 45 -200 45 -200 45 -18.549168 -68.82444
25410000000 -200 45 -200 45 -200 45 -15.773712 -84.131966
25465000000 -200 45 -200 45 -200 45 -19.077789 -59.562695
25520000000 -200 45 -200 45 -200 45 -17.898405 -67.314384
25575000000 -200 45 -200 45 -200 45 -15.893677 -63.398418
25630000000 -200 45 -200 45 -200 45 -19.243235 -80.096214
25685000000 -200 45 -200 45 -200 45 -18.34103 -58.598843
25740000000 -200 45 -200 45 -200 45 -18.536232 -54.343742
25795000000 -200 45 -200 45 -200 45 -17.136841 -74.684517
25850000000 -200 45 -200 45 -200 45 -21.23765 -45.468407
25905000000 -200 45 -200 45 -200 45 -20.37928 -60.258724
25960000000 -200 45 -200 45 -200 45 -17.494293 -51.613483
26015000000 -200 45 -200 45 -200 45 -27.313793 -67.548233
26070000000 -200 45 -200 45 -200 45 -18.800781 -53.996311
26125000000 -200 45 -200 45 -200 45 -20.265604 -28.941158
26180000000 -200 45 -200 45 -200 45 -22.621712 -96.418533
26235000000 -200 45 -200 45 -200 45 -19.691027 -21.157291
26290000000 -200 45 -200 45 -200 45 -28.716887 -18.878645
26345000000 -200 45 -200 45 -200 45 -19.74453 -68.677101
26400000000 -200 45 -200 45 -200 45 -24.047066 15.328709
26455000000 -200 45 -200 45 -200 45 -28.922083 -92.2136
26510000000 -200 45 -200 45 -200 45 -19.800123 -42.705715
26565000000 -200 45 -200 45 -200 45 -32.445438 115.18972
26620000000 -200 45 -200 45 -200 45 -25.206345 -85.458557
26675000000 -200 45 -200 45 -200 45 -23.449306 10.122455
26730000000 -200 45 -200 45 -200 45 -25.773077 -153.61554
26785000000 -200 45 -200 45 -200 45 -27.99522 -55.184628
26840000000 -200 45 -200 45 -200 45 -25.260601 92.187653
26895000000 -200 45 -200 45 -200 45 -25.868139 -102.95566
26950000000 -200 45 -200 45 -200 45 -36.250648 35.387001
27005000000 -200 45 -200 45 -200 45 -24.298124 158.38023
27060000000 -200 45 -200 45 -200 45 -29.710518 -61.667217
27115000000 -200 45 -200 45 -200 45 -30.499365 144.52643
27170000000 -200 45 -200 45 -200 45 -23.366131 -163.87668
27225000000 -200 45 -200 45 -200 45 -56.053688 130.53993
27280000000 -200 45 -200 45 -200 45 -25.209497 -177.14603
27335000000 -200 45 -200 45 -200 45 -24.155558 -145.72
27390000000 -200 45 -200 45 -200 45 -29.159805 160.05376
27445000000 -200 45 -200 45 -200 45 -23.718737 -159.66946
27500000000 -200 45 -200 45 -200 45 -23.090151 -135.80544
27555000000 -200 45 -200 45 -200 45 -23.338606 174.98616
27610000000 -200 45 -200 45 -200 45 -22.90708 -142.9395
27665000000 -200 45 -200 45 -200 45 -23.361965 -127.44913
27720000000 -200 45 -200 45 -200 45 -20.149513 -166.76794
27775000000 -200 45 -200 45 -200 45 -21.680017 -138.20135
27830000000 -200 45 -200 45 -200 45 -25.929968 -144.23862
27885000000 -200 45 -200 45 -200 45 -18.46018 -141.12561
27940000000 -200 45 -200 45 -200 45 -22.087214 -128.44942
27995000000 -200 45 -200 45 -200 45 -21.575035 -153.10812
28050000000 -200 45 -200 45 -200 45 -18.334848 -119.67221
28105000000 -200 45 -200 45 -200 45 -22.414459 -140.87399
28160000000 -200 45 -200 45 -200 45 -18.927143 -140.0061
28215000000 -200 45 -200 45 -200 45 -21.185667 -102.66891
28270000000 -200 45 -200 45 -200 45 -18.79817 -140.94212
28325000000 -200 45 -200 45 -200 45 -18.544304 -120.74255
28380000000 -200 45 -200 45 -200 45 -25.390024 -139.14751
28435000000 -200 45 -200 45 -200 45 -18.13028 -120.00402
28490000000 -200 45 -200 45 -200 45 -21.725 -108.56087
28545000000 -200 45 -200 45 -200 45 -20.899015 -151.67429
28600000000 -200 45 -200 45 -200 45 -19.418592 -91.713455
28655000000 -200 45 -200 45 -200 45 -24.378996 -135.23035
28710000000 -200 45 -200 45 -200 45 -18.847103 -122.63667
28765000000 -200 45 -200 45 -200 45 -25.794849 -54.612377
28820000000 -200 45 -200 45 -200 45 -20.60107 -137.40967
28875000000 -200 45 -200 45 -200 45 -20.788311 -87.834236
28930000000 -200 45 -200 45 -200 45 -31.549488 165.61205
28985000000 -200 45 -200 45 -200 45 -19.405302 -104.96546
29040000000 -200 45 -200 45 -200 45 -28.741398 -39.806091
29095000000 -200 45 -200 45 -200 45 -22.639067 -164.0143
29150000000 -200 45 -200 45 -200 45 -21.778555 -54.980854
29205000000 -200 45 -200 45 -200 45 -29.047106 133.35796
29260000000 -200 45 -200 45 -200 45 -22.952196 -116.63312
29315000000 -200 45 -200 45 -200 45 -24.924252 32.749245
29370000000 -200 45 -200 45 -200 45 -24.209703 178.10916
29425000000 -200 45 -200 45 -200 45 -24.951021 -34.551098
29480000000 -200 45 -200 45 -200 45 -22.659546 111.07621
29535000000 -200 45 -200 45 -200 45 -33.409382 -107.24508
29590000000 -200 45 -200 45 -200 45 -22.731236 49.844524
29645000000 -200 45 -200 45 -200 45 -21.810961 153.56586
29700000000 -200 45 -200 45 -200 45 -23.908028 36.725803
29755000000 -200 45 -200 45 -200 45 -21.322021 102.41124
29810000000 -200 45 -200 45 -200 45 -37.50597 -159.51634
29865000000 -200 45 -200 45 -200 45 -18.549652 85.198578
29920000000 -200 45 -200 45 -200 45 -25.046894 115.55215
29975000000 -200 45 -200 45 -200 45 -24.187838 57.186676
30030000000 -200 45 -200 45 -200 45 -18.673197 126.97815
30085000000 -200 45 -200 45 -200 45 -23.393841 83.725273
30140000000 -200 45 -200 45 -200 45 -19.185946 89.286491
30195000000 -200 45 -200 45 -200 45 -26.031019 145.12395
30250000000 -200 45 -200 45 -200 45 -18.844313 88.765755
30305000000 -200 45 -200 45 -200 45 -19.106556 123.72425
30360000000 -200 45 -200 45 -200 45 -23.499277 67.987511
30415000000 -200 45 -200 45 -200 45 -17.552902 116.53802
30470000000 -200 45 -200 45 -200 45 -27.997795 124.35242
30525000000 -200 45 -200 45 -200 45 -17.984152 85.549026
30580000000 -200 45 -200 45 -200 45 -21.003944 155.77496
30635000000 -200 45 -200 45 -200 45 -23.066137 63.765049
30690000000 -200 45 -200 45 -200 45 -16.50457 123.75288
30745000000 -200 45 -200 45 -200 45 -34.421444 -94.11512
30800000000 -200 45 -200 45 -200 45 -17.850504 101.97791
30855000000 -200 45 -200 45 -200 45 -20.124039 169.97229
30910000000 -200 45 -200 45 -200 45 -20.328777 35.923374
30965000000 -200 45 -200 45 -200 45 -17.703276 146.64093
31020000000 -200 45 -200 45 -200 45 -29.476261 -75.835022
31075000000 -200 45 -200 45 -200 45 -18.25383 88.085342
31130000000 -200 45 -200 45 -200 45 -19.792603 -143.41295
31185000000 -200 45 -200 45 -200 45 -22.694569 25.532383
31240000000 -200 45 -200 45 -200 45 -18.814497 147.65854
31295000000 -200 45 -200 45 -200 45 -19.666876 -56.37273
31350000000 -200 45 -200 45 -200 45 -21.693069 97.628685
31405000000 -200 45 -200 45 -200 45 -20.409636 -129.62701
31460000000 -200 45 -200 45 -200 45 -18.684793 4.0142875
31515000000 -200 45 -200 45 -200 45 -21.179926 -169.3493
31570000000 -200 45 -200 45 -200 45 -19.113501 -54.154568
31625000000 -200 45 -200 45 -200 45 -23.669132 66.162216
31680000000 -200 45 -200 45 -200 45 -17.75482 -94.384026
31735000000 -200 45 -200 45 -200 45 -19.625465 -6.5547819
31790000000 -200 45 -200 45 -200 45 -23.079962 -144.95822
31845000000 -200 45 -200 45 -200 45 -16.602936 -40.312614
31900000000 -200 45 -200 45 -200 45 -32.964123 36.278969
31955000000 -200 45 -200 45 -200 45 -17.48139 -80.07869
32010000000 -200 45 -200 45 -200 45 -19.487411 4.65135
32065000000 -200 45 -200 45 -200 45 -22.564617 -97.297058
32120000000 -200 45 -200 45 -200 45 -16.162912 -31.30039
32175000000 -200 45 -200 45 -200 45 -39.26656 9.2651672
32230000000 -200 45 -200 45 -200 45 -16.805922 -54.081577
32285000000 -200 45 -200 45 -200 45 -19.430613 4.294241
32340000000 -200 45 -200 45 -200 45 -20.344101 -88.45343
32395000000 -200 45 -200 45 -200 45 -16.785795 -14.333031
32450000000 -200 45 -200 45 -200 45 -33.98188 -25.623161
32505000000 -200 45 -200 45 -200 45 -16.530075 -50.474377
32560000000 -200 45 -200 45 -200 45 -21.3165 34.251595
32615000000 -200 45 -200 45 -200 45 -21.294865 -66.984337
32670000000 -200 45 -200 45 -200 45 -17.221506 -6.5271058
32725000000 -200 45 -200 45 -200 45 -39.040302 170.79706
32780000000 -200 45 -200 45 -200 45 -17.807096 -27.641251
32835000000 -200 45 -200 45 -200 45 -21.328714 38.42749
32890000000 -200 45 -200 45 -200 45 -22.615803 -70.73761
32945000000 -200 45 -200 45 -200 45 -18.345871 11.170151
33000000000 -200 45 -200 45 -200 45 -40.035965 159.0011
