!CSV A.01.01
!Keysight Technologies,N5224B,MY57181201,A.12.70.07
!Date: Friday, July 15, 2022 12:02:50
!Source: Standard

BEGIN CH1_DATA
Freq(Hz),S22(DB),S22(DEG)
22000000000,-20.154606,-24.032131
22055000000,-19.816385,-55.986526
22110000000,-12.643321,-40.858185
22165000000,-21.408699,-11.524201
22220000000,-17.463087,-53.802029
22275000000,-13.46999,-26.969316
22330000000,-17.789097,-41.821636
22385000000,-15.038466,-26.568325
22440000000,-17.226625,-6.4251952
22495000000,-14.233601,-48.69154
22550000000,-13.784778,-12.881502
22605000000,-20.375425,3.1090503
22660000000,-13.795711,-32.985229
22715000000,-14.362754,-11.274924
22770000000,-18.157988,-12.540457
22825000000,-14.378859,-5.7703819
22880000000,-17.053637,-10.490235
22935000000,-15.687442,-24.041128
22990000000,-14.054421,13.263371
23045000000,-19.100389,-3.442296
23100000000,-14.834514,-26.487761
23155000000,-15.248227,18.044199
23210000000,-18.889441,8.7782946
23265000000,-15.841874,-9.1593056
23320000000,-21.351385,8.9615669
23375000000,-17.29282,2.7240422
23430000000,-16.069515,15.948524
23485000000,-26.131456,-42.094177
23540000000,-17.460857,-3.1128712
23595000000,-16.644014,35.239098
23650000000,-23.311716,-43.410282
23705000000,-22.349997,-2.8575654
23760000000,-23.836061,19.964832
23815000000,-20.208227,-8.7541246
23870000000,-35.365406,6.9014063
23925000000,-26.059843,-57.637589
23980000000,-19.965601,7.4296632
24035000000,-34.625118,-74.540543
24090000000,-25.176275,-80.779099
24145000000,-28.583429,-45.741646
24200000000,-22.521519,-46.966782
24255000000,-30.931196,-112.85421
24310000000,-21.070797,-108.49884
24365000000,-21.33004,-32.477165
24420000000,-24.606852,-107.10762
24475000000,-20.04854,-102.17579
24530000000,-27.365265,-86.486496
24585000000,-17.488577,-75.871597
24640000000,-22.826597,-69.660835
24695000000,-19.600927,-128.24254
24750000000,-15.610721,-65.825874
24805000000,-22.268658,-68.287949
24860000000,-16.584656,-111.2667
24915000000,-18.625519,-66.16954
24970000000,-17.165651,-87.872124
25025000000,-15.993646,-74.753647
25080000000,-23.879221,-99.733253
25135000000,-14.902251,-85.248985
25190000000,-15.965498,-58.098492
25245000000,-20.172733,-104.31268
25300000000,-16.195152,-76.522308
25355000000,-16.801933,-69.205727
25410000000,-16.103662,-74.981323
25465000000,-21.321648,-60.421883
25520000000,-17.321375,-76.666428
25575000000,-14.831904,-60.096466
25630000000,-20.584551,-69.086617
25685000000,-19.824942,-66.324715
25740000000,-17.364037,-63.009712
25795000000,-16.306549,-66.543419
25850000000,-22.764822,-28.821381
25905000000,-21.208956,-75.422852
25960000000,-16.234257,-55.988697
26015000000,-25.358957,-37.19659
26070000000,-20.984955,-49.555161
26125000000,-21.218985,-43.203705
26180000000,-20.42033,-87.052254
26235000000,-18.682766,-9.4446535
26290000000,-36.229206,22.728153
26345000000,-18.479712,-78.027283
26400000000,-21.407629,3.8759151
26455000000,-37.877983,-72.612579
26510000000,-22.183968,-49.822105
26565000000,-35.772671,-167.00633
26620000000,-23.687992,-62.460155
26675000000,-22.290516,28.825247
26730000000,-22.357204,-159.38971
26785000000,-23.973131,-63.328434
26840000000,-23.437004,71.847618
26895000000,-28.046492,-132.44673
26950000000,-39.959606,-123.33727
27005000000,-28.09453,170.2473
27060000000,-30.101147,-12.675324
27115000000,-25.134085,149.17955
27170000000,-21.366686,-149.66139
27225000000,-32.094669,-11.404005
27280000000,-24.868698,154.16789
27335000000,-21.212751,-155.20602
27390000000,-30.519308,-152.11917
27445000000,-27.970318,-156.1707
27500000000,-23.637146,-158.19559
27555000000,-20.984537,-174.6489
27610000000,-22.5481,-124.76228
27665000000,-27.789494,-123.83599
27720000000,-18.59293,-176.62447
27775000000,-19.399181,-132.38908
27830000000,-27.154171,-114.89472
27885000000,-19.996042,-150.73584
27940000000,-20.53863,-141.2718
27995000000,-20.173817,-139.90314
28050000000,-19.253613,-109.00864
28105000000,-22.985327,-159.32632
28160000000,-17.168327,-142.25388
28215000000,-19.472929,-92.10907
28270000000,-21.057678,-140.942
28325000000,-18.777544,-133.87965
28380000000,-22.243731,-136.62199
28435000000,-17.836529,-108.64382
28490000000,-24.646242,-104.79946
28545000000,-19.132521,-158.85724
28600000000,-17.765665,-92.199173
28655000000,-27.532259,-114.6931
28710000000,-20.264099,-132.65384
28765000000,-26.038408,-84.24131
28820000000,-19.525377,-124.5387
28875000000,-21.350836,-73.568672
28930000000,-26.487627,145.87991
28985000000,-17.82774,-109.20599
29040000000,-24.788887,-35.413197
29095000000,-24.293747,179.09363
29150000000,-23.985508,-68.417549
29205000000,-30.907455,177.11809
29260000000,-23.447475,-97.286415
29315000000,-22.711454,49.388142
29370000000,-21.435202,-178.05032
29425000000,-22.397846,-44.190632
29480000000,-21.763138,96.498154
29535000000,-32.62122,-173.04315
29590000000,-26.477926,51.358997
29645000000,-25.246794,160.75241
29700000000,-21.128166,42.753513
29755000000,-19.637497,113.57292
29810000000,-29.940737,-122.1822
29865000000,-18.375082,74.332268
29920000000,-22.06953,110.47047
29975000000,-26.764965,78.93718
30030000000,-20.812342,131.17027
30085000000,-21.311144,66.448944
30140000000,-17.493805,95.422974
30195000000,-23.968845,166.0023
30250000000,-20.029486,79.865761
30305000000,-18.369101,113.23046
30360000000,-23.163687,86.047821
30415000000,-18.766636,124.61729
30470000000,-30.276081,83.873505
30525000000,-16.119791,85.936256
30580000000,-19.049759,162.73566
30635000000,-25.928438,48.648266
30690000000,-16.871017,115.32669
30745000000,-38.757431,172.44278
30800000000,-18.459579,110.60499
30855000000,-22.104601,179.28625
30910000000,-18.354254,40.787983
30965000000,-16.069832,148.45435
31020000000,-24.731394,-90.920204
31075000000,-18.565685,76.175041
31130000000,-21.239685,-155.07126
31185000000,-25.304274,37.23452
31240000000,-19.908031,157.64407
31295000000,-19.05625,-44.126549
31350000000,-19.641926,103.16312
31405000000,-18.360117,-131.9855
31460000000,-17.341993,-3.8431404
31515000000,-23.027277,177.42546
31570000000,-21.067987,-60.29818
31625000000,-27.473761,66.5438
31680000000,-17.385803,-83.597702
31735000000,-19.480026,6.1745491
31790000000,-20.432869,-151.43912
31845000000,-15.495847,-44.892376
31900000000,-26.160194,29.529442
31955000000,-19.112524,-84.136909
32010000000,-21.201855,-4.2115736
32065000000,-20.793272,-85.06221
32120000000,-16.017664,-21.809467
32175000000,-34.918549,136.21785
32230000000,-15.753603,-60.774948
32285000000,-17.647881,1.4127434
32340000000,-22.928652,-87.999977
32395000000,-18.353382,-17.846073
32450000000,-28.063253,-51.75042
32505000000,-16.056711,-42.336403
32560000000,-20.987879,51.19838
32615000000,-20.237993,-80.083115
32670000000,-15.869241,-11.596999
32725000000,-32.87727,81.648392
32780000000,-19.827166,-28.491278
32835000000,-23.752045,28.593824
32890000000,-20.891657,-56.546013
32945000000,-17.876678,22.278921
33000000000,-29.821611,-177.83902
END

