!CSV A.01.01
!Keysight Technologies,N5224B,MY57181201,A.12.70.07
!Date: Friday, July 15, 2022 12:02:19
!Source: Standard

BEGIN CH1_DATA
Freq(Hz),S12(DB),S12(DEG)
22000000000,-67.669342,-179.98776
22055000000,-63.711601,-158.56494
22110000000,-62.978828,-73.613571
22165000000,-64.402527,106.86385
22220000000,-68.210457,-134.82274
22275000000,-68.728851,-60.053188
22330000000,-64.840599,27.995003
22385000000,-60.998913,-54.856701
22440000000,-66.577927,-6.4755497
22495000000,-73.309235,-68.889374
22550000000,-68.253799,-141.74576
22605000000,-72.382195,-148.10391
22660000000,-62.850956,-122.72228
22715000000,-59.680748,-22.732565
22770000000,-65.414268,118.06313
22825000000,-64.58271,-94.72258
22880000000,-64.041168,65.965042
22935000000,-69.423721,-120.73555
22990000000,-61.23521,-15.931763
23045000000,-65.114799,124.92319
23100000000,-64.974174,176.0031
23155000000,-67.686035,-9.3181105
23210000000,-58.999718,140.07671
23265000000,-60.989605,-105.75213
23320000000,-58.054054,-24.10577
23375000000,-65.352448,36.604534
23430000000,-60.29501,-96.705818
23485000000,-64.700546,-89.278061
23540000000,-55.649933,137.9845
23595000000,-57.071156,-138.28116
23650000000,-66.787544,53.114391
23705000000,-64.492058,159.86559
23760000000,-60.793812,-59.876904
23815000000,-63.594135,37.174644
23870000000,-63.038326,174.88141
23925000000,-61.141499,-90.331429
23980000000,-63.285778,61.735996
24035000000,-65.689095,-160.50708
24090000000,-59.35302,10.70412
24145000000,-62.599533,106.52161
24200000000,-64.539452,-107.78172
24255000000,-60.360115,-15.895771
24310000000,-69.285973,127.73709
24365000000,-62.375423,-99.896942
24420000000,-59.631683,22.558405
24475000000,-59.789322,101.14337
24530000000,-70.239853,-126.96187
24585000000,-60.923656,48.536903
24640000000,-56.749554,157.94099
24695000000,-58.034546,-69.142166
24750000000,-58.152336,32.867142
24805000000,-75.681259,167.74922
24860000000,-57.625828,-120.57623
24915000000,-64.658569,63.722702
24970000000,-54.546394,-150.32512
25025000000,-63.540058,-47.390255
25080000000,-59.145386,97.525246
25135000000,-62.654865,-109.55764
25190000000,-67.678467,-13.128702
25245000000,-70.605949,-46.484718
25300000000,-59.776546,-98.077339
25355000000,-69.837151,-138.62183
25410000000,-59.04454,142.82686
25465000000,-65.810341,-85.090164
25520000000,-59.542564,67.236938
25575000000,-65.47995,174.05986
25630000000,-65.104523,-18.086126
25685000000,-65.310585,29.11585
25740000000,-66.608444,-156.31616
25795000000,-68.280159,-20.341497
25850000000,-57.927464,128.38026
25905000000,-54.5019,-147.82141
25960000000,-60.446136,34.149746
26015000000,-57.716732,170.38171
26070000000,-59.971073,-49.27438
26125000000,-58.921089,26.077209
26180000000,-64.431786,-153.20668
26235000000,-61.704971,-59.420345
26290000000,-59.200241,37.491604
26345000000,-59.139214,170.16275
26400000000,-67.540443,-28.76259
26455000000,-62.160965,126.57394
26510000000,-57.873722,-153.76466
26565000000,-59.809254,-22.025627
26620000000,-67.095078,-6.1924782
26675000000,-66.427811,131.29558
26730000000,-60.604717,7.4227381
26785000000,-61.373615,172.54994
26840000000,-60.289581,-153.59169
26895000000,-83.099609,-4.2397799
26950000000,-59.533482,171.25133
27005000000,-76.875038,174.39694
27060000000,-64.712959,81.454704
27115000000,-62.96843,164.86272
27170000000,-60.827312,-31.945436
27225000000,-67.812614,65.396378
27280000000,-67.172569,-111.78773
27335000000,-67.655144,-32.097736
27390000000,-62.022148,127.07629
27445000000,-73.441879,138.22646
27500000000,-72.156265,66.352089
27555000000,-71.32901,7.4689469
27610000000,-60.845589,-91.313141
27665000000,-64.897865,-2.8917913
27720000000,-62.935253,112.34689
27775000000,-61.85104,-134.43967
27830000000,-65.928764,108.12318
27885000000,-67.109596,155.53178
27940000000,-70.495537,36.821022
27995000000,-66.301651,121.37434
28050000000,-64.848488,-131.37459
28105000000,-60.528889,-36.881592
28160000000,-63.468838,131.35698
28215000000,-64.450562,-43.07925
28270000000,-64.539902,79.087784
28325000000,-68.585701,69.515152
28380000000,-78.036446,-101.46479
28435000000,-73.535828,108.80161
28490000000,-66.742905,-133.36812
28545000000,-64.690544,-49.254494
28600000000,-60.431301,68.3853
28655000000,-69.138542,-178.5835
28710000000,-68.346176,-103.71966
28765000000,-70.079048,133.23863
28820000000,-64.79229,-134.44312
28875000000,-63.456078,58.243805
28930000000,-69.179222,102.22454
28985000000,-70.176941,-130.08275
29040000000,-66.945625,-11.570288
29095000000,-66.290871,-152.01898
29150000000,-61.521976,-47.071434
29205000000,-66.117027,-6.5427032
29260000000,-61.224018,-140.05424
29315000000,-67.661324,-26.731754
29370000000,-59.449951,115.33199
29425000000,-61.093102,157.91324
29480000000,-63.014202,-26.241302
29535000000,-67.913345,114.67548
29590000000,-59.882885,-78.547112
29645000000,-60.875237,21.402376
29700000000,-60.586826,159.0838
29755000000,-68.676163,-83.672226
29810000000,-59.963879,58.508533
29865000000,-57.741375,147.84798
29920000000,-64.855278,-41.673664
29975000000,-59.170574,38.787247
30030000000,-70.672722,-105.81658
30085000000,-61.658005,-47.50618
30140000000,-69.279488,15.530575
30195000000,-64.991501,-89.640144
30250000000,-59.446205,15.13091
30305000000,-59.933666,114.47625
30360000000,-68.121033,-88.15287
30415000000,-64.101929,40.681507
30470000000,-60.620106,128.59785
30525000000,-61.488266,-87.513695
30580000000,-62.044819,40.283634
30635000000,-65.156921,-58.235909
30690000000,-62.074062,-54.6497
30745000000,-64.068642,-8.4011259
30800000000,-67.384995,136.90977
30855000000,-64.238297,-87.026039
30910000000,-62.364422,97.176514
30965000000,-63.948265,-142.99277
31020000000,-63.491711,55.06366
31075000000,-73.097061,61.825581
31130000000,-66.088699,-109.73902
31185000000,-61.878597,30.898264
31240000000,-62.944221,139.56543
31295000000,-76.21019,-74.738945
31350000000,-58.568787,89.88987
31405000000,-68.01561,-165.17715
31460000000,-65.354668,-36.405556
31515000000,-64.886635,97.418495
31570000000,-56.623363,-96.293495
31625000000,-64.438942,-53.271229
31680000000,-67.990158,112.51311
31735000000,-63.383289,-96.224319
31790000000,-63.681221,129.09497
31845000000,-60.581646,132.11369
31900000000,-61.892029,-31.572495
31955000000,-60.397396,44.446426
32010000000,-62.129444,-154.88947
32065000000,-55.543491,-55.334209
32120000000,-61.438194,72.498955
32175000000,-61.212769,-152.67316
32230000000,-62.621571,46.589672
32285000000,-58.742081,122.15464
32340000000,-63.530521,-140.91577
32395000000,-59.642361,-2.0503747
32450000000,-57.399097,135.00687
32505000000,-57.466419,-116.77038
32560000000,-58.453331,1.5754083
32615000000,-63.128513,152.48779
32670000000,-71.424339,-133.31155
32725000000,-62.457073,85.938667
32780000000,-59.856037,-176.34187
32835000000,-60.672523,-32.092392
32890000000,-61.798077,73.284081
32945000000,-58.63509,-151.12701
33000000000,-56.000793,-38.833874
END

