!Keysight Technologies,N5224B,MY57181201,A.12.70.07
!Date: Friday, July 15, 2022 12:03:04
!Correction: S11(Off) 
!S21(Off) 
!S12(Off) 
!S22(Off) 
!S2P File: Measurements: S11, S21, S12, S22:
# Hz S  dB   R 50
22000000000 -200 45 -200 45 -200 45 -20.190331 -24.512846
22055000000 -200 45 -200 45 -200 45 -19.806719 -56.293072
22110000000 -200 45 -200 45 -200 45 -12.656709 -40.97068
22165000000 -200 45 -200 45 -200 45 -21.481581 -11.165314
22220000000 -200 45 -200 45 -200 45 -17.506685 -53.804016
22275000000 -200 45 -200 45 -200 45 -13.466649 -26.692762
22330000000 -200 45 -200 45 -200 45 -17.806526 -41.683701
22385000000 -200 45 -200 45 -200 45 -15.020976 -26.4821
22440000000 -200 45 -200 45 -200 45 -17.193047 -6.526515
22495000000 -200 45 -200 45 -200 45 -14.210925 -48.702309
22550000000 -200 45 -200 45 -200 45 -13.78678 -13.143118
22605000000 -200 45 -200 45 -200 45 -20.439281 2.9083703
22660000000 -200 45 -200 45 -200 45 -13.800428 -33.036266
22715000000 -200 45 -200 45 -200 45 -14.377424 -11.280256
22770000000 -200 45 -200 45 -200 45 -18.171068 -12.281042
22825000000 -200 45 -200 45 -200 45 -14.383326 -5.6805115
22880000000 -200 45 -200 45 -200 45 -17.032925 -10.405017
22935000000 -200 45 -200 45 -200 45 -15.670823 -24.060917
22990000000 -200 45 -200 45 -200 45 -14.058391 13.250856
23045000000 -200 45 -200 45 -200 45 -19.112232 -3.6386633
23100000000 -200 45 -200 45 -200 45 -14.849416 -26.52783
23155000000 -200 45 -200 45 -200 45 -15.247626 18.087412
23210000000 -200 45 -200 45 -200 45 -18.892582 8.7457266
23265000000 -200 45 -200 45 -200 45 -15.831421 -9.0720711
23320000000 -200 45 -200 45 -200 45 -21.280405 8.8569212
23375000000 -200 45 -200 45 -200 45 -17.268396 2.4608915
23430000000 -200 45 -200 45 -200 45 -16.112404 15.775818
23485000000 -200 45 -200 45 -200 45 -26.176371 -42.676296
23540000000 -200 45 -200 45 -200 45 -17.507414 -3.1466508
23595000000 -200 45 -200 45 -200 45 -16.68084 35.534447
23650000000 -200 45 -200 45 -200 45 -23.438503 -43.184013
23705000000 -200 45 -200 45 -200 45 -22.325401 -2.2120993
23760000000 -200 45 -200 45 -200 45 -23.712351 20.113636
23815000000 -200 45 -200 45 -200 45 -20.158321 -8.6477404
23870000000 -200 45 -200 45 -200 45 -35.020233 4.9729862
23925000000 -200 45 -200 45 -200 45 -25.95273 -57.770519
23980000000 -200 45 -200 45 -200 45 -19.970854 7.278708
24035000000 -200 45 -200 45 -200 45 -34.517456 -76.634315
24090000000 -200 45 -200 45 -200 45 -25.173027 -81.504036
24145000000 -200 45 -200 45 -200 45 -28.709747 -45.661713
24200000000 -200 45 -200 45 -200 45 -22.528708 -47.148392
24255000000 -200 45 -200 45 -200 45 -30.977205 -114.24148
24310000000 -200 45 -200 45 -200 45 -21.155138 -108.54212
24365000000 -200 45 -200 45 -200 45 -21.301357 -31.904459
24420000000 -200 45 -200 45 -200 45 -24.639174 -106.88515
24475000000 -200 45 -200 45 -200 45 -20.021749 -102.07221
24530000000 -200 45 -200 45 -200 45 -27.33147 -86.301071
24585000000 -200 45 -200 45 -200 45 -17.488808 -75.942818
24640000000 -200 45 -200 45 -200 45 -22.813728 -69.785431
24695000000 -200 45 -200 45 -200 45 -19.570553 -128.21783
24750000000 -200 45 -200 45 -200 45 -15.619873 -65.835876
24805000000 -200 45 -200 45 -200 45 -22.265432 -68.308327
24860000000 -200 45 -200 45 -200 45 -16.5681 -111.25301
24915000000 -200 45 -200 45 -200 45 -18.607042 -66.218597
24970000000 -200 45 -200 45 -200 45 -17.164038 -87.950485
25025000000 -200 45 -200 45 -200 45 -16.029556 -74.932968
25080000000 -200 45 -200 45 -200 45 -23.925377 -99.846596
25135000000 -200 45 -200 45 -200 45 -14.91862 -85.223083
25190000000 -200 45 -200 45 -200 45 -15.971917 -57.974556
25245000000 -200 45 -200 45 -200 45 -20.183512 -104.16995
25300000000 -200 45 -200 45 -200 45 -16.177485 -76.315033
25355000000 -200 45 -200 45 -200 45 -16.769772 -68.937401
25410000000 -200 45 -200 45 -200 45 -16.065819 -74.951324
25465000000 -200 45 -200 45 -200 45 -21.291849 -60.844875
25520000000 -200 45 -200 45 -200 45 -17.29574 -76.905678
25575000000 -200 45 -200 45 -200 45 -14.848695 -60.322559
25630000000 -200 45 -200 45 -200 45 -20.658663 -69.378044
25685000000 -200 45 -200 45 -200 45 -19.858215 -66.302719
25740000000 -200 45 -200 45 -200 45 -17.403927 -62.856838
25795000000 -200 45 -200 45 -200 45 -16.326262 -66.21917
25850000000 -200 45 -200 45 -200 45 -22.704865 -28.693054
25905000000 -200 45 -200 45 -200 45 -21.201694 -75.132751
25960000000 -200 45 -200 45 -200 45 -16.208096 -56.001049
26015000000 -200 45 -200 45 -200 45 -25.370399 -37.144802
26070000000 -200 45 -200 45 -200 45 -20.966354 -49.749508
26125000000 -200 45 -200 45 -200 45 -21.21064 -43.45644
26180000000 -200 45 -200 45 -200 45 -20.435133 -87.072922
26235000000 -200 45 -200 45 -200 45 -18.706411 -9.453289
26290000000 -200 45 -200 45 -200 45 -36.411228 22.460878
26345000000 -200 45 -200 45 -200 45 -18.500534 -78.012802
26400000000 -200 45 -200 45 -200 45 -21.39522 4.169507
26455000000 -200 45 -200 45 -200 45 -38.210659 -71.549301
26510000000 -200 45 -200 45 -200 45 -22.190228 -49.540672
26565000000 -200 45 -200 45 -200 45 -36.18874 -166.41042
26620000000 -200 45 -200 45 -200 45 -23.63032 -62.281456
26675000000 -200 45 -200 45 -200 45 -22.322477 28.726089
26730000000 -200 45 -200 45 -200 45 -22.358383 -159.14694
26785000000 -200 45 -200 45 -200 45 -23.912296 -63.091175
26840000000 -200 45 -200 45 -200 45 -23.484669 71.957031
26895000000 -200 45 -200 45 -200 45 -27.895199 -132.51801
26950000000 -200 45 -200 45 -200 45 -39.921463 -124.98976
27005000000 -200 45 -200 45 -200 45 -28.05274 170.28342
27060000000 -200 45 -200 45 -200 45 -30.102266 -11.869311
27115000000 -200 45 -200 45 -200 45 -25.09911 149.08737
27170000000 -200 45 -200 45 -200 45 -21.413103 -149.89781
27225000000 -200 45 -200 45 -200 45 -32.021755 -10.077148
27280000000 -200 45 -200 45 -200 45 -24.905989 153.70796
27335000000 -200 45 -200 45 -200 45 -21.245306 -155.06494
27390000000 -200 45 -200 45 -200 45 -30.526262 -151.07921
27445000000 -200 45 -200 45 -200 45 -27.951694 -155.424
27500000000 -200 45 -200 45 -200 45 -23.584314 -158.09444
27555000000 -200 45 -200 45 -200 45 -20.94923 -174.58186
27610000000 -200 45 -200 45 -200 45 -22.520731 -125.13654
27665000000 -200 45 -200 45 -200 45 -27.8477 -124.59478
27720000000 -200 45 -200 45 -200 45 -18.602879 -176.81346
27775000000 -200 45 -200 45 -200 45 -19.432514 -132.35837
27830000000 -200 45 -200 45 -200 45 -27.165913 -114.65673
27885000000 -200 45 -200 45 -200 45 -19.983683 -150.60674
27940000000 -200 45 -200 45 -200 45 -20.514248 -141.21066
27995000000 -200 45 -200 45 -200 45 -20.177269 -139.82083
28050000000 -200 45 -200 45 -200 45 -19.27482 -109.17966
28105000000 -200 45 -200 45 -200 45 -23.025522 -159.47491
28160000000 -200 45 -200 45 -200 45 -17.198238 -142.21513
28215000000 -200 45 -200 45 -200 45 -19.433731 -91.652893
28270000000 -200 45 -200 45 -200 45 -21.046936 -140.56822
28325000000 -200 45 -200 45 -200 45 -18.722393 -133.82022
28380000000 -200 45 -200 45 -200 45 -22.191099 -136.50514
28435000000 -200 45 -200 45 -200 45 -17.830292 -108.80399
28490000000 -200 45 -200 45 -200 45 -24.681566 -105.33691
28545000000 -200 45 -200 45 -200 45 -19.14045 -159.25713
28600000000 -200 45 -200 45 -200 45 -17.816023 -91.981033
28655000000 -200 45 -200 45 -200 45 -27.608456 -114.30972
28710000000 -200 45 -200 45 -200 45 -20.289576 -132.29977
28765000000 -200 45 -200 45 -200 45 -25.965631 -83.996887
28820000000 -200 45 -200 45 -200 45 -19.524 -124.37522
28875000000 -200 45 -200 45 -200 45 -21.305258 -73.460121
28930000000 -200 45 -200 45 -200 45 -26.518957 146.42365
28985000000 -200 45 -200 45 -200 45 -17.804169 -109.24655
29040000000 -200 45 -200 45 -200 45 -24.812447 -35.687759
29095000000 -200 45 -200 45 -200 45 -24.23101 179.00858
29150000000 -200 45 -200 45 -200 45 -24.068098 -68.4645
29205000000 -200 45 -200 45 -200 45 -31.017715 175.99095
29260000000 -200 45 -200 45 -200 45 -23.498285 -96.993797
29315000000 -200 45 -200 45 -200 45 -22.677851 49.127354
29370000000 -200 45 -200 45 -200 45 -21.469851 -177.94791
29425000000 -200 45 -200 45 -200 45 -22.332529 -44.26363
29480000000 -200 45 -200 45 -200 45 -21.786539 96.621758
29535000000 -200 45 -200 45 -200 45 -32.474785 -172.91209
29590000000 -200 45 -200 45 -200 45 -26.474327 51.942482
29645000000 -200 45 -200 45 -200 45 -25.238451 159.92052
29700000000 -200 45 -200 45 -200 45 -21.072266 42.866203
29755000000 -200 45 -200 45 -200 45 -19.67557 113.19218
29810000000 -200 45 -200 45 -200 45 -29.955759 -121.17955
29865000000 -200 45 -200 45 -200 45 -18.405945 74.23201
29920000000 -200 45 -200 45 -200 45 -22.107096 110.77248
29975000000 -200 45 -200 45 -200 45 -26.773916 79.557991
30030000000 -200 45 -200 45 -200 45 -20.758516 131.1667
30085000000 -200 45 -200 45 -200 45 -21.284626 66.631149
30140000000 -200 45 -200 45 -200 45 -17.465958 95.491882
30195000000 -200 45 -200 45 -200 45 -23.992416 165.711
30250000000 -200 45 -200 45 -200 45 -20.008001 79.571228
30305000000 -200 45 -200 45 -200 45 -18.381382 113.20899
30360000000 -200 45 -200 45 -200 45 -23.199469 85.897881
30415000000 -200 45 -200 45 -200 45 -18.809706 124.80234
30470000000 -200 45 -200 45 -200 45 -30.421186 84.63678
30525000000 -200 45 -200 45 -200 45 -16.104946 86.08242
30580000000 -200 45 -200 45 -200 45 -19.004772 162.66974
30635000000 -200 45 -200 45 -200 45 -25.812136 48.929054
30690000000 -200 45 -200 45 -200 45 -16.841991 115.26862
30745000000 -200 45 -200 45 -200 45 -38.988651 171.34184
30800000000 -200 45 -200 45 -200 45 -18.441679 110.59322
30855000000 -200 45 -200 45 -200 45 -22.124554 179.09187
30910000000 -200 45 -200 45 -200 45 -18.361406 40.720764
30965000000 -200 45 -200 45 -200 45 -16.07098 148.57431
31020000000 -200 45 -200 45 -200 45 -24.657887 -90.86982
31075000000 -200 45 -200 45 -200 45 -18.552063 76.272163
31130000000 -200 45 -200 45 -200 45 -21.250761 -155.18919
31185000000 -200 45 -200 45 -200 45 -25.31024 37.155041
31240000000 -200 45 -200 45 -200 45 -19.924404 157.48874
31295000000 -200 45 -200 45 -200 45 -19.040142 -44.130981
31350000000 -200 45 -200 45 -200 45 -19.654543 103.34682
31405000000 -200 45 -200 45 -200 45 -18.356609 -131.84631
31460000000 -200 45 -200 45 -200 45 -17.311617 -3.8252373
31515000000 -200 45 -200 45 -200 45 -23.02655 177.5582
31570000000 -200 45 -200 45 -200 45 -21.088787 -60.528946
31625000000 -200 45 -200 45 -200 45 -27.478201 67.009705
31680000000 -200 45 -200 45 -200 45 -17.402748 -83.700577
31735000000 -200 45 -200 45 -200 45 -19.441717 6.5348473
31790000000 -200 45 -200 45 -200 45 -20.473843 -151.30228
31845000000 -200 45 -200 45 -200 45 -15.464861 -44.767902
31900000000 -200 45 -200 45 -200 45 -26.232563 28.998777
31955000000 -200 45 -200 45 -200 45 -19.057896 -84.052635
32010000000 -200 45 -200 45 -200 45 -21.20063 -4.8352494
32065000000 -200 45 -200 45 -200 45 -20.767174 -85.412537
32120000000 -200 45 -200 45 -200 45 -16.057545 -21.781609
32175000000 -200 45 -200 45 -200 45 -34.579029 135.52132
32230000000 -200 45 -200 45 -200 45 -15.794412 -60.60849
32285000000 -200 45 -200 45 -200 45 -17.616264 1.5131146
32340000000 -200 45 -200 45 -200 45 -22.943762 -87.500992
32395000000 -200 45 -200 45 -200 45 -18.293005 -17.89436
32450000000 -200 45 -200 45 -200 45 -27.928534 -51.878128
32505000000 -200 45 -200 45 -200 45 -16.063343 -42.429531
32560000000 -200 45 -200 45 -200 45 -21.03273 50.898846
32615000000 -200 45 -200 45 -200 45 -20.242716 -80.229057
32670000000 -200 45 -200 45 -200 45 -15.882279 -11.557086
32725000000 -200 45 -200 45 -200 45 -32.891449 82.431358
32780000000 -200 45 -200 45 -200 45 -19.843954 -28.385202
32835000000 -200 45 -200 45 -200 45 -23.737329 28.242836
32890000000 -200 45 -200 45 -200 45 -20.87676 -56.46006
32945000000 -200 45 -200 45 -200 45 -17.86087 22.254072
33000000000 -200 45 -200 45 -200 45 -29.941853 -177.01881
