!Keysight Technologies,N5224B,MY57181201,A.12.70.07
!Date: Friday, July 15, 2022 12:01:59
!Correction: S11(Response(S21)) 
!S21(Response(S21)) 
!S12(Response(S21)) 
!S22(Response(S21)) 
!S2P File: Measurements: S11, S21, S12, S22:
# Hz S  dB   R 50
22000000000 -65.027931 170.81439 -65.027931 170.81439 -65.027931 170.81439 -65.027931 170.81439
22055000000 -63.003307 -150.87381 -63.003307 -150.87381 -63.003307 -150.87381 -63.003307 -150.87381
22110000000 -62.07671 -85.962891 -62.07671 -85.962891 -62.07671 -85.962891 -62.07671 -85.962891
22165000000 -61.680832 109.88223 -61.680832 109.88223 -61.680832 109.88223 -61.680832 109.88223
22220000000 -61.747807 -175.53352 -61.747807 -175.53352 -61.747807 -175.53352 -61.747807 -175.53352
22275000000 -84.744926 19.384756 -84.744926 19.384756 -84.744926 19.384756 -84.744926 19.384756
22330000000 -62.935776 26.106827 -62.935776 26.106827 -62.935776 26.106827 -62.935776 26.106827
22385000000 -62.352463 -57.181908 -62.352463 -57.181908 -62.352463 -57.181908 -62.352463 -57.181908
22440000000 -68.249374 52.704582 -68.249374 52.704582 -68.249374 52.704582 -68.249374 52.704582
22495000000 -87.740746 -156.03607 -87.740746 -156.03607 -87.740746 -156.03607 -87.740746 -156.03607
22550000000 -75.83371 -174.96021 -75.83371 -174.96021 -75.83371 -174.96021 -75.83371 -174.96021
22605000000 -65.898567 -146.93004 -65.898567 -146.93004 -65.898567 -146.93004 -65.898567 -146.93004
22660000000 -61.742237 -109.30735 -61.742237 -109.30735 -61.742237 -109.30735 -61.742237 -109.30735
22715000000 -59.468742 -17.334818 -59.468742 -17.334818 -59.468742 -17.334818 -59.468742 -17.334818
22770000000 -75.87056 37.383083 -75.87056 37.383083 -75.87056 37.383083 -75.87056 37.383083
22825000000 -64.975075 -76.355827 -64.975075 -76.355827 -64.975075 -76.355827 -64.975075 -76.355827
22880000000 -63.816597 52.10144 -63.816597 52.10144 -63.816597 52.10144 -63.816597 52.10144
22935000000 -72.048683 -159.42731 -72.048683 -159.42731 -72.048683 -159.42731 -72.048683 -159.42731
22990000000 -61.091644 -15.79261 -61.091644 -15.79261 -61.091644 -15.79261 -61.091644 -15.79261
23045000000 -64.886856 115.34175 -64.886856 115.34175 -64.886856 115.34175 -64.886856 115.34175
23100000000 -64.200592 146.21928 -64.200592 146.21928 -64.200592 146.21928 -64.200592 146.21928
23155000000 -67.727058 6.5509939 -67.727058 6.5509939 -67.727058 6.5509939 -67.727058 6.5509939
23210000000 -57.075729 135.19011 -57.075729 135.19011 -57.075729 135.19011 -57.075729 135.19011
23265000000 -60.303131 -98.356209 -60.303131 -98.356209 -60.303131 -98.356209 -60.303131 -98.356209
23320000000 -58.864414 -21.791725 -58.864414 -21.791725 -58.864414 -21.791725 -58.864414 -21.791725
23375000000 -70.151695 56.940105 -70.151695 56.940105 -70.151695 56.940105 -70.151695 56.940105
23430000000 -61.326115 -116.03841 -61.326115 -116.03841 -61.326115 -116.03841 -61.326115 -116.03841
23485000000 -67.490448 -65.33387 -67.490448 -65.33387 -67.490448 -65.33387 -67.490448 -65.33387
23540000000 -56.057442 132.35161 -56.057442 132.35161 -56.057442 132.35161 -56.057442 132.35161
23595000000 -58.664104 -124.23561 -58.664104 -124.23561 -58.664104 -124.23561 -58.664104 -124.23561
23650000000 -68.102989 60.945705 -68.102989 60.945705 -68.102989 60.945705 -68.102989 60.945705
23705000000 -64.754799 172.22729 -64.754799 172.22729 -64.754799 172.22729 -64.754799 172.22729
23760000000 -58.97121 -60.007774 -58.97121 -60.007774 -58.97121 -60.007774 -58.97121 -60.007774
23815000000 -64.300835 16.347994 -64.300835 16.347994 -64.300835 16.347994 -64.300835 16.347994
23870000000 -64.460938 -165.60165 -64.460938 -165.60165 -64.460938 -165.60165 -64.460938 -165.60165
23925000000 -61.249519 -72.850128 -61.249519 -72.850128 -61.249519 -72.850128 -61.249519 -72.850128
23980000000 -62.260086 86.249039 -62.260086 86.249039 -62.260086 86.249039 -62.260086 86.249039
24035000000 -67.504776 -146.50629 -67.504776 -146.50629 -67.504776 -146.50629 -67.504776 -146.50629
24090000000 -57.827641 25.476871 -57.827641 25.476871 -57.827641 25.476871 -57.827641 25.476871
24145000000 -63.485863 100.62665 -63.485863 100.62665 -63.485863 100.62665 -63.485863 100.62665
24200000000 -62.921555 -110.2403 -62.921555 -110.2403 -62.921555 -110.2403 -62.921555 -110.2403
24255000000 -59.483162 -29.403036 -59.483162 -29.403036 -59.483162 -29.403036 -59.483162 -29.403036
24310000000 -69.594933 125.39194 -69.594933 125.39194 -69.594933 125.39194 -69.594933 125.39194
24365000000 -66.646126 -71.928619 -66.646126 -71.928619 -66.646126 -71.928619 -66.646126 -71.928619
24420000000 -58.30854 17.799503 -58.30854 17.799503 -58.30854 17.799503 -58.30854 17.799503
24475000000 -61.510677 89.207832 -61.510677 89.207832 -61.510677 89.207832 -61.510677 89.207832
24530000000 -62.378098 -126.70535 -62.378098 -126.70535 -62.378098 -126.70535 -62.378098 -126.70535
24585000000 -58.604855 40.329865 -58.604855 40.329865 -58.604855 40.329865 -58.604855 40.329865
24640000000 -58.547939 166.05391 -58.547939 166.05391 -58.547939 166.05391 -58.547939 166.05391
24695000000 -57.790081 -71.460251 -57.790081 -71.460251 -57.790081 -71.460251 -57.790081 -71.460251
24750000000 -56.361584 25.988333 -56.361584 25.988333 -56.361584 25.988333 -56.361584 25.988333
24805000000 -83.575249 -157.16444 -83.575249 -157.16444 -83.575249 -157.16444 -83.575249 -157.16444
24860000000 -56.121201 -113.66224 -56.121201 -113.66224 -56.121201 -113.66224 -56.121201 -113.66224
24915000000 -63.564838 79.902763 -63.564838 79.902763 -63.564838 79.902763 -63.564838 79.902763
24970000000 -55.294743 -152.17676 -55.294743 -152.17676 -55.294743 -152.17676 -55.294743 -152.17676
25025000000 -61.369053 -47.842255 -61.369053 -47.842255 -61.369053 -47.842255 -61.369053 -47.842255
25080000000 -56.645092 97.669495 -56.645092 97.669495 -56.645092 97.669495 -56.645092 97.669495
25135000000 -63.93631 -113.53352 -63.93631 -113.53352 -63.93631 -113.53352 -63.93631 -113.53352
25190000000 -75.339233 -13.857429 -75.339233 -13.857429 -75.339233 -13.857429 -75.339233 -13.857429
25245000000 -64.423798 -31.356785 -64.423798 -31.356785 -64.423798 -31.356785 -64.423798 -31.356785
25300000000 -60.697533 -101.37243 -60.697533 -101.37243 -60.697533 -101.37243 -60.697533 -101.37243
25355000000 -67.640564 -133.40222 -67.640564 -133.40222 -67.640564 -133.40222 -67.640564 -133.40222
25410000000 -60.11776 119.47079 -60.11776 119.47079 -60.11776 119.47079 -60.11776 119.47079
25465000000 -67.82563 -105.81445 -67.82563 -105.81445 -67.82563 -105.81445 -67.82563 -105.81445
25520000000 -60.584507 58.447624 -60.584507 58.447624 -60.584507 58.447624 -60.584507 58.447624
25575000000 -68.391792 -167.72682 -68.391792 -167.72682 -68.391792 -167.72682 -68.391792 -167.72682
25630000000 -66.716545 -19.640696 -66.716545 -19.640696 -66.716545 -19.640696 -66.716545 -19.640696
25685000000 -64.073586 47.519188 -64.073586 47.519188 -64.073586 47.519188 -64.073586 47.519188
25740000000 -65.807198 -138.63705 -65.807198 -138.63705 -65.807198 -138.63705 -65.807198 -138.63705
25795000000 -71.962517 12.114142 -71.962517 12.114142 -71.962517 12.114142 -71.962517 12.114142
25850000000 -58.402985 137.45146 -58.402985 137.45146 -58.402985 137.45146 -58.402985 137.45146
25905000000 -57.190914 -147.92593 -57.190914 -147.92593 -57.190914 -147.92593 -57.190914 -147.92593
25960000000 -60.329659 22.951513 -60.329659 22.951513 -60.329659 22.951513 -60.329659 22.951513
26015000000 -56.923988 -177.98599 -56.923988 -177.98599 -56.923988 -177.98599 -56.923988 -177.98599
26070000000 -58.103104 -59.115288 -58.103104 -59.115288 -58.103104 -59.115288 -58.103104 -59.115288
26125000000 -61.89798 36.419403 -61.89798 36.419403 -61.89798 36.419403 -61.89798 36.419403
26180000000 -62.750294 -138.84077 -62.750294 -138.84077 -62.750294 -138.84077 -62.750294 -138.84077
26235000000 -60.184479 -67.244835 -60.184479 -67.244835 -60.184479 -67.244835 -60.184479 -67.244835
26290000000 -58.593376 34.258736 -58.593376 34.258736 -58.593376 34.258736 -58.593376 34.258736
26345000000 -59.177399 174.33723 -59.177399 174.33723 -59.177399 174.33723 -59.177399 174.33723
26400000000 -70.182587 -36.569572 -70.182587 -36.569572 -70.182587 -36.569572 -70.182587 -36.569572
26455000000 -61.023216 105.315 -61.023216 105.315 -61.023216 105.315 -61.023216 105.315
26510000000 -60.472912 -146.27309 -60.472912 -146.27309 -60.472912 -146.27309 -60.472912 -146.27309
26565000000 -59.965305 -23.16326 -59.965305 -23.16326 -59.965305 -23.16326 -59.965305 -23.16326
26620000000 -67.448013 -50.945972 -67.448013 -50.945972 -67.448013 -50.945972 -67.448013 -50.945972
26675000000 -65.287994 -177.74921 -65.287994 -177.74921 -65.287994 -177.74921 -65.287994 -177.74921
26730000000 -62.691494 -26.70138 -62.691494 -26.70138 -62.691494 -26.70138 -62.691494 -26.70138
26785000000 -64.557594 152.61128 -64.557594 152.61128 -64.557594 152.61128 -64.557594 152.61128
26840000000 -60.141438 -120.16531 -60.141438 -120.16531 -60.141438 -120.16531 -60.141438 -120.16531
26895000000 -64.928848 -17.798584 -64.928848 -17.798584 -64.928848 -17.798584 -64.928848 -17.798584
26950000000 -58.599621 -165.17148 -58.599621 -165.17148 -58.599621 -165.17148 -58.599621 -165.17148
27005000000 -63.563515 -55.567158 -63.563515 -55.567158 -63.563515 -55.567158 -63.563515 -55.567158
27060000000 -64.857689 85.869873 -64.857689 85.869873 -64.857689 85.869873 -64.857689 85.869873
27115000000 -61.989025 -174.68117 -61.989025 -174.68117 -61.989025 -174.68117 -61.989025 -174.68117
27170000000 -60.471794 -50.76487 -60.471794 -50.76487 -60.471794 -50.76487 -60.471794 -50.76487
27225000000 -70.608727 78.87487 -70.608727 78.87487 -70.608727 78.87487 -70.608727 78.87487
27280000000 -61.560184 -134.49887 -61.560184 -134.49887 -61.560184 -134.49887 -61.560184 -134.49887
27335000000 -64.037971 -3.2064922 -64.037971 -3.2064922 -64.037971 -3.2064922 -64.037971 -3.2064922
27390000000 -61.485901 143.57106 -61.485901 143.57106 -61.485901 143.57106 -61.485901 143.57106
27445000000 -78.022095 26.026342 -78.022095 26.026342 -78.022095 26.026342 -78.022095 26.026342
27500000000 -68.301804 44.975986 -68.301804 44.975986 -68.301804 44.975986 -68.301804 44.975986
27555000000 -72.553413 50.838493 -72.553413 50.838493 -72.553413 50.838493 -72.553413 50.838493
27610000000 -60.184536 -91.655563 -60.184536 -91.655563 -60.184536 -91.655563 -60.184536 -91.655563
27665000000 -66.177673 -10.42621 -66.177673 -10.42621 -66.177673 -10.42621 -66.177673 -10.42621
27720000000 -70.13166 131.49944 -70.13166 131.49944 -70.13166 131.49944 -70.13166 131.49944
27775000000 -61.04343 -97.787262 -61.04343 -97.787262 -61.04343 -97.787262 -61.04343 -97.787262
27830000000 -59.965191 111.9256 -59.965191 111.9256 -59.965191 111.9256 -59.965191 111.9256
27885000000 -68.034821 -176.65715 -68.034821 -176.65715 -68.034821 -176.65715 -68.034821 -176.65715
27940000000 -69.013481 39.815212 -69.013481 39.815212 -69.013481 39.815212 -69.013481 39.815212
27995000000 -64.188461 104.89079 -64.188461 104.89079 -64.188461 104.89079 -64.188461 104.89079
28050000000 -61.912354 -102.88163 -61.912354 -102.88163 -61.912354 -102.88163 -61.912354 -102.88163
28105000000 -61.661049 -42.264229 -61.661049 -42.264229 -61.661049 -42.264229 -61.661049 -42.264229
28160000000 -63.758144 104.11477 -63.758144 104.11477 -63.758144 104.11477 -63.758144 104.11477
28215000000 -63.244297 -99.279037 -63.244297 -99.279037 -63.244297 -99.279037 -63.244297 -99.279037
28270000000 -61.794609 77.663376 -61.794609 77.663376 -61.794609 77.663376 -61.794609 77.663376
28325000000 -72.238396 56.060829 -72.238396 56.060829 -72.238396 56.060829 -72.238396 56.060829
28380000000 -72.644897 24.638865 -72.644897 24.638865 -72.644897 24.638865 -72.644897 24.638865
28435000000 -74.734184 99.571686 -74.734184 99.571686 -74.734184 99.571686 -74.734184 99.571686
28490000000 -66.514793 -138.85155 -66.514793 -138.85155 -66.514793 -138.85155 -66.514793 -138.85155
28545000000 -62.416756 -38.077145 -62.416756 -38.077145 -62.416756 -38.077145 -62.416756 -38.077145
28600000000 -63.069935 59.468102 -63.069935 59.468102 -63.069935 59.468102 -63.069935 59.468102
28655000000 -62.491173 -178.45483 -62.491173 -178.45483 -62.491173 -178.45483 -62.491173 -178.45483
28710000000 -67.929329 -74.862007 -67.929329 -74.862007 -67.929329 -74.862007 -67.929329 -74.862007
28765000000 -66.431808 123.19947 -66.431808 123.19947 -66.431808 123.19947 -66.431808 123.19947
28820000000 -59.874432 -124.18098 -59.874432 -124.18098 -59.874432 -124.18098 -59.874432 -124.18098
28875000000 -61.209042 49.261642 -61.209042 49.261642 -61.209042 49.261642 -61.209042 49.261642
28930000000 -66.759422 141.26869 -66.759422 141.26869 -66.759422 141.26869 -66.759422 141.26869
28985000000 -60.005005 -93.245911 -60.005005 -93.245911 -60.005005 -93.245911 -60.005005 -93.245911
29040000000 -62.374729 14.273026 -62.374729 14.273026 -62.374729 14.273026 -62.374729 14.273026
29095000000 -65.565437 151.12141 -65.565437 151.12141 -65.565437 151.12141 -65.565437 151.12141
29150000000 -63.751038 -67.182388 -63.751038 -67.182388 -63.751038 -67.182388 -63.751038 -67.182388
29205000000 -68.646469 -21.230446 -68.646469 -21.230446 -68.646469 -21.230446 -68.646469 -21.230446
29260000000 -69.022903 -142.30302 -69.022903 -142.30302 -69.022903 -142.30302 -69.022903 -142.30302
29315000000 -64.129204 -46.645023 -64.129204 -46.645023 -64.129204 -46.645023 -64.129204 -46.645023
29370000000 -59.922733 118.38415 -59.922733 118.38415 -59.922733 118.38415 -59.922733 118.38415
29425000000 -64.476204 153.11005 -64.476204 153.11005 -64.476204 153.11005 -64.476204 153.11005
29480000000 -64.420822 -7.3885188 -64.420822 -7.3885188 -64.420822 -7.3885188 -64.420822 -7.3885188
29535000000 -65.333511 122.92747 -65.333511 122.92747 -65.333511 122.92747 -65.333511 122.92747
29590000000 -61.52594 -71.859612 -61.52594 -71.859612 -61.52594 -71.859612 -61.52594 -71.859612
29645000000 -61.041775 36.311993 -61.041775 36.311993 -61.041775 36.311993 -61.041775 36.311993
29700000000 -61.538471 171.98723 -61.538471 171.98723 -61.538471 171.98723 -61.538471 171.98723
29755000000 -64.992386 -89.615097 -64.992386 -89.615097 -64.992386 -89.615097 -64.992386 -89.615097
29810000000 -61.358665 32.514336 -61.358665 32.514336 -61.358665 32.514336 -61.358665 32.514336
29865000000 -57.609394 145.75703 -57.609394 145.75703 -57.609394 145.75703 -57.609394 145.75703
29920000000 -71.471062 -80.615028 -71.471062 -80.615028 -71.471062 -80.615028 -71.471062 -80.615028
29975000000 -61.064671 51.763668 -61.064671 51.763668 -61.064671 51.763668 -61.064671 51.763668
30030000000 -79.924194 -17.513065 -79.924194 -17.513065 -79.924194 -17.513065 -79.924194 -17.513065
30085000000 -61.572353 -37.660515 -61.572353 -37.660515 -61.572353 -37.660515 -61.572353 -37.660515
30140000000 -63.989296 60.689018 -63.989296 60.689018 -63.989296 60.689018 -63.989296 60.689018
30195000000 -68.22448 -102.78923 -68.22448 -102.78923 -68.22448 -102.78923 -68.22448 -102.78923
30250000000 -63.693417 26.646959 -63.693417 26.646959 -63.693417 26.646959 -63.693417 26.646959
30305000000 -61.657013 124.83257 -61.657013 124.83257 -61.657013 124.83257 -61.657013 124.83257
30360000000 -66.694946 -86.068344 -66.694946 -86.068344 -66.694946 -86.068344 -66.694946 -86.068344
30415000000 -63.221844 49.25098 -63.221844 49.25098 -63.221844 49.25098 -63.221844 49.25098
30470000000 -64.842438 160.81186 -64.842438 160.81186 -64.842438 160.81186 -64.842438 160.81186
30525000000 -63.018497 -88.623337 -63.018497 -88.623337 -63.018497 -88.623337 -63.018497 -88.623337
30580000000 -64.677002 51.002872 -64.677002 51.002872 -64.677002 51.002872 -64.677002 51.002872
30635000000 -66.715874 -80.824677 -66.715874 -80.824677 -66.715874 -80.824677 -66.715874 -80.824677
30690000000 -59.00539 -74.835808 -59.00539 -74.835808 -59.00539 -74.835808 -59.00539 -74.835808
30745000000 -64.780632 10.08976 -64.780632 10.08976 -64.780632 10.08976 -64.780632 10.08976
30800000000 -66.283722 162.95128 -66.283722 162.95128 -66.283722 162.95128 -66.283722 162.95128
30855000000 -71.079155 -27.600689 -71.079155 -27.600689 -71.079155 -27.600689 -71.079155 -27.600689
30910000000 -61.621723 121.59828 -61.621723 121.59828 -61.621723 121.59828 -61.621723 121.59828
30965000000 -61.401981 -135.85098 -61.401981 -135.85098 -61.401981 -135.85098 -61.401981 -135.85098
31020000000 -62.389885 29.649841 -62.389885 29.649841 -62.389885 29.649841 -62.389885 29.649841
31075000000 -72.225281 65.398514 -72.225281 65.398514 -72.225281 65.398514 -72.225281 65.398514
31130000000 -72.672165 -81.222214 -72.672165 -81.222214 -72.672165 -81.222214 -72.672165 -81.222214
31185000000 -63.145443 -2.4838986 -63.145443 -2.4838986 -63.145443 -2.4838986 -63.145443 -2.4838986
31240000000 -63.354637 122.97684 -63.354637 122.97684 -63.354637 122.97684 -63.354637 122.97684
31295000000 -71.013031 -87.837013 -71.013031 -87.837013 -71.013031 -87.837013 -71.013031 -87.837013
31350000000 -57.833488 97.789833 -57.833488 97.789833 -57.833488 97.789833 -57.833488 97.789833
31405000000 -60.498966 171.48047 -60.498966 171.48047 -60.498966 171.48047 -60.498966 171.48047
31460000000 -63.728016 -5.6774955 -63.728016 -5.6774955 -63.728016 -5.6774955 -63.728016 -5.6774955
31515000000 -63.428493 73.854271 -63.428493 73.854271 -63.428493 73.854271 -63.428493 73.854271
31570000000 -60.772182 -82.366676 -60.772182 -82.366676 -60.772182 -82.366676 -60.772182 -82.366676
31625000000 -59.445091 -53.010696 -59.445091 -53.010696 -59.445091 -53.010696 -59.445091 -53.010696
31680000000 -63.881649 128.96716 -63.881649 128.96716 -63.881649 128.96716 -63.881649 128.96716
31735000000 -67.948959 -122.53149 -67.948959 -122.53149 -67.948959 -122.53149 -67.948959 -122.53149
31790000000 -61.937862 93.467346 -61.937862 93.467346 -61.937862 93.467346 -61.937862 93.467346
31845000000 -67.032036 138.3622 -67.032036 138.3622 -67.032036 138.3622 -67.032036 138.3622
31900000000 -61.039478 -14.247914 -61.039478 -14.247914 -61.039478 -14.247914 -61.039478 -14.247914
31955000000 -62.506081 52.073013 -62.506081 52.073013 -62.506081 52.073013 -62.506081 52.073013
32010000000 -60.733147 -162.35455 -60.733147 -162.35455 -60.733147 -162.35455 -60.733147 -162.35455
32065000000 -57.215206 -75.174774 -57.215206 -75.174774 -57.215206 -75.174774 -57.215206 -75.174774
32120000000 -63.542046 95.618057 -63.542046 95.618057 -63.542046 95.618057 -63.542046 95.618057
32175000000 -65.45092 173.43816 -65.45092 173.43816 -65.45092 173.43816 -65.45092 173.43816
32230000000 -61.019291 58.670307 -61.019291 58.670307 -61.019291 58.670307 -61.019291 58.670307
32285000000 -58.554485 130.41138 -58.554485 130.41138 -58.554485 130.41138 -58.554485 130.41138
32340000000 -63.734703 -123.86993 -63.734703 -123.86993 -63.734703 -123.86993 -63.734703 -123.86993
32395000000 -57.769615 14.417232 -57.769615 14.417232 -57.769615 14.417232 -57.769615 14.417232
32450000000 -58.671913 125.27209 -58.671913 125.27209 -58.671913 125.27209 -58.671913 125.27209
32505000000 -61.09441 -131.80354 -61.09441 -131.80354 -61.09441 -131.80354 -61.09441 -131.80354
32560000000 -57.720509 -8.3972683 -57.720509 -8.3972683 -57.720509 -8.3972683 -57.720509 -8.3972683
32615000000 -60.697178 135.20744 -60.697178 135.20744 -60.697178 135.20744 -60.697178 135.20744
32670000000 -73.563179 -124.48912 -73.563179 -124.48912 -73.563179 -124.48912 -73.563179 -124.48912
32725000000 -62.220425 35.357452 -62.220425 35.357452 -62.220425 35.357452 -62.220425 35.357452
32780000000 -60.412933 -173.7928 -60.412933 -173.7928 -60.412933 -173.7928 -60.412933 -173.7928
32835000000 -64.442268 -53.382687 -64.442268 -53.382687 -64.442268 -53.382687 -64.442268 -53.382687
32890000000 -58.157127 56.235989 -58.157127 56.235989 -58.157127 56.235989 -58.157127 56.235989
32945000000 -57.997391 -177.72031 -57.997391 -177.72031 -57.997391 -177.72031 -57.997391 -177.72031
