!Keysight Technologies,N5224B,MY57181201,A.12.70.07
!Date: Friday, July 15, 2022 12:00:35
!Correction: S11(Off) 
!S21(Off) 
!S12(Off) 
!S22(Off) 
!S2P File: Measurements: S11, S21, S12, S22:
# Hz S  dB   R 50
22000000000 -19.207636 -93.229286 -200 45 -200 45 -200 45
22055000000 -24.634182 -111.47446 -200 45 -200 45 -200 45
22110000000 -17.896835 -89.818001 -200 45 -200 45 -200 45
22165000000 -23.595537 -25.74128 -200 45 -200 45 -200 45
22220000000 -19.496288 -130.99181 -200 45 -200 45 -200 45
22275000000 -15.180794 -67.152153 -200 45 -200 45 -200 45
22330000000 -25.352186 -9.4602308 -200 45 -200 45 -200 45
22385000000 -18.810839 -104.17189 -200 45 -200 45 -200 45
22440000000 -17.708729 -46.78368 -200 45 -200 45 -200 45
22495000000 -23.820747 -80.077957 -200 45 -200 45 -200 45
22550000000 -17.062826 -53.409309 -200 45 -200 45 -200 45
22605000000 -24.198833 -2.2873056 -200 45 -200 45 -200 45
22660000000 -18.35096 -89.195992 -200 45 -200 45 -200 45
22715000000 -15.130147 -30.948475 -200 45 -200 45 -200 45
22770000000 -26.590456 21.967882 -200 45 -200 45 -200 45
22825000000 -18.165066 -72.392578 -200 45 -200 45 -200 45
22880000000 -17.255545 -21.965399 -200 45 -200 45 -200 45
22935000000 -23.731985 -28.408537 -200 45 -200 45 -200 45
22990000000 -18.845938 -28.639759 -200 45 -200 45 -200 45
23045000000 -24.063629 -10.942128 -200 45 -200 45 -200 45
23100000000 -19.761446 -52.157623 -200 45 -200 45 -200 45
23155000000 -17.323261 -5.0336103 -200 45 -200 45 -200 45
23210000000 -27.997444 38.389965 -200 45 -200 45 -200 45
23265000000 -20.250954 -54.802765 -200 45 -200 45 -200 45
23320000000 -18.084957 3.1886442 -200 45 -200 45 -200 45
23375000000 -26.204725 30.480383 -200 45 -200 45 -200 45
23430000000 -24.393028 -19.533575 -200 45 -200 45 -200 45
23485000000 -23.348694 0.59783953 -200 45 -200 45 -200 45
23540000000 -23.570488 -3.5363929 -200 45 -200 45 -200 45
23595000000 -22.36422 20.211145 -200 45 -200 45 -200 45
23650000000 -36.898766 72.28936 -200 45 -200 45 -200 45
23705000000 -23.772926 -29.800041 -200 45 -200 45 -200 45
23760000000 -22.231472 34.656864 -200 45 -200 45 -200 45
23815000000 -31.222176 102.77553 -200 45 -200 45 -200 45
23870000000 -33.42429 -65.153587 -200 45 -200 45 -200 45
23925000000 -30.749973 18.338451 -200 45 -200 45 -200 45
23980000000 -28.393415 74.480995 -200 45 -200 45 -200 45
24035000000 -27.200485 144.80257 -200 45 -200 45 -200 45
24090000000 -32.121826 -131.39934 -200 45 -200 45 -200 45
24145000000 -29.454607 72.56044 -200 45 -200 45 -200 45
24200000000 -25.237978 126.75529 -200 45 -200 45 -200 45
24255000000 -29.868519 -165.48885 -200 45 -200 45 -200 45
24310000000 -29.756651 -170.58476 -200 45 -200 45 -200 45
24365000000 -34.412193 -170.36716 -200 45 -200 45 -200 45
24420000000 -23.92312 141.05974 -200 45 -200 45 -200 45
24475000000 -20.180029 -163.11876 -200 45 -200 45 -200 45
24530000000 -30.049519 -99.244812 -200 45 -200 45 -200 45
24585000000 -23.719364 139.02777 -200 45 -200 45 -200 45
24640000000 -19.493082 -157.20247 -200 45 -200 45 -200 45
24695000000 -28.641182 -137.04588 -200 45 -200 45 -200 45
24750000000 -22.437138 -171.50111 -200 45 -200 45 -200 45
24805000000 -27.485409 -160.50238 -200 45 -200 45 -200 45
24860000000 -22.037115 -173.83084 -200 45 -200 45 -200 45
24915000000 -19.930418 -124.32836 -200 45 -200 45 -200 45
24970000000 -37.368927 -128.7498 -200 45 -200 45 -200 45
25025000000 -20.349922 -175.36598 -200 45 -200 45 -200 45
25080000000 -19.392607 -126.1304 -200 45 -200 45 -200 45
25135000000 -28.175436 -120.86192 -200 45 -200 45 -200 45
25190000000 -24.301525 -149.83022 -200 45 -200 45 -200 45
25245000000 -23.539251 -146.31271 -200 45 -200 45 -200 45
25300000000 -21.235601 -126.13626 -200 45 -200 45 -200 45
25355000000 -25.431227 -90.629173 -200 45 -200 45 -200 45
25410000000 -27.673103 -177.56117 -200 45 -200 45 -200 45
25465000000 -22.033764 -128.07088 -200 45 -200 45 -200 45
25520000000 -24.428581 -87.859444 -200 45 -200 45 -200 45
25575000000 -27.858494 -90.076096 -200 45 -200 45 -200 45
25630000000 -37.574398 -154.94051 -200 45 -200 45 -200 45
25685000000 -23.92507 -126.55588 -200 45 -200 45 -200 45
25740000000 -21.596933 -49.938396 -200 45 -200 45 -200 45
25795000000 -29.410776 56.164524 -200 45 -200 45 -200 45
25850000000 -25.376558 -112.59277 -200 45 -200 45 -200 45
25905000000 -23.089457 -31.223377 -200 45 -200 45 -200 45
25960000000 -32.853794 -16.134033 -200 45 -200 45 -200 45
26015000000 -24.856077 -22.505266 -200 45 -200 45 -200 45
26070000000 -29.782864 73.408623 -200 45 -200 45 -200 45
26125000000 -23.401905 -68.160759 -200 45 -200 45 -200 45
26180000000 -18.10677 17.318588 -200 45 -200 45 -200 45
26235000000 -25.988352 106.96693 -200 45 -200 45 -200 45
26290000000 -21.274492 -40.098549 -200 45 -200 45 -200 45
26345000000 -18.072258 27.557798 -200 45 -200 45 -200 45
26400000000 -30.6618 27.452478 -200 45 -200 45 -200 45
26455000000 -21.656841 17.946747 -200 45 -200 45 -200 45
26510000000 -26.624504 83.543884 -200 45 -200 45 -200 45
26565000000 -19.455559 4.303709 -200 45 -200 45 -200 45
26620000000 -17.285406 67.222466 -200 45 -200 45 -200 45
26675000000 -35.501148 127.84442 -200 45 -200 45 -200 45
26730000000 -17.984322 15.363437 -200 45 -200 45 -200 45
26785000000 -18.103127 73.769005 -200 45 -200 45 -200 45
26840000000 -27.16235 53.971378 -200 45 -200 45 -200 45
26895000000 -20.789543 49.048611 -200 45 -200 45 -200 45
26950000000 -22.858835 47.61274 -200 45 -200 45 -200 45
27005000000 -19.252321 42.151634 -200 45 -200 45 -200 45
27060000000 -21.865263 90.052422 -200 45 -200 45 -200 45
27115000000 -27.28269 17.838123 -200 45 -200 45 -200 45
27170000000 -18.750652 44.929287 -200 45 -200 45 -200 45
27225000000 -21.118563 85.851631 -200 45 -200 45 -200 45
27280000000 -30.083519 53.891823 -200 45 -200 45 -200 45
27335000000 -23.515507 28.678801 -200 45 -200 45 -200 45
27390000000 -22.440893 59.612034 -200 45 -200 45 -200 45
27445000000 -25.123156 95.289772 -200 45 -200 45 -200 45
27500000000 -29.767351 28.851915 -200 45 -200 45 -200 45
27555000000 -24.85033 30.912132 -200 45 -200 45 -200 45
27610000000 -26.992083 52.138649 -200 45 -200 45 -200 45
27665000000 -31.320814 89.33712 -200 45 -200 45 -200 45
27720000000 -30.079294 -61.194656 -200 45 -200 45 -200 45
27775000000 -23.23888 14.089803 -200 45 -200 45 -200 45
27830000000 -27.302063 100.21979 -200 45 -200 45 -200 45
27885000000 -24.739836 -96.481476 -200 45 -200 45 -200 45
27940000000 -25.102249 -9.078968 -200 45 -200 45 -200 45
27995000000 -43.90543 -37.503185 -200 45 -200 45 -200 45
28050000000 -30.958755 -47.904854 -200 45 -200 45 -200 45
28105000000 -28.095524 -93.354019 -200 45 -200 45 -200 45
28160000000 -22.864676 -55.949863 -200 45 -200 45 -200 45
28215000000 -28.945124 28.810459 -200 45 -200 45 -200 45
28270000000 -23.898134 -125.09084 -200 45 -200 45 -200 45
28325000000 -20.453924 -47.087852 -200 45 -200 45 -200 45
28380000000 -29.493404 -8.9154072 -200 45 -200 45 -200 45
28435000000 -25.405914 -72.818092 -200 45 -200 45 -200 45
28490000000 -27.061289 -60.261032 -200 45 -200 45 -200 45
28545000000 -21.306681 -64.841682 -200 45 -200 45 -200 45
28600000000 -21.792698 -12.843735 -200 45 -200 45 -200 45
28655000000 -31.449409 -108.93668 -200 45 -200 45 -200 45
28710000000 -18.187761 -61.250523 -200 45 -200 45 -200 45
28765000000 -21.969105 -2.5748551 -200 45 -200 45 -200 45
28820000000 -26.114019 -71.857475 -200 45 -200 45 -200 45
28875000000 -22.514786 -33.030518 -200 45 -200 45 -200 45
28930000000 -25.929403 -52.36467 -200 45 -200 45 -200 45
28985000000 -18.684921 -24.691589 -200 45 -200 45 -200 45
29040000000 -25.491203 35.821186 -200 45 -200 45 -200 45
29095000000 -21.49192 -75.479469 -200 45 -200 45 -200 45
29150000000 -16.380205 -8.7899389 -200 45 -200 45 -200 45
29205000000 -26.752089 43.426353 -200 45 -200 45 -200 45
29260000000 -21.186657 -40.177071 -200 45 -200 45 -200 45
29315000000 -21.507992 12.034243 -200 45 -200 45 -200 45
29370000000 -21.676563 -27.662392 -200 45 -200 45 -200 45
29425000000 -18.486128 18.277706 -200 45 -200 45 -200 45
29480000000 -36.508579 64.946709 -200 45 -200 45 -200 45
29535000000 -17.951372 -27.096144 -200 45 -200 45 -200 45
29590000000 -17.738159 39.850006 -200 45 -200 45 -200 45
29645000000 -34.867287 33.907761 -200 45 -200 45 -200 45
29700000000 -19.069693 5.5426021 -200 45 -200 45 -200 45
29755000000 -21.861 33.077438 -200 45 -200 45 -200 45
29810000000 -20.127531 16.539045 -200 45 -200 45 -200 45
29865000000 -21.102783 57.324486 -200 45 -200 45 -200 45
29920000000 -25.081099 -6.9250059 -200 45 -200 45 -200 45
29975000000 -17.077099 25.840996 -200 45 -200 45 -200 45
30030000000 -21.556587 72.189278 -200 45 -200 45 -200 45
30085000000 -22.726723 10.585478 -200 45 -200 45 -200 45
30140000000 -19.976994 30.803587 -200 45 -200 45 -200 45
30195000000 -21.04167 30.530312 -200 45 -200 45 -200 45
30250000000 -20.525389 56.142689 -200 45 -200 45 -200 45
30305000000 -30.097065 13.553855 -200 45 -200 45 -200 45
30360000000 -17.594593 17.726063 -200 45 -200 45 -200 45
30415000000 -19.949091 70.248894 -200 45 -200 45 -200 45
30470000000 -26.058228 -3.8754554 -200 45 -200 45 -200 45
30525000000 -20.633909 29.356222 -200 45 -200 45 -200 45
30580000000 -25.781153 4.3776069 -200 45 -200 45 -200 45
30635000000 -19.593473 33.99308 -200 45 -200 45 -200 45
30690000000 -31.492094 139.3398 -200 45 -200 45 -200 45
30745000000 -18.133516 -24.703882 -200 45 -200 45 -200 45
30800000000 -18.548399 47.583965 -200 45 -200 45 -200 45
30855000000 -26.658905 -117.4275 -200 45 -200 45 -200 45
30910000000 -19.071156 -7.3384399 -200 45 -200 45 -200 45
30965000000 -32.524582 54.840813 -200 45 -200 45 -200 45
31020000000 -19.801474 -31.542542 -200 45 -200 45 -200 45
31075000000 -24.562 48.773823 -200 45 -200 45 -200 45
31130000000 -19.587656 -84.95639 -200 45 -200 45 -200 45
31185000000 -16.091059 -5.181684 -200 45 -200 45 -200 45
31240000000 -28.960789 153.49931 -200 45 -200 45 -200 45
31295000000 -15.544711 -62.074673 -200 45 -200 45 -200 45
31350000000 -19.303938 7.0698109 -200 45 -200 45 -200 45
31405000000 -20.687525 -83.416557 -200 45 -200 45 -200 45
31460000000 -17.870066 -30.303907 -200 45 -200 45 -200 45
31515000000 -25.606781 -87.282173 -200 45 -200 45 -200 45
31570000000 -14.577341 -50.054283 -200 45 -200 45 -200 45
31625000000 -21.19195 10.486424 -200 45 -200 45 -200 45
31680000000 -16.514402 -93.106331 -200 45 -200 45 -200 45
31735000000 -13.578729 -38.521133 -200 45 -200 45 -200 45
31790000000 -24.949488 -51.419109 -200 45 -200 45 -200 45
31845000000 -15.574128 -62.618145 -200 45 -200 45 -200 45
31900000000 -19.773361 -37.17894 -200 45 -200 45 -200 45
31955000000 -14.975796 -70.436661 -200 45 -200 45 -200 45
32010000000 -15.022729 -32.344971 -200 45 -200 45 -200 45
32065000000 -21.8181 -93.612923 -200 45 -200 45 -200 45
32120000000 -13.023382 -63.169128 -200 45 -200 45 -200 45
32175000000 -18.521156 -21.413902 -200 45 -200 45 -200 45
32230000000 -16.649147 -78.759911 -200 45 -200 45 -200 45
32285000000 -15.020196 -44.172188 -200 45 -200 45 -200 45
32340000000 -17.56164 -75.040436 -200 45 -200 45 -200 45
32395000000 -13.882645 -52.800186 -200 45 -200 45 -200 45
32450000000 -25.054417 -40.231754 -200 45 -200 45 -200 45
32505000000 -14.678044 -79.348206 -200 45 -200 45 -200 45
32560000000 -14.094054 -29.941896 -200 45 -200 45 -200 45
32615000000 -23.659367 -86.208656 -200 45 -200 45 -200 45
32670000000 -14.556476 -64.777092 -200 45 -200 45 -200 45
32725000000 -21.079529 -47.514549 -200 45 -200 45 -200 45
32780000000 -16.404869 -70.934341 -200 45 -200 45 -200 45
32835000000 -19.073126 -22.924654 -200 45 -200 45 -200 45
32890000000 -19.883101 -104.62539 -200 45 -200 45 -200 45
32945000000 -13.829723 -56.035748 -200 45 -200 45 -200 45
33000000000 -26.663269 -13.388072 -200 45 -200 45 -200 45
