!Keysight Technologies,N5224B,MY57181201,A.12.70.07
!Date: Friday, July 15, 2022 12:02:34
!Correction: S11(Response(S12)) 
!S21(Response(S12)) 
!S12(Response(S12)) 
!S22(Response(S12)) 
!S2P File: Measurements: S11, S21, S12, S22:
# Hz S  dB   R 50
22000000000 -68.216537 -157.39833 -68.216537 -157.39833 -68.216537 -157.39833 -68.216537 -157.39833
22055000000 -64.168839 -163.14644 -64.168839 -163.14644 -64.168839 -163.14644 -64.168839 -163.14644
22110000000 -63.513931 -76.93602 -63.513931 -76.93602 -63.513931 -76.93602 -63.513931 -76.93602
22165000000 -63.588757 93.938156 -63.588757 93.938156 -63.588757 93.938156 -63.588757 93.938156
22220000000 -69.515854 -171.66136 -69.515854 -171.66136 -69.515854 -171.66136 -69.515854 -171.66136
22275000000 -76.042252 -8.6979933 -76.042252 -8.6979933 -76.042252 -8.6979933 -76.042252 -8.6979933
22330000000 -64.099861 37.894791 -64.099861 37.894791 -64.099861 37.894791 -64.099861 37.894791
22385000000 -64.976738 -62.35725 -64.976738 -62.35725 -64.976738 -62.35725 -64.976738 -62.35725
22440000000 -67.677063 35.993713 -67.677063 35.993713 -67.677063 35.993713 -67.677063 35.993713
22495000000 -79.7108 21.510845 -79.7108 21.510845 -79.7108 21.510845 -79.7108 21.510845
22550000000 -69.969772 -117.98432 -69.969772 -117.98432 -69.969772 -117.98432 -69.969772 -117.98432
22605000000 -71.508743 -139.42195 -71.508743 -139.42195 -71.508743 -139.42195 -71.508743 -139.42195
22660000000 -61.604687 -104.42816 -61.604687 -104.42816 -61.604687 -104.42816 -61.604687 -104.42816
22715000000 -58.573616 -21.487556 -58.573616 -21.487556 -58.573616 -21.487556 -58.573616 -21.487556
22770000000 -77.868423 81.481812 -77.868423 81.481812 -77.868423 81.481812 -77.868423 81.481812
22825000000 -63.78249 -90.646233 -63.78249 -90.646233 -63.78249 -90.646233 -63.78249 -90.646233
22880000000 -62.251297 69.482445 -62.251297 69.482445 -62.251297 69.482445 -62.251297 69.482445
22935000000 -68.754974 -178.53864 -68.754974 -178.53864 -68.754974 -178.53864 -68.754974 -178.53864
22990000000 -60.657356 -9.8556566 -60.657356 -9.8556566 -60.657356 -9.8556566 -60.657356 -9.8556566
23045000000 -63.472233 110.0918 -63.472233 110.0918 -63.472233 110.0918 -63.472233 110.0918
23100000000 -68.053024 153.29074 -68.053024 153.29074 -68.053024 153.29074 -68.053024 153.29074
23155000000 -67.015907 16.352711 -67.015907 16.352711 -67.015907 16.352711 -67.015907 16.352711
23210000000 -59.285637 132.76067 -59.285637 132.76067 -59.285637 132.76067 -59.285637 132.76067
23265000000 -58.494675 -86.176399 -58.494675 -86.176399 -58.494675 -86.176399 -58.494675 -86.176399
23320000000 -58.509377 -24.130304 -58.509377 -24.130304 -58.509377 -24.130304 -58.509377 -24.130304
23375000000 -71.627411 32.617516 -71.627411 32.617516 -71.627411 32.617516 -71.627411 32.617516
23430000000 -61.733524 -111.71578 -61.733524 -111.71578 -61.733524 -111.71578 -61.733524 -111.71578
23485000000 -69.645256 -83.449188 -69.645256 -83.449188 -69.645256 -83.449188 -69.645256 -83.449188
23540000000 -56.855747 136.63217 -56.855747 136.63217 -56.855747 136.63217 -56.855747 136.63217
23595000000 -58.114491 -140.40111 -58.114491 -140.40111 -58.114491 -140.40111 -58.114491 -140.40111
23650000000 -64.066132 72.958221 -64.066132 72.958221 -64.066132 72.958221 -64.066132 72.958221
23705000000 -64.414169 -170.94492 -64.414169 -170.94492 -64.414169 -170.94492 -64.414169 -170.94492
23760000000 -58.680801 -53.43438 -58.680801 -53.43438 -58.680801 -53.43438 -58.680801 -53.43438
23815000000 -63.978962 42.127296 -63.978962 42.127296 -63.978962 42.127296 -63.978962 42.127296
23870000000 -62.918694 -178.59874 -62.918694 -178.59874 -62.918694 -178.59874 -62.918694 -178.59874
23925000000 -61.631119 -67.555786 -61.631119 -67.555786 -61.631119 -67.555786 -61.631119 -67.555786
23980000000 -63.160995 70.539864 -63.160995 70.539864 -63.160995 70.539864 -63.160995 70.539864
24035000000 -64.126823 -162.40521 -64.126823 -162.40521 -64.126823 -162.40521 -64.126823 -162.40521
24090000000 -59.735104 25.151381 -59.735104 25.151381 -59.735104 25.151381 -59.735104 25.151381
24145000000 -61.560532 107.61997 -61.560532 107.61997 -61.560532 107.61997 -61.560532 107.61997
24200000000 -65.145683 -122.7607 -65.145683 -122.7607 -65.145683 -122.7607 -65.145683 -122.7607
24255000000 -61.165173 -17.509821 -61.165173 -17.509821 -61.165173 -17.509821 -61.165173 -17.509821
24310000000 -70.367905 134.53661 -70.367905 134.53661 -70.367905 134.53661 -70.367905 134.53661
24365000000 -63.117382 -100.44048 -63.117382 -100.44048 -63.117382 -100.44048 -63.117382 -100.44048
24420000000 -58.272331 20.967237 -58.272331 20.967237 -58.272331 20.967237 -58.272331 20.967237
24475000000 -62.665966 100.76861 -62.665966 100.76861 -62.665966 100.76861 -62.665966 100.76861
24530000000 -62.904659 -155.2762 -62.904659 -155.2762 -62.904659 -155.2762 -62.904659 -155.2762
24585000000 -59.972591 45.656067 -59.972591 45.656067 -59.972591 45.656067 -59.972591 45.656067
24640000000 -56.723232 158.92595 -56.723232 158.92595 -56.723232 158.92595 -56.723232 158.92595
24695000000 -58.330631 -66.958519 -58.330631 -66.958519 -58.330631 -66.958519 -58.330631 -66.958519
24750000000 -57.563023 37.39809 -57.563023 37.39809 -57.563023 37.39809 -57.563023 37.39809
24805000000 -76.874184 -153.65842 -76.874184 -153.65842 -76.874184 -153.65842 -76.874184 -153.65842
24860000000 -56.968452 -115.58098 -56.968452 -115.58098 -56.968452 -115.58098 -56.968452 -115.58098
24915000000 -64.871979 57.463886 -64.871979 57.463886 -64.871979 57.463886 -64.871979 57.463886
24970000000 -55.324421 -159.77182 -55.324421 -159.77182 -55.324421 -159.77182 -55.324421 -159.77182
25025000000 -64.172127 -30.812906 -64.172127 -30.812906 -64.172127 -30.812906 -64.172127 -30.812906
25080000000 -58.342896 97.07003 -58.342896 97.07003 -58.342896 97.07003 -58.342896 97.07003
25135000000 -61.239716 -107.56998 -61.239716 -107.56998 -61.239716 -107.56998 -61.239716 -107.56998
25190000000 -67.398453 18.859362 -67.398453 18.859362 -67.398453 18.859362 -67.398453 18.859362
25245000000 -69.442551 -37.396122 -69.442551 -37.396122 -69.442551 -37.396122 -69.442551 -37.396122
25300000000 -59.191792 -104.78129 -59.191792 -104.78129 -59.191792 -104.78129 -59.191792 -104.78129
25355000000 -66.809814 -153.5399 -66.809814 -153.5399 -66.809814 -153.5399 -66.809814 -153.5399
25410000000 -58.9594 135.14122 -58.9594 135.14122 -58.9594 135.14122 -58.9594 135.14122
25465000000 -67.955124 -110.60875 -67.955124 -110.60875 -67.955124 -110.60875 -67.955124 -110.60875
25520000000 -61.550766 63.222942 -61.550766 63.222942 -61.550766 63.222942 -61.550766 63.222942
25575000000 -65.50016 161.36653 -65.50016 161.36653 -65.50016 161.36653 -65.50016 161.36653
25630000000 -63.306381 -19.871794 -63.306381 -19.871794 -63.306381 -19.871794 -63.306381 -19.871794
25685000000 -62.855835 26.280514 -62.855835 26.280514 -62.855835 26.280514 -62.855835 26.280514
25740000000 -62.986214 -122.39471 -62.986214 -122.39471 -62.986214 -122.39471 -62.986214 -122.39471
25795000000 -64.114677 -0.50526792 -64.114677 -0.50526792 -64.114677 -0.50526792 -64.114677 -0.50526792
25850000000 -58.064587 132.55878 -58.064587 132.55878 -58.064587 132.55878 -58.064587 132.55878
25905000000 -55.336823 -147.2081 -55.336823 -147.2081 -55.336823 -147.2081 -55.336823 -147.2081
25960000000 -62.121006 32.287235 -62.121006 32.287235 -62.121006 32.287235 -62.121006 32.287235
26015000000 -57.745697 169.25967 -57.745697 169.25967 -57.745697 169.25967 -57.745697 169.25967
26070000000 -59.193111 -55.778111 -59.193111 -55.778111 -59.193111 -55.778111 -59.193111 -55.778111
26125000000 -60.20068 10.894053 -60.20068 10.894053 -60.20068 10.894053 -60.20068 10.894053
26180000000 -65.943924 -138.85182 -65.943924 -138.85182 -65.943924 -138.85182 -65.943924 -138.85182
26235000000 -61.019718 -70.367935 -61.019718 -70.367935 -61.019718 -70.367935 -61.019718 -70.367935
26290000000 -59.944492 26.546064 -59.944492 26.546064 -59.944492 26.546064 -59.944492 26.546064
26345000000 -57.907509 165.42621 -57.907509 165.42621 -57.907509 165.42621 -57.907509 165.42621
26400000000 -68.540459 -67.207741 -68.540459 -67.207741 -68.540459 -67.207741 -68.540459 -67.207741
26455000000 -63.148724 132.95285 -63.148724 132.95285 -63.148724 132.95285 -63.148724 132.95285
26510000000 -62.13755 -144.33047 -62.13755 -144.33047 -62.13755 -144.33047 -62.13755 -144.33047
26565000000 -59.23098 -6.7145634 -59.23098 -6.7145634 -59.23098 -6.7145634 -59.23098 -6.7145634
26620000000 -65.893135 3.6158066 -65.893135 3.6158066 -65.893135 3.6158066 -65.893135 3.6158066
26675000000 -65.827042 146.41003 -65.827042 146.41003 -65.827042 146.41003 -65.827042 146.41003
26730000000 -62.591328 -43.718933 -62.591328 -43.718933 -62.591328 -43.718933 -62.591328 -43.718933
26785000000 -61.760788 141.7697 -61.760788 141.7697 -61.760788 141.7697 -61.760788 141.7697
26840000000 -62.750618 -138.78348 -62.750618 -138.78348 -62.750618 -138.78348 -62.750618 -138.78348
26895000000 -65.261436 -20.84494 -65.261436 -20.84494 -65.261436 -20.84494 -65.261436 -20.84494
26950000000 -63.567165 164.86224 -63.567165 164.86224 -63.567165 164.86224 -63.567165 164.86224
27005000000 -64.420288 -58.582596 -64.420288 -58.582596 -64.420288 -58.582596 -64.420288 -58.582596
27060000000 -71.451981 107.05145 -71.451981 107.05145 -71.451981 107.05145 -71.451981 107.05145
27115000000 -60.528965 158.82426 -60.528965 158.82426 -60.528965 158.82426 -60.528965 158.82426
27170000000 -63.463181 -11.441051 -63.463181 -11.441051 -63.463181 -11.441051 -63.463181 -11.441051
27225000000 -64.497986 62.608521 -64.497986 62.608521 -64.497986 62.608521 -64.497986 62.608521
27280000000 -60.829418 -143.03293 -60.829418 -143.03293 -60.829418 -143.03293 -60.829418 -143.03293
27335000000 -65.205261 -17.628513 -65.205261 -17.628513 -65.205261 -17.628513 -65.205261 -17.628513
27390000000 -59.339996 117.66995 -59.339996 117.66995 -59.339996 117.66995 -59.339996 117.66995
27445000000 -82.784668 164.2056 -82.784668 164.2056 -82.784668 164.2056 -82.784668 164.2056
27500000000 -67.342674 36.602295 -67.342674 36.602295 -67.342674 36.602295 -67.342674 36.602295
27555000000 -68.728691 -63.441105 -68.728691 -63.441105 -68.728691 -63.441105 -68.728691 -63.441105
27610000000 -63.439751 -113.17255 -63.439751 -113.17255 -63.439751 -113.17255 -63.439751 -113.17255
27665000000 -61.835529 4.2678447 -61.835529 4.2678447 -61.835529 4.2678447 -61.835529 4.2678447
27720000000 -73.497177 -124.07513 -73.497177 -124.07513 -73.497177 -124.07513 -73.497177 -124.07513
27775000000 -60.380756 -101.24795 -60.380756 -101.24795 -60.380756 -101.24795 -60.380756 -101.24795
27830000000 -61.952579 104.15178 -61.952579 104.15178 -61.952579 104.15178 -61.952579 104.15178
27885000000 -68.725754 177.79214 -68.725754 177.79214 -68.725754 177.79214 -68.725754 177.79214
27940000000 -61.797852 78.74128 -61.797852 78.74128 -61.797852 78.74128 -61.797852 78.74128
27995000000 -69.461464 70.649872 -69.461464 70.649872 -69.461464 70.649872 -69.461464 70.649872
28050000000 -64.750336 -112.76688 -64.750336 -112.76688 -64.750336 -112.76688 -64.750336 -112.76688
28105000000 -61.292175 -38.520554 -61.292175 -38.520554 -61.292175 -38.520554 -61.292175 -38.520554
28160000000 -66.262276 127.65426 -66.262276 127.65426 -66.262276 127.65426 -66.262276 127.65426
28215000000 -67.90007 -64.14296 -67.90007 -64.14296 -67.90007 -64.14296 -67.90007 -64.14296
28270000000 -67.759308 82.293648 -67.759308 82.293648 -67.759308 82.293648 -67.759308 82.293648
28325000000 -74.474358 58.78302 -74.474358 58.78302 -74.474358 58.78302 -74.474358 58.78302
28380000000 -68.506088 -99.525696 -68.506088 -99.525696 -68.506088 -99.525696 -68.506088 -99.525696
28435000000 -65.362289 45.697426 -65.362289 45.697426 -65.362289 45.697426 -65.362289 45.697426
28490000000 -64.687607 -137.31125 -64.687607 -137.31125 -64.687607 -137.31125 -64.687607 -137.31125
28545000000 -63.800537 -43.652271 -63.800537 -43.652271 -63.800537 -43.652271 -63.800537 -43.652271
28600000000 -61.60741 53.135483 -61.60741 53.135483 -61.60741 53.135483 -61.60741 53.135483
28655000000 -63.221703 -177.38878 -63.221703 -177.38878 -63.221703 -177.38878 -63.221703 -177.38878
28710000000 -71.207954 -17.808304 -71.207954 -17.808304 -71.207954 -17.808304 -71.207954 -17.808304
28765000000 -73.044876 107.2223 -73.044876 107.2223 -73.044876 107.2223 -73.044876 107.2223
28820000000 -64.203011 -111.78593 -64.203011 -111.78593 -64.203011 -111.78593 -64.203011 -111.78593
28875000000 -66.587692 58.157703 -66.587692 58.157703 -66.587692 58.157703 -66.587692 58.157703
28930000000 -67.924767 153.49202 -67.924767 153.49202 -67.924767 153.49202 -67.924767 153.49202
28985000000 -61.115631 -126.13197 -61.115631 -126.13197 -61.115631 -126.13197 -61.115631 -126.13197
29040000000 -63.893097 -13.423927 -63.893097 -13.423927 -63.893097 -13.423927 -63.893097 -13.423927
29095000000 -65.209557 152.63257 -65.209557 152.63257 -65.209557 152.63257 -65.209557 152.63257
29150000000 -61.790947 -54.675686 -61.790947 -54.675686 -61.790947 -54.675686 -61.790947 -54.675686
29205000000 -66.848091 40.475681 -66.848091 40.475681 -66.848091 40.475681 -66.848091 40.475681
29260000000 -61.541569 -137.22235 -61.541569 -137.22235 -61.541569 -137.22235 -61.541569 -137.22235
29315000000 -65.995644 6.3514194 -65.995644 6.3514194 -65.995644 6.3514194 -65.995644 6.3514194
29370000000 -59.422863 95.493401 -59.422863 95.493401 -59.422863 95.493401 -59.422863 95.493401
29425000000 -64.498177 163.5564 -64.498177 163.5564 -64.498177 163.5564 -64.498177 163.5564
29480000000 -61.579731 -37.512783 -61.579731 -37.512783 -61.579731 -37.512783 -61.579731 -37.512783
29535000000 -64.478035 103.03297 -64.478035 103.03297 -64.478035 103.03297 -64.478035 103.03297
29590000000 -63.040398 -63.227676 -63.040398 -63.227676 -63.040398 -63.227676 -63.040398 -63.227676
29645000000 -63.136547 9.5098667 -63.136547 9.5098667 -63.136547 9.5098667 -63.136547 9.5098667
29700000000 -64.650482 176.20273 -64.650482 176.20273 -64.650482 176.20273 -64.650482 176.20273
29755000000 -60.987671 -82.969788 -60.987671 -82.969788 -60.987671 -82.969788 -60.987671 -82.969788
29810000000 -58.212788 46.631832 -58.212788 46.631832 -58.212788 46.631832 -58.212788 46.631832
29865000000 -59.794022 147.72566 -59.794022 147.72566 -59.794022 147.72566 -59.794022 147.72566
29920000000 -64.024734 -47.670223 -64.024734 -47.670223 -64.024734 -47.670223 -64.024734 -47.670223
29975000000 -63.99884 38.267315 -63.99884 38.267315 -63.99884 38.267315 -63.99884 38.267315
30030000000 -74.169754 -118.38427 -74.169754 -118.38427 -74.169754 -118.38427 -74.169754 -118.38427
30085000000 -62.105137 -44.28598 -62.105137 -44.28598 -62.105137 -44.28598 -62.105137 -44.28598
30140000000 -67.017456 -46.531479 -67.017456 -46.531479 -67.017456 -46.531479 -67.017456 -46.531479
30195000000 -65.575813 -121.0034 -65.575813 -121.0034 -65.575813 -121.0034 -65.575813 -121.0034
30250000000 -62.904888 4.9722881 -62.904888 4.9722881 -62.904888 4.9722881 -62.904888 4.9722881
30305000000 -57.466743 122.34974 -57.466743 122.34974 -57.466743 122.34974 -57.466743 122.34974
30360000000 -76.136276 -69.76783 -76.136276 -69.76783 -76.136276 -69.76783 -76.136276 -69.76783
30415000000 -61.683353 18.524506 -61.683353 18.524506 -61.683353 18.524506 -61.683353 18.524506
30470000000 -66.489899 115.7934 -66.489899 115.7934 -66.489899 115.7934 -66.489899 115.7934
30525000000 -65.700798 -88.997314 -65.700798 -88.997314 -65.700798 -88.997314 -65.700798 -88.997314
30580000000 -60.915558 46.946789 -60.915558 46.946789 -60.915558 46.946789 -60.915558 46.946789
30635000000 -77.027039 -5.1325831 -77.027039 -5.1325831 -77.027039 -5.1325831 -77.027039 -5.1325831
30690000000 -61.713223 -58.63887 -61.713223 -58.63887 -61.713223 -58.63887 -61.713223 -58.63887
30745000000 -63.788639 45.292492 -63.788639 45.292492 -63.788639 45.292492 -63.788639 45.292492
30800000000 -64.714798 -175.3459 -64.714798 -175.3459 -64.714798 -175.3459 -64.714798 -175.3459
30855000000 -64.933632 -54.445557 -64.933632 -54.445557 -64.933632 -54.445557 -64.933632 -54.445557
30910000000 -66.798698 91.337837 -66.798698 91.337837 -66.798698 91.337837 -66.798698 91.337837
30965000000 -70.969452 -134.62772 -70.969452 -134.62772 -70.969452 -134.62772 -70.969452 -134.62772
31020000000 -61.223053 79.205132 -61.223053 79.205132 -61.223053 79.205132 -61.223053 79.205132
31075000000 -69.826508 65.619247 -69.826508 65.619247 -69.826508 65.619247 -69.826508 65.619247
31130000000 -67.744934 -82.545853 -67.744934 -82.545853 -67.744934 -82.545853 -67.744934 -82.545853
31185000000 -66.724518 3.4745476 -66.724518 3.4745476 -66.724518 3.4745476 -66.724518 3.4745476
31240000000 -60.215805 142.92793 -60.215805 142.92793 -60.215805 142.92793 -60.215805 142.92793
31295000000 -70.279022 -56.436859 -70.279022 -56.436859 -70.279022 -56.436859 -70.279022 -56.436859
31350000000 -60.218819 105.19756 -60.218819 105.19756 -60.218819 105.19756 -60.218819 105.19756
31405000000 -63.862766 168.42186 -63.862766 168.42186 -63.862766 168.42186 -63.862766 168.42186
31460000000 -61.552536 -26.541235 -61.552536 -26.541235 -61.552536 -26.541235 -61.552536 -26.541235
31515000000 -62.449814 70.124847 -62.449814 70.124847 -62.449814 70.124847 -62.449814 70.124847
31570000000 -57.238731 -98.199791 -57.238731 -98.199791 -57.238731 -98.199791 -57.238731 -98.199791
31625000000 -62.535595 -56.562485 -62.535595 -56.562485 -62.535595 -56.562485 -62.535595 -56.562485
31680000000 -62.818119 129.69077 -62.818119 129.69077 -62.818119 129.69077 -62.818119 129.69077
31735000000 -65.711708 -107.3105 -65.711708 -107.3105 -65.711708 -107.3105 -65.711708 -107.3105
31790000000 -66.084732 100.58884 -66.084732 100.58884 -66.084732 100.58884 -66.084732 100.58884
31845000000 -60.748585 146.88106 -60.748585 146.88106 -60.748585 146.88106 -60.748585 146.88106
31900000000 -61.607868 -41.999252 -61.607868 -41.999252 -61.607868 -41.999252 -61.607868 -41.999252
31955000000 -60.510262 50.800209 -60.510262 50.800209 -60.510262 50.800209 -60.510262 50.800209
32010000000 -63.099911 -147.29298 -63.099911 -147.29298 -63.099911 -147.29298 -63.099911 -147.29298
32065000000 -59.290958 -53.866238 -59.290958 -53.866238 -59.290958 -53.866238 -59.290958 -53.866238
32120000000 -63.125698 98.105736 -63.125698 98.105736 -63.125698 98.105736 -63.125698 98.105736
32175000000 -60.51395 -136.56915 -60.51395 -136.56915 -60.51395 -136.56915 -60.51395 -136.56915
32230000000 -67.874878 68.549202 -67.874878 68.549202 -67.874878 68.549202 -67.874878 68.549202
32285000000 -61.752407 103.35741 -61.752407 103.35741 -61.752407 103.35741 -61.752407 103.35741
32340000000 -65.179085 -122.42059 -65.179085 -122.42059 -65.179085 -122.42059 -65.179085 -122.42059
32395000000 -56.984444 9.3402796 -56.984444 9.3402796 -56.984444 9.3402796 -56.984444 9.3402796
32450000000 -59.205887 127.65311 -59.205887 127.65311 -59.205887 127.65311 -59.205887 127.65311
32505000000 -58.127724 -114.09903 -58.127724 -114.09903 -58.127724 -114.09903 -58.127724 -114.09903
32560000000 -57.754166 -2.2183008 -57.754166 -2.2183008 -57.754166 -2.2183008 -57.754166 -2.2183008
32615000000 -61.24551 115.64566 -61.24551 115.64566 -61.24551 115.64566 -61.24551 115.64566
32670000000 -73.394707 -99.810272 -73.394707 -99.810272 -73.394707 -99.810272 -73.394707 -99.810272
32725000000 -68.256111 50.144218 -68.256111 50.144218 -68.256111 50.144218 -68.256111 50.144218
32780000000 -58.998817 175.3661 -58.998817 175.3661 -58.998817 175.3661 -58.998817 175.3661
32835000000 -59.923634 -33.338486 -59.923634 -33.338486 -59.923634 -33.338486 -59.923634 -33.338486
32890000000 -61.839348 77.124199 -61.839348 77.124199 -61.839348 77.124199 -61.839348 77.124199
32945000000 -59.279469 -155.30606 -59.279469 -155.30606 -59.279469 -155.30606 -59.279469 -155.30606
