!Keysight Technologies,N5224B,MY57181201,A.12.70.07
!Date: Friday, July 15, 2022 11:57:16
!Correction: S11(Off) 
!S21(Off) 
!S12(Off) 
!S22(Off) 
!S2P File: Measurements: S11, S21, S12, S22:
# Hz S  dB   R 50
22000000000 -18.417784 -78.130302 -200 45 -200 45 -200 45
22055000000 -31.980024 -126.15256 -200 45 -200 45 -200 45
22110000000 -17.567413 -105.35846 -200 45 -200 45 -200 45
22165000000 -21.152199 -44.925102 -200 45 -200 45 -200 45
22220000000 -21.924511 -115.95519 -200 45 -200 45 -200 45
22275000000 -16.997875 -66.593208 -200 45 -200 45 -200 45
22330000000 -29.625362 -47.46315 -200 45 -200 45 -200 45
22385000000 -17.018133 -94.961235 -200 45 -200 45 -200 45
22440000000 -17.305368 -32.465355 -200 45 -200 45 -200 45
22495000000 -27.917442 -110.12746 -200 45 -200 45 -200 45
22550000000 -16.296463 -66.300911 -200 45 -200 45 -200 45
22605000000 -20.559769 -13.579372 -200 45 -200 45 -200 45
22660000000 -20.830418 -80.759995 -200 45 -200 45 -200 45
22715000000 -16.96629 -34.548267 -200 45 -200 45 -200 45
22770000000 -27.341419 -24.170021 -200 45 -200 45 -200 45
22825000000 -17.149315 -58.963875 -200 45 -200 45 -200 45
22880000000 -17.942019 -8.2707653 -200 45 -200 45 -200 45
22935000000 -26.945492 -58.799877 -200 45 -200 45 -200 45
22990000000 -16.99519 -38.337788 -200 45 -200 45 -200 45
23045000000 -20.436352 1.1378417 -200 45 -200 45 -200 45
23100000000 -23.358156 -49.286617 -200 45 -200 45 -200 45
23155000000 -18.907856 -17.405006 -200 45 -200 45 -200 45
23210000000 -25.199263 1.4568954 -200 45 -200 45 -200 45
23265000000 -20.687599 -35.238159 -200 45 -200 45 -200 45
23320000000 -20.107023 12.919386 -200 45 -200 45 -200 45
23375000000 -29.959387 -14.471519 -200 45 -200 45 -200 45
23430000000 -20.447031 -19.635994 -200 45 -200 45 -200 45
23485000000 -21.727962 25.800081 -200 45 -200 45 -200 45
23540000000 -30.397488 -4.3136139 -200 45 -200 45 -200 45
23595000000 -22.696308 -6.4524527 -200 45 -200 45 -200 45
23650000000 -28.020887 27.633461 -200 45 -200 45 -200 45
23705000000 -27.420641 -1.740535 -200 45 -200 45 -200 45
23760000000 -26.83429 38.710541 -200 45 -200 45 -200 45
23815000000 -37.770081 1.3635435 -200 45 -200 45 -200 45
23870000000 -29.732754 5.3354564 -200 45 -200 45 -200 45
23925000000 -30.332048 89.128571 -200 45 -200 45 -200 45
23980000000 -39.037014 147.21759 -200 45 -200 45 -200 45
24035000000 -38.305981 121.85062 -200 45 -200 45 -200 45
24090000000 -35.70364 115.98407 -200 45 -200 45 -200 45
24145000000 -27.258314 121.78143 -200 45 -200 45 -200 45
24200000000 -29.0075 161.11578 -200 45 -200 45 -200 45
24255000000 -46.364594 -79.414726 -200 45 -200 45 -200 45
24310000000 -26.628235 149.39815 -200 45 -200 45 -200 45
24365000000 -26.021757 -161.7467 -200 45 -200 45 -200 45
24420000000 -29.44035 161.24022 -200 45 -200 45 -200 45
24475000000 -23.417271 -171.87134 -200 45 -200 45 -200 45
24530000000 -31.117315 -165.07201 -200 45 -200 45 -200 45
24585000000 -22.856226 164.21733 -200 45 -200 45 -200 45
24640000000 -20.777327 -141.27811 -200 45 -200 45 -200 45
24695000000 -36.846992 172.6286 -200 45 -200 45 -200 45
24750000000 -19.890762 -177.12135 -200 45 -200 45 -200 45
24805000000 -24.431353 -137.4286 -200 45 -200 45 -200 45
24860000000 -26.12505 -174.01962 -200 45 -200 45 -200 45
24915000000 -21.575855 -140.56079 -200 45 -200 45 -200 45
24970000000 -26.825922 -152.14917 -200 45 -200 45 -200 45
25025000000 -20.963493 -156.04643 -200 45 -200 45 -200 45
25080000000 -22.243269 -116.7606 -200 45 -200 45 -200 45
25135000000 -27.491991 -168.65009 -200 45 -200 45 -200 45
25190000000 -21.0686 -143.27632 -200 45 -200 45 -200 45
25245000000 -24.422697 -121.80339 -200 45 -200 45 -200 45
25300000000 -24.727364 -135.33601 -200 45 -200 45 -200 45
25355000000 -25.068937 -125.01036 -200 45 -200 45 -200 45
25410000000 -25.023266 -142.70247 -200 45 -200 45 -200 45
25465000000 -24.202978 -104.30399 -200 45 -200 45 -200 45
25520000000 -31.258879 -93.335922 -200 45 -200 45 -200 45
25575000000 -25.063515 -122.68365 -200 45 -200 45 -200 45
25630000000 -29.846878 -92.923401 -200 45 -200 45 -200 45
25685000000 -27.857273 -107.54397 -200 45 -200 45 -200 45
25740000000 -24.94418 -49.524517 -200 45 -200 45 -200 45
25795000000 -42.605736 83.634506 -200 45 -200 45 -200 45
25850000000 -23.781553 -88.365082 -200 45 -200 45 -200 45
25905000000 -22.796108 -6.2875824 -200 45 -200 45 -200 45
25960000000 -43.511997 159.89168 -200 45 -200 45 -200 45
26015000000 -23.031445 -46.160099 -200 45 -200 45 -200 45
26070000000 -26.641253 37.396187 -200 45 -200 45 -200 45
26125000000 -27.584309 -55.991875 -200 45 -200 45 -200 45
26180000000 -20.110615 17.881977 -200 45 -200 45 -200 45
26235000000 -31.885307 99.330757 -200 45 -200 45 -200 45
26290000000 -20.325899 -24.091064 -200 45 -200 45 -200 45
26345000000 -18.57093 41.257732 -200 45 -200 45 -200 45
26400000000 -40.835602 -58.861172 -200 45 -200 45 -200 45
26455000000 -19.797174 6.2529821 -200 45 -200 45 -200 45
26510000000 -22.574759 81.598969 -200 45 -200 45 -200 45
26565000000 -22.048338 8.3336086 -200 45 -200 45 -200 45
26620000000 -18.825268 61.269203 -200 45 -200 45 -200 45
26675000000 -32.845482 56.750256 -200 45 -200 45 -200 45
26730000000 -18.136415 27.460161 -200 45 -200 45 -200 45
26785000000 -19.584633 82.165588 -200 45 -200 45 -200 45
26840000000 -26.913345 18.387842 -200 45 -200 45 -200 45
26895000000 -18.578617 48.542126 -200 45 -200 45 -200 45
26950000000 -22.467733 68.211197 -200 45 -200 45 -200 45
27005000000 -21.123936 37.09454 -200 45 -200 45 -200 45
27060000000 -22.392851 72.539101 -200 45 -200 45 -200 45
27115000000 -24.499586 38.289898 -200 45 -200 45 -200 45
27170000000 -20.022871 54.486061 -200 45 -200 45 -200 45
27225000000 -23.720419 80.798859 -200 45 -200 45 -200 45
27280000000 -25.681732 35.122425 -200 45 -200 45 -200 45
27335000000 -22.514196 46.826706 -200 45 -200 45 -200 45
27390000000 -24.949959 69.629303 -200 45 -200 45 -200 45
27445000000 -28.384724 76.18309 -200 45 -200 45 -200 45
27500000000 -25.143278 37.857178 -200 45 -200 45 -200 45
27555000000 -25.465906 52.859329 -200 45 -200 45 -200 45
27610000000 -31.684374 37.383621 -200 45 -200 45 -200 45
27665000000 -29.987917 46.345211 -200 45 -200 45 -200 45
27720000000 -35.876938 -12.330211 -200 45 -200 45 -200 45
27775000000 -26.557215 17.61157 -200 45 -200 45 -200 45
27830000000 -33.216747 100.27689 -200 45 -200 45 -200 45
27885000000 -25.90596 -75.536713 -200 45 -200 45 -200 45
27940000000 -26.995651 10.795506 -200 45 -200 45 -200 45
27995000000 -34.448776 -121.48784 -200 45 -200 45 -200 45
28050000000 -26.568296 -43.446369 -200 45 -200 45 -200 45
28105000000 -33.058231 -71.105591 -200 45 -200 45 -200 45
28160000000 -25.171333 -66.730995 -200 45 -200 45 -200 45
28215000000 -31.934105 -4.4980178 -200 45 -200 45 -200 45
28270000000 -24.990892 -109.90945 -200 45 -200 45 -200 45
28325000000 -21.940365 -39.272987 -200 45 -200 45 -200 45
28380000000 -33.943623 -37.78635 -200 45 -200 45 -200 45
28435000000 -22.822023 -69.301094 -200 45 -200 45 -200 45
28490000000 -26.45145 -36.108665 -200 45 -200 45 -200 45
28545000000 -23.394878 -68.886162 -200 45 -200 45 -200 45
28600000000 -22.728867 -24.223906 -200 45 -200 45 -200 45
28655000000 -29.249811 -78.01387 -200 45 -200 45 -200 45
28710000000 -18.955219 -54.822098 -200 45 -200 45 -200 45
28765000000 -23.910732 -1.7437932 -200 45 -200 45 -200 45
28820000000 -23.433937 -75.73925 -200 45 -200 45 -200 45
28875000000 -21.242163 -24.512892 -200 45 -200 45 -200 45
28930000000 -29.198259 -42.456081 -200 45 -200 45 -200 45
28985000000 -19.271896 -32.166229 -200 45 -200 45 -200 45
29040000000 -24.924454 19.364689 -200 45 -200 45 -200 45
29095000000 -22.443859 -64.560684 -200 45 -200 45 -200 45
29150000000 -17.373983 -6.1280937 -200 45 -200 45 -200 45
29205000000 -30.069302 27.496548 -200 45 -200 45 -200 45
29260000000 -19.838852 -34.806007 -200 45 -200 45 -200 45
29315000000 -21.002468 22.576828 -200 45 -200 45 -200 45
29370000000 -23.291548 -37.612617 -200 45 -200 45 -200 45
29425000000 -18.397207 9.9545088 -200 45 -200 45 -200 45
29480000000 -30.344606 40.859482 -200 45 -200 45 -200 45
29535000000 -18.933067 -22.583927 -200 45 -200 45 -200 45
29590000000 -18.90003 39.545792 -200 45 -200 45 -200 45
29645000000 -31.019484 1.1482973 -200 45 -200 45 -200 45
29700000000 -18.3494 12.29743 -200 45 -200 45 -200 45
29755000000 -22.953587 43.091789 -200 45 -200 45 -200 45
29810000000 -20.583706 7.3443956 -200 45 -200 45 -200 45
29865000000 -20.200932 49.495296 -200 45 -200 45 -200 45
29920000000 -25.315435 9.1596575 -200 45 -200 45 -200 45
29975000000 -17.990261 26.586227 -200 45 -200 45 -200 45
30030000000 -22.277813 62.577225 -200 45 -200 45 -200 45
30085000000 -21.262539 16.62858 -200 45 -200 45 -200 45
30140000000 -20.455132 40.706871 -200 45 -200 45 -200 45
30195000000 -22.514368 24.19413 -200 45 -200 45 -200 45
30250000000 -19.898218 45.943874 -200 45 -200 45 -200 45
30305000000 -27.750559 38.432121 -200 45 -200 45 -200 45
30360000000 -18.738382 20.116379 -200 45 -200 45 -200 45
30415000000 -21.233263 64.982155 -200 45 -200 45 -200 45
30470000000 -23.598621 1.5711304 -200 45 -200 45 -200 45
30525000000 -20.564974 39.269764 -200 45 -200 45 -200 45
30580000000 -28.134562 -9.7752819 -200 45 -200 45 -200 45
30635000000 -19.200342 24.639351 -200 45 -200 45 -200 45
30690000000 -28.834167 105.31042 -200 45 -200 45 -200 45
30745000000 -19.578693 -24.773722 -200 45 -200 45 -200 45
30800000000 -19.818485 43.548264 -200 45 -200 45 -200 45
30855000000 -26.94746 -97.451828 -200 45 -200 45 -200 45
30910000000 -19.268303 -0.45046768 -200 45 -200 45 -200 45
30965000000 -36.555817 98.676315 -200 45 -200 45 -200 45
31020000000 -18.652901 -35.988422 -200 45 -200 45 -200 45
31075000000 -22.36025 45.174786 -200 45 -200 45 -200 45
31130000000 -20.920048 -92.214676 -200 45 -200 45 -200 45
31185000000 -16.630987 -11.310301 -200 45 -200 45 -200 45
31240000000 -35.206738 161.62778 -200 45 -200 45 -200 45
31295000000 -16.19371 -57.179264 -200 45 -200 45 -200 45
31350000000 -20.628756 10.691699 -200 45 -200 45 -200 45
31405000000 -19.054434 -84.943672 -200 45 -200 45 -200 45
31460000000 -16.931126 -26.389006 -200 45 -200 45 -200 45
31515000000 -28.849964 -96.203239 -200 45 -200 45 -200 45
31570000000 -14.73933 -55.475571 -200 45 -200 45 -200 45
31625000000 -20.171646 -0.16819291 -200 45 -200 45 -200 45
31680000000 -17.399519 -86.866577 -200 45 -200 45 -200 45
31735000000 -14.444109 -38.308098 -200 45 -200 45 -200 45
31790000000 -23.829212 -66.994881 -200 45 -200 45 -200 45
31845000000 -14.865397 -59.126553 -200 45 -200 45 -200 45
31900000000 -20.359646 -28.066858 -200 45 -200 45 -200 45
31955000000 -15.138887 -75.690392 -200 45 -200 45 -200 45
32010000000 -14.398003 -36.418907 -200 45 -200 45 -200 45
32065000000 -22.549118 -80.482567 -200 45 -200 45 -200 45
32120000000 -13.858443 -63.483646 -200 45 -200 45 -200 45
32175000000 -19.169945 -31.200424 -200 45 -200 45 -200 45
32230000000 -15.716549 -74.099846 -200 45 -200 45 -200 45
32285000000 -15.069996 -37.605339 -200 45 -200 45 -200 45
32340000000 -18.598602 -82.678604 -200 45 -200 45 -200 45
32395000000 -13.361665 -57.425861 -200 45 -200 45 -200 45
32450000000 -22.508617 -32.660858 -200 45 -200 45 -200 45
32505000000 -15.710867 -78.074799 -200 45 -200 45 -200 45
32560000000 -14.86404 -34.573463 -200 45 -200 45 -200 45
32615000000 -21.135118 -83.458832 -200 45 -200 45 -200 45
32670000000 -14.468804 -57.763401 -200 45 -200 45 -200 45
32725000000 -23.329626 -44.104431 -200 45 -200 45 -200 45
32780000000 -15.78159 -77.06514 -200 45 -200 45 -200 45
32835000000 -17.57542 -24.574957 -200 45 -200 45 -200 45
32890000000 -22.027502 -103.28372 -200 45 -200 45 -200 45
32945000000 -14.553301 -60.552708 -200 45 -200 45 -200 45
33000000000 -25.649748 -37.565025 -200 45 -200 45 -200 45
