!Keysight Technologies,N5224B,MY57181201,A.12.70.07
!Date: Friday, July 15, 2022 11:57:32
!Correction: S11(Response(S21)) 
!S21(Response(S21)) 
!S12(Response(S21)) 
!S22(Response(S21)) 
!S2P File: Measurements: S11, S21, S12, S22:
# Hz S  dB   R 50
22000000000 -24.676464 -23.149109 -24.676464 -23.149109 -24.676464 -23.149109 -24.676464 -23.149109
22055000000 -24.989975 106.70644 -24.989975 106.70644 -24.989975 106.70644 -24.989975 106.70644
22110000000 -24.896833 -122.65808 -24.896833 -122.65808 -24.896833 -122.65808 -24.896833 -122.65808
22165000000 -24.600307 6.2260647 -24.600307 6.2260647 -24.600307 6.2260647 -24.600307 6.2260647
22220000000 -24.768299 134.69194 -24.768299 134.69194 -24.768299 134.69194 -24.768299 134.69194
22275000000 -24.929676 -96.045509 -24.929676 -96.045509 -24.929676 -96.045509 -24.929676 -96.045509
22330000000 -24.593151 31.334955 -24.593151 31.334955 -24.593151 31.334955 -24.593151 31.334955
22385000000 -24.823778 161.91119 -24.823778 161.91119 -24.823778 161.91119 -24.823778 161.91119
22440000000 -24.207914 -69.428101 -24.207914 -69.428101 -24.207914 -69.428101 -24.207914 -69.428101
22495000000 -24.552769 59.342079 -24.552769 59.342079 -24.552769 59.342079 -24.552769 59.342079
22550000000 -24.559433 -171.32693 -24.559433 -171.32693 -24.559433 -171.32693 -24.559433 -171.32693
22605000000 -24.43655 -40.52763 -24.43655 -40.52763 -24.43655 -40.52763 -24.43655 -40.52763
22660000000 -24.21632 91.831497 -24.21632 91.831497 -24.21632 91.831497 -24.21632 91.831497
22715000000 -24.328772 -139.59109 -24.328772 -139.59109 -24.328772 -139.59109 -24.328772 -139.59109
22770000000 -23.965092 -10.072725 -23.965092 -10.072725 -23.965092 -10.072725 -23.965092 -10.072725
22825000000 -24.39712 118.79385 -24.39712 118.79385 -24.39712 118.79385 -24.39712 118.79385
22880000000 -23.94076 -111.07691 -23.94076 -111.07691 -23.94076 -111.07691 -23.94076 -111.07691
22935000000 -24.236794 17.346968 -24.236794 17.346968 -24.236794 17.346968 -24.236794 17.346968
22990000000 -24.481791 147.12402 -24.481791 147.12402 -24.481791 147.12402 -24.481791 147.12402
23045000000 -24.138107 -83.954559 -24.138107 -83.954559 -24.138107 -83.954559 -24.138107 -83.954559
23100000000 -24.019382 45.452518 -24.019382 45.452518 -24.019382 45.452518 -24.019382 45.452518
23155000000 -24.108124 173.27185 -24.108124 173.27185 -24.108124 173.27185 -24.108124 173.27185
23210000000 -24.305077 -54.560188 -24.305077 -54.560188 -24.305077 -54.560188 -24.305077 -54.560188
23265000000 -24.589499 75.213791 -24.589499 75.213791 -24.589499 75.213791 -24.589499 75.213791
23320000000 -24.329683 -153.75772 -24.329683 -153.75772 -24.329683 -153.75772 -24.329683 -153.75772
23375000000 -24.427465 -25.340363 -24.427465 -25.340363 -24.427465 -25.340363 -24.427465 -25.340363
23430000000 -24.364355 105.77228 -24.364355 105.77228 -24.364355 105.77228 -24.364355 105.77228
23485000000 -24.592175 -125.09807 -24.592175 -125.09807 -24.592175 -125.09807 -24.592175 -125.09807
23540000000 -24.715815 4.9425659 -24.715815 4.9425659 -24.715815 4.9425659 -24.715815 4.9425659
23595000000 -24.843803 135.44476 -24.843803 135.44476 -24.843803 135.44476 -24.843803 135.44476
23650000000 -24.562883 -92.402328 -24.562883 -92.402328 -24.562883 -92.402328 -24.562883 -92.402328
23705000000 -24.539885 36.11834 -24.539885 36.11834 -24.539885 36.11834 -24.539885 36.11834
23760000000 -24.68248 164.64336 -24.68248 164.64336 -24.68248 164.64336 -24.68248 164.64336
23815000000 -24.362511 -64.651779 -24.362511 -64.651779 -24.362511 -64.651779 -24.362511 -64.651779
23870000000 -24.27092 65.164162 -24.27092 65.164162 -24.27092 65.164162 -24.27092 65.164162
23925000000 -24.453928 -163.56798 -24.453928 -163.56798 -24.453928 -163.56798 -24.453928 -163.56798
23980000000 -24.375748 -32.659988 -24.375748 -32.659988 -24.375748 -32.659988 -24.375748 -32.659988
24035000000 -24.345377 98.053513 -24.345377 98.053513 -24.345377 98.053513 -24.345377 98.053513
24090000000 -24.216179 -131.8598 -24.216179 -131.8598 -24.216179 -131.8598 -24.216179 -131.8598
24145000000 -24.403721 -4.3824177 -24.403721 -4.3824177 -24.403721 -4.3824177 -24.403721 -4.3824177
24200000000 -24.550924 126.80161 -24.550924 126.80161 -24.550924 126.80161 -24.550924 126.80161
24255000000 -24.7262 -104.68922 -24.7262 -104.68922 -24.7262 -104.68922 -24.7262 -104.68922
24310000000 -24.567736 28.391689 -24.567736 28.391689 -24.567736 28.391689 -24.567736 28.391689
24365000000 -24.645834 155.56061 -24.645834 155.56061 -24.645834 155.56061 -24.645834 155.56061
24420000000 -24.480572 -72.198578 -24.480572 -72.198578 -24.480572 -72.198578 -24.480572 -72.198578
24475000000 -24.397808 55.747341 -24.397808 55.747341 -24.397808 55.747341 -24.397808 55.747341
24530000000 -24.258743 -172.93579 -24.258743 -172.93579 -24.258743 -172.93579 -24.258743 -172.93579
24585000000 -24.246168 -41.59473 -24.246168 -41.59473 -24.246168 -41.59473 -24.246168 -41.59473
24640000000 -24.068628 87.953835 -24.068628 87.953835 -24.068628 87.953835 -24.068628 87.953835
24695000000 -24.185322 -141.61978 -24.185322 -141.61978 -24.185322 -141.61978 -24.185322 -141.61978
24750000000 -24.439724 -11.747286 -24.439724 -11.747286 -24.439724 -11.747286 -24.439724 -11.747286
24805000000 -24.475439 118.96342 -24.475439 118.96342 -24.475439 118.96342 -24.475439 118.96342
24860000000 -24.445108 -108.15891 -24.445108 -108.15891 -24.445108 -108.15891 -24.445108 -108.15891
24915000000 -24.432743 21.165102 -24.432743 21.165102 -24.432743 21.165102 -24.432743 21.165102
24970000000 -24.331932 151.8625 -24.331932 151.8625 -24.331932 151.8625 -24.331932 151.8625
25025000000 -23.885412 -80.655563 -23.885412 -80.655563 -23.885412 -80.655563 -23.885412 -80.655563
25080000000 -24.179401 48.836765 -24.179401 48.836765 -24.179401 48.836765 -24.179401 48.836765
25135000000 -24.212189 178.82811 -24.212189 178.82811 -24.212189 178.82811 -24.212189 178.82811
25190000000 -24.612196 -49.526443 -24.612196 -49.526443 -24.612196 -49.526443 -24.612196 -49.526443
25245000000 -24.251207 83.49794 -24.251207 83.49794 -24.251207 83.49794 -24.251207 83.49794
25300000000 -23.9688 -146.98714 -23.9688 -146.98714 -23.9688 -146.98714 -23.9688 -146.98714
25355000000 -23.820061 -16.375488 -23.820061 -16.375488 -23.820061 -16.375488 -23.820061 -16.375488
25410000000 -23.909765 112.94978 -23.909765 112.94978 -23.909765 112.94978 -23.909765 112.94978
25465000000 -23.946905 -115.2132 -23.946905 -115.2132 -23.946905 -115.2132 -23.946905 -115.2132
25520000000 -24.132841 12.890496 -24.132841 12.890496 -24.132841 12.890496 -24.132841 12.890496
25575000000 -24.240372 146.0401 -24.240372 146.0401 -24.240372 146.0401 -24.240372 146.0401
25630000000 -24.230694 -85.264977 -24.230694 -85.264977 -24.230694 -85.264977 -24.230694 -85.264977
25685000000 -24.273844 46.862587 -24.273844 46.862587 -24.273844 46.862587 -24.273844 46.862587
25740000000 -23.967804 176.22734 -23.967804 176.22734 -23.967804 176.22734 -23.967804 176.22734
25795000000 -24.409866 -52.467178 -24.409866 -52.467178 -24.409866 -52.467178 -24.409866 -52.467178
25850000000 -23.757648 77.620163 -23.757648 77.620163 -23.757648 77.620163 -23.757648 77.620163
25905000000 -23.884605 -151.73567 -23.884605 -151.73567 -23.884605 -151.73567 -23.884605 -151.73567
25960000000 -23.846498 -21.057632 -23.846498 -21.057632 -23.846498 -21.057632 -23.846498 -21.057632
26015000000 -23.843727 110.45567 -23.843727 110.45567 -23.843727 110.45567 -23.843727 110.45567
26070000000 -23.780216 -120.63905 -23.780216 -120.63905 -23.780216 -120.63905 -23.780216 -120.63905
26125000000 -24.072592 11.442526 -24.072592 11.442526 -24.072592 11.442526 -24.072592 11.442526
26180000000 -24.132969 144.58246 -24.132969 144.58246 -24.132969 144.58246 -24.132969 144.58246
26235000000 -24.195566 -84.93158 -24.195566 -84.93158 -24.195566 -84.93158 -24.195566 -84.93158
26290000000 -23.532068 43.522762 -23.532068 43.522762 -23.532068 43.522762 -23.532068 43.522762
26345000000 -24.254242 172.23817 -24.254242 172.23817 -24.254242 172.23817 -24.254242 172.23817
26400000000 -24.002039 -55.92308 -24.002039 -55.92308 -24.002039 -55.92308 -24.002039 -55.92308
26455000000 -24.480732 72.817131 -24.480732 72.817131 -24.480732 72.817131 -24.480732 72.817131
26510000000 -24.013775 -154.20027 -24.013775 -154.20027 -24.013775 -154.20027 -24.013775 -154.20027
26565000000 -23.890297 -24.563181 -23.890297 -24.563181 -23.890297 -24.563181 -23.890297 -24.563181
26620000000 -23.854431 106.80785 -23.854431 106.80785 -23.854431 106.80785 -23.854431 106.80785
26675000000 -23.936163 -125.89327 -23.936163 -125.89327 -23.936163 -125.89327 -23.936163 -125.89327
26730000000 -24.029673 7.7837963 -24.029673 7.7837963 -24.029673 7.7837963 -24.029673 7.7837963
26785000000 -23.782827 138.27332 -23.782827 138.27332 -23.782827 138.27332 -23.782827 138.27332
26840000000 -23.863842 -91.72097 -23.863842 -91.72097 -23.863842 -91.72097 -23.863842 -91.72097
26895000000 -23.884586 40.120667 -23.884586 40.120667 -23.884586 40.120667 -23.884586 40.120667
26950000000 -23.889477 170.90775 -23.889477 170.90775 -23.889477 170.90775 -23.889477 170.90775
27005000000 -24.147518 -57.900314 -24.147518 -57.900314 -24.147518 -57.900314 -24.147518 -57.900314
27060000000 -23.962046 74.411819 -23.962046 74.411819 -23.962046 74.411819 -23.962046 74.411819
27115000000 -23.922134 -154.85471 -23.922134 -154.85471 -23.922134 -154.85471 -23.922134 -154.85471
27170000000 -23.805059 -25.355635 -23.805059 -25.355635 -23.805059 -25.355635 -23.805059 -25.355635
27225000000 -23.74728 102.74764 -23.74728 102.74764 -23.74728 102.74764 -23.74728 102.74764
27280000000 -23.74247 -127.57317 -23.74247 -127.57317 -23.74247 -127.57317 -23.74247 -127.57317
27335000000 -23.817152 2.8771021 -23.817152 2.8771021 -23.817152 2.8771021 -23.817152 2.8771021
27390000000 -23.723034 135.90657 -23.723034 135.90657 -23.723034 135.90657 -23.723034 135.90657
27445000000 -23.627331 -91.570549 -23.627331 -91.570549 -23.627331 -91.570549 -23.627331 -91.570549
27500000000 -23.263573 37.129566 -23.263573 37.129566 -23.263573 37.129566 -23.263573 37.129566
27555000000 -23.557436 168.13844 -23.557436 168.13844 -23.557436 168.13844 -23.557436 168.13844
27610000000 -23.86524 -62.110531 -23.86524 -62.110531 -23.86524 -62.110531 -23.86524 -62.110531
27665000000 -23.914301 70.192406 -23.914301 70.192406 -23.914301 70.192406 -23.914301 70.192406
27720000000 -23.800205 -159.19394 -23.800205 -159.19394 -23.800205 -159.19394 -23.800205 -159.19394
27775000000 -23.947924 -27.417664 -23.947924 -27.417664 -23.947924 -27.417664 -23.947924 -27.417664
27830000000 -23.792377 101.75389 -23.792377 101.75389 -23.792377 101.75389 -23.792377 101.75389
27885000000 -24.103546 -127.62113 -24.103546 -127.62113 -24.103546 -127.62113 -24.103546 -127.62113
27940000000 -23.866003 3.3719826 -23.866003 3.3719826 -23.866003 3.3719826 -23.866003 3.3719826
27995000000 -24.231804 133.3725 -24.231804 133.3725 -24.231804 133.3725 -24.231804 133.3725
28050000000 -24.025644 -91.736 -24.025644 -91.736 -24.025644 -91.736 -24.025644 -91.736
28105000000 -24.244207 35.824802 -24.244207 35.824802 -24.244207 35.824802 -24.244207 35.824802
28160000000 -23.736368 170.0336 -23.736368 170.0336 -23.736368 170.0336 -23.736368 170.0336
28215000000 -23.738922 -62.79842 -23.738922 -62.79842 -23.738922 -62.79842 -23.738922 -62.79842
28270000000 -23.956984 69.268265 -23.956984 69.268265 -23.956984 69.268265 -23.956984 69.268265
28325000000 -24.17581 -159.50537 -24.17581 -159.50537 -24.17581 -159.50537 -24.17581 -159.50537
28380000000 -24.064806 -24.846182 -24.064806 -24.846182 -24.064806 -24.846182 -24.064806 -24.846182
28435000000 -23.855024 105.94416 -23.855024 105.94416 -23.855024 105.94416 -23.855024 105.94416
28490000000 -23.933813 -125.7731 -23.933813 -125.7731 -23.933813 -125.7731 -23.933813 -125.7731
28545000000 -24.010172 5.6677032 -24.010172 5.6677032 -24.010172 5.6677032 -24.010172 5.6677032
28600000000 -24.144983 135.16934 -24.144983 135.16934 -24.144983 135.16934 -24.144983 135.16934
28655000000 -24.421486 -94.311913 -24.421486 -94.311913 -24.421486 -94.311913 -24.421486 -94.311913
28710000000 -24.116192 37.827389 -24.116192 37.827389 -24.116192 37.827389 -24.116192 37.827389
28765000000 -24.167057 168.5172 -24.167057 168.5172 -24.167057 168.5172 -24.167057 168.5172
28820000000 -24.029253 -58.316845 -24.029253 -58.316845 -24.029253 -58.316845 -24.029253 -58.316845
28875000000 -24.105785 71.055672 -24.105785 71.055672 -24.105785 71.055672 -24.105785 71.055672
28930000000 -24.088717 -154.63295 -24.088717 -154.63295 -24.088717 -154.63295 -24.088717 -154.63295
28985000000 -23.914835 -23.629637 -23.914835 -23.629637 -23.914835 -23.629637 -23.914835 -23.629637
29040000000 -24.206415 107.21964 -24.206415 107.21964 -24.206415 107.21964 -24.206415 107.21964
29095000000 -24.136883 -123.76151 -24.136883 -123.76151 -24.136883 -123.76151 -24.136883 -123.76151
29150000000 -24.033199 7.316678 -24.033199 7.316678 -24.033199 7.316678 -24.033199 7.316678
29205000000 -24.500931 138.28671 -24.500931 138.28671 -24.500931 138.28671 -24.500931 138.28671
29260000000 -24.551544 -89.960564 -24.551544 -89.960564 -24.551544 -89.960564 -24.551544 -89.960564
29315000000 -24.395317 41.591721 -24.395317 41.591721 -24.395317 41.591721 -24.395317 41.591721
29370000000 -23.895136 171.89677 -23.895136 171.89677 -23.895136 171.89677 -23.895136 171.89677
29425000000 -23.77861 -58.079502 -23.77861 -58.079502 -23.77861 -58.079502 -23.77861 -58.079502
29480000000 -24.115467 73.435883 -24.115467 73.435883 -24.115467 73.435883 -24.115467 73.435883
29535000000 -24.178511 -154.1245 -24.178511 -154.1245 -24.178511 -154.1245 -24.178511 -154.1245
29590000000 -24.340866 -22.586798 -24.340866 -22.586798 -24.340866 -22.586798 -24.340866 -22.586798
29645000000 -23.894609 113.10574 -23.894609 113.10574 -23.894609 113.10574 -23.894609 113.10574
29700000000 -23.98089 -116.18276 -23.98089 -116.18276 -23.98089 -116.18276 -23.98089 -116.18276
29755000000 -23.638264 12.525944 -23.638264 12.525944 -23.638264 12.525944 -23.638264 12.525944
29810000000 -23.740129 141.82707 -23.740129 141.82707 -23.740129 141.82707 -23.740129 141.82707
29865000000 -23.778614 -87.751785 -23.778614 -87.751785 -23.778614 -87.751785 -23.778614 -87.751785
29920000000 -23.824448 43.464733 -23.824448 43.464733 -23.824448 43.464733 -23.824448 43.464733
29975000000 -24.260241 174.04979 -24.260241 174.04979 -24.260241 174.04979 -24.260241 174.04979
30030000000 -23.919941 -52.048817 -23.919941 -52.048817 -23.919941 -52.048817 -23.919941 -52.048817
30085000000 -23.532993 81.008293 -23.532993 81.008293 -23.532993 81.008293 -23.532993 81.008293
30140000000 -23.343967 -148.79324 -23.343967 -148.79324 -23.343967 -148.79324 -23.343967 -148.79324
30195000000 -23.541803 -18.723461 -23.541803 -18.723461 -23.541803 -18.723461 -23.541803 -18.723461
30250000000 -23.449055 111.32303 -23.449055 111.32303 -23.449055 111.32303 -23.449055 111.32303
30305000000 -23.652811 -115.75896 -23.652811 -115.75896 -23.652811 -115.75896 -23.652811 -115.75896
30360000000 -23.370499 14.724895 -23.370499 14.724895 -23.370499 14.724895 -23.370499 14.724895
30415000000 -23.804081 144.4761 -23.804081 144.4761 -23.804081 144.4761 -23.804081 144.4761
30470000000 -23.758507 -84.776108 -23.758507 -84.776108 -23.758507 -84.776108 -23.758507 -84.776108
30525000000 -23.882984 46.083126 -23.882984 46.083126 -23.882984 46.083126 -23.882984 46.083126
30580000000 -23.81534 178.04089 -23.81534 178.04089 -23.81534 178.04089 -23.81534 178.04089
30635000000 -23.479277 -50.602951 -23.479277 -50.602951 -23.479277 -50.602951 -23.479277 -50.602951
30690000000 -23.487707 79.058327 -23.487707 79.058327 -23.487707 79.058327 -23.487707 79.058327
30745000000 -23.372311 -151.24855 -23.372311 -151.24855 -23.372311 -151.24855 -23.372311 -151.24855
30800000000 -23.295303 -21.847754 -23.295303 -21.847754 -23.295303 -21.847754 -23.295303 -21.847754
30855000000 -23.892958 110.68285 -23.892958 110.68285 -23.892958 110.68285 -23.892958 110.68285
30910000000 -23.842096 -114.97089 -23.842096 -114.97089 -23.842096 -114.97089 -23.842096 -114.97089
30965000000 -23.700144 17.158768 -23.700144 17.158768 -23.700144 17.158768 -23.700144 17.158768
31020000000 -23.419796 151.81903 -23.419796 151.81903 -23.419796 151.81903 -23.419796 151.81903
31075000000 -23.61039 -81.392944 -23.61039 -81.392944 -23.61039 -81.392944 -23.61039 -81.392944
31130000000 -23.609907 51.370003 -23.609907 51.370003 -23.609907 51.370003 -23.609907 51.370003
31185000000 -23.867018 -177.60204 -23.867018 -177.60204 -23.867018 -177.60204 -23.867018 -177.60204
31240000000 -23.958124 -47.144012 -23.958124 -47.144012 -23.958124 -47.144012 -23.958124 -47.144012
31295000000 -23.689564 85.383209 -23.689564 85.383209 -23.689564 85.383209 -23.689564 85.383209
31350000000 -23.409176 -148.50536 -23.409176 -148.50536 -23.409176 -148.50536 -23.409176 -148.50536
31405000000 -23.45701 -17.887575 -23.45701 -17.887575 -23.45701 -17.887575 -23.45701 -17.887575
31460000000 -23.602983 113.34013 -23.602983 113.34013 -23.602983 113.34013 -23.602983 113.34013
31515000000 -24.006216 -113.7196 -24.006216 -113.7196 -24.006216 -113.7196 -24.006216 -113.7196
31570000000 -23.862703 21.566751 -23.862703 21.566751 -23.862703 21.566751 -23.862703 21.566751
31625000000 -23.253918 153.46181 -23.253918 153.46181 -23.253918 153.46181 -23.253918 153.46181
31680000000 -23.222198 -71.394394 -23.222198 -71.394394 -23.222198 -71.394394 -23.222198 -71.394394
31735000000 -23.215153 55.519951 -23.215153 55.519951 -23.215153 55.519951 -23.215153 55.519951
31790000000 -23.51745 -173.77106 -23.51745 -173.77106 -23.51745 -173.77106 -23.51745 -173.77106
31845000000 -23.554216 -42.351234 -23.554216 -42.351234 -23.554216 -42.351234 -23.554216 -42.351234
31900000000 -23.695377 88.396278 -23.695377 88.396278 -23.695377 88.396278 -23.695377 88.396278
31955000000 -23.784874 -139.39807 -23.784874 -139.39807 -23.784874 -139.39807 -23.784874 -139.39807
32010000000 -23.64942 -14.814101 -23.64942 -14.814101 -23.64942 -14.814101 -23.64942 -14.814101
32065000000 -23.401951 117.60165 -23.401951 117.60165 -23.401951 117.60165 -23.401951 117.60165
32120000000 -23.794287 -109.74551 -23.794287 -109.74551 -23.794287 -109.74551 -23.794287 -109.74551
32175000000 -23.636982 25.662418 -23.636982 25.662418 -23.636982 25.662418 -23.636982 25.662418
32230000000 -22.920925 156.74362 -22.920925 156.74362 -22.920925 156.74362 -22.920925 156.74362
32285000000 -22.723036 -72.709671 -22.723036 -72.709671 -22.723036 -72.709671 -22.723036 -72.709671
32340000000 -22.71636 57.119205 -22.71636 57.119205 -22.71636 57.119205 -22.71636 57.119205
32395000000 -23.435581 -170.23735 -23.435581 -170.23735 -23.435581 -170.23735 -23.435581 -170.23735
32450000000 -23.941208 -38.461929 -23.941208 -38.461929 -23.941208 -38.461929 -23.941208 -38.461929
32505000000 -23.734152 97.861374 -23.734152 97.861374 -23.734152 97.861374 -23.734152 97.861374
32560000000 -23.229805 -131.53767 -23.229805 -131.53767 -23.229805 -131.53767 -23.229805 -131.53767
32615000000 -23.308502 -4.9144454 -23.308502 -4.9144454 -23.308502 -4.9144454 -23.308502 -4.9144454
32670000000 -23.440676 122.75 -23.440676 122.75 -23.440676 122.75 -23.440676 122.75
32725000000 -23.929304 -106.15207 -23.929304 -106.15207 -23.929304 -106.15207 -23.929304 -106.15207
32780000000 -23.764914 28.693672 -23.764914 28.693672 -23.764914 28.693672 -23.764914 28.693672
32835000000 -23.484913 159.48903 -23.484913 159.48903 -23.484913 159.48903 -23.484913 159.48903
32890000000 -22.77573 -67.89711 -22.77573 -67.89711 -22.77573 -67.89711 -22.77573 -67.89711
32945000000 -22.872858 61.927906 -22.872858 61.927906 -22.872858 61.927906 -22.872858 61.927906
33000000000 -22.651903 -169.00047 -22.651903 -169.00047 -22.651903 -169.00047 -22.651903 -169.00047
