!Keysight Technologies,N5224B,MY57181201,A.12.70.07
!Date: Friday, July 15, 2022 11:57:50
!Correction: S11(Response(S12)) 
!S21(Response(S12)) 
!S12(Response(S12)) 
!S22(Response(S12)) 
!S2P File: Measurements: S11, S21, S12, S22:
# Hz S  dB   R 50
22000000000 -24.656967 -22.941942 -24.656967 -22.941942 -24.656967 -22.941942 -24.656967 -22.941942
22055000000 -24.813944 106.12283 -24.813944 106.12283 -24.813944 106.12283 -24.813944 106.12283
22110000000 -25.154131 -124.99741 -25.154131 -124.99741 -25.154131 -124.99741 -25.154131 -124.99741
22165000000 -24.683428 6.5095377 -24.683428 6.5095377 -24.683428 6.5095377 -24.683428 6.5095377
22220000000 -24.750536 134.88951 -24.750536 134.88951 -24.750536 134.88951 -24.750536 134.88951
22275000000 -24.77112 -96.727638 -24.77112 -96.727638 -24.77112 -96.727638 -24.77112 -96.727638
22330000000 -24.934364 33.182629 -24.934364 33.182629 -24.934364 33.182629 -24.934364 33.182629
22385000000 -24.459763 164.09625 -24.459763 164.09625 -24.459763 164.09625 -24.459763 164.09625
22440000000 -24.607613 -68.617592 -24.607613 -68.617592 -24.607613 -68.617592 -24.607613 -68.617592
22495000000 -24.805992 61.385792 -24.805992 61.385792 -24.805992 61.385792 -24.805992 61.385792
22550000000 -24.798861 -168.87593 -24.798861 -168.87593 -24.798861 -168.87593 -24.798861 -168.87593
22605000000 -24.673468 -39.433144 -24.673468 -39.433144 -24.673468 -39.433144 -24.673468 -39.433144
22660000000 -24.672661 91.093842 -24.672661 91.093842 -24.672661 91.093842 -24.672661 91.093842
22715000000 -24.848667 -138.37111 -24.848667 -138.37111 -24.848667 -138.37111 -24.848667 -138.37111
22770000000 -24.329268 -9.5687256 -24.329268 -9.5687256 -24.329268 -9.5687256 -24.329268 -9.5687256
22825000000 -24.5728 119.98404 -24.5728 119.98404 -24.5728 119.98404 -24.5728 119.98404
22880000000 -24.325945 -113.47636 -24.325945 -113.47636 -24.325945 -113.47636 -24.325945 -113.47636
22935000000 -24.577242 20.87458 -24.577242 20.87458 -24.577242 20.87458 -24.577242 20.87458
22990000000 -24.406477 146.95157 -24.406477 146.95157 -24.406477 146.95157 -24.406477 146.95157
23045000000 -24.291862 -83.2631 -24.291862 -83.2631 -24.291862 -83.2631 -24.291862 -83.2631
23100000000 -24.449339 45.338596 -24.449339 45.338596 -24.449339 45.338596 -24.449339 45.338596
23155000000 -24.499182 176.65221 -24.499182 176.65221 -24.499182 176.65221 -24.499182 176.65221
23210000000 -24.392405 -54.357059 -24.392405 -54.357059 -24.392405 -54.357059 -24.392405 -54.357059
23265000000 -24.65921 76.959305 -24.65921 76.959305 -24.65921 76.959305 -24.65921 76.959305
23320000000 -24.284693 -154.82497 -24.284693 -154.82497 -24.284693 -154.82497 -24.284693 -154.82497
23375000000 -24.275166 -25.499397 -24.275166 -25.499397 -24.275166 -25.499397 -24.275166 -25.499397
23430000000 -24.176111 102.31492 -24.176111 102.31492 -24.176111 102.31492 -24.176111 102.31492
23485000000 -24.476088 -125.71948 -24.476088 -125.71948 -24.476088 -125.71948 -24.476088 -125.71948
23540000000 -24.370811 4.9764895 -24.370811 4.9764895 -24.370811 4.9764895 -24.370811 4.9764895
23595000000 -24.40514 135.11884 -24.40514 135.11884 -24.40514 135.11884 -24.40514 135.11884
23650000000 -24.306011 -94.879059 -24.306011 -94.879059 -24.306011 -94.879059 -24.306011 -94.879059
23705000000 -24.544443 36.664745 -24.544443 36.664745 -24.544443 36.664745 -24.544443 36.664745
23760000000 -24.378843 165.57469 -24.378843 165.57469 -24.378843 165.57469 -24.378843 165.57469
23815000000 -24.374237 -65.099442 -24.374237 -65.099442 -24.374237 -65.099442 -24.374237 -65.099442
23870000000 -24.414787 66.401955 -24.414787 66.401955 -24.414787 66.401955 -24.414787 66.401955
23925000000 -24.299543 -163.23727 -24.299543 -163.23727 -24.299543 -163.23727 -24.299543 -163.23727
23980000000 -24.327211 -34.996014 -24.327211 -34.996014 -24.327211 -34.996014 -24.327211 -34.996014
24035000000 -24.564909 94.866936 -24.564909 94.866936 -24.564909 94.866936 -24.564909 94.866936
24090000000 -24.747313 -132.99106 -24.747313 -132.99106 -24.747313 -132.99106 -24.747313 -132.99106
24145000000 -24.394468 -4.1025443 -24.394468 -4.1025443 -24.394468 -4.1025443 -24.394468 -4.1025443
24200000000 -24.429077 125.06351 -24.429077 125.06351 -24.429077 125.06351 -24.429077 125.06351
24255000000 -24.6737 -106.46093 -24.6737 -106.46093 -24.6737 -106.46093 -24.6737 -106.46093
24310000000 -24.641787 26.998674 -24.641787 26.998674 -24.641787 26.998674 -24.641787 26.998674
24365000000 -24.638096 156.339 -24.638096 156.339 -24.638096 156.339 -24.638096 156.339
24420000000 -24.276581 -72.200859 -24.276581 -72.200859 -24.276581 -72.200859 -24.276581 -72.200859
24475000000 -24.277422 56.653866 -24.277422 56.653866 -24.277422 56.653866 -24.277422 56.653866
24530000000 -24.167965 -172.00403 -24.167965 -172.00403 -24.167965 -172.00403 -24.167965 -172.00403
24585000000 -24.255901 -40.671207 -24.255901 -40.671207 -24.255901 -40.671207 -24.255901 -40.671207
24640000000 -24.233427 87.987289 -24.233427 87.987289 -24.233427 87.987289 -24.233427 87.987289
24695000000 -24.26185 -141.40623 -24.26185 -141.40623 -24.26185 -141.40623 -24.26185 -141.40623
24750000000 -24.62339 -12.931908 -24.62339 -12.931908 -24.62339 -12.931908 -24.62339 -12.931908
24805000000 -24.428844 118.90429 -24.428844 118.90429 -24.428844 118.90429 -24.428844 118.90429
24860000000 -24.448854 -109.98286 -24.448854 -109.98286 -24.448854 -109.98286 -24.448854 -109.98286
24915000000 -24.347046 21.981972 -24.347046 21.981972 -24.347046 21.981972 -24.347046 21.981972
24970000000 -24.197657 152.19595 -24.197657 152.19595 -24.197657 152.19595 -24.197657 152.19595
25025000000 -23.937996 -79.894073 -23.937996 -79.894073 -23.937996 -79.894073 -23.937996 -79.894073
25080000000 -24.252102 51.810558 -24.252102 51.810558 -24.252102 51.810558 -24.252102 51.810558
25135000000 -24.364992 -176.85966 -24.364992 -176.85966 -24.364992 -176.85966 -24.364992 -176.85966
25190000000 -24.251911 -48.504505 -24.251911 -48.504505 -24.251911 -48.504505 -24.251911 -48.504505
25245000000 -24.437996 84.202225 -24.437996 84.202225 -24.437996 84.202225 -24.437996 84.202225
25300000000 -23.949656 -145.66135 -23.949656 -145.66135 -23.949656 -145.66135 -23.949656 -145.66135
25355000000 -23.731585 -15.213279 -23.731585 -15.213279 -23.731585 -15.213279 -23.731585 -15.213279
25410000000 -23.817169 112.54857 -23.817169 112.54857 -23.817169 112.54857 -23.817169 112.54857
25465000000 -23.922831 -113.8748 -23.922831 -113.8748 -23.922831 -113.8748 -23.922831 -113.8748
25520000000 -23.836533 14.129622 -23.836533 14.129622 -23.836533 14.129622 -23.836533 14.129622
25575000000 -23.840847 145.60669 -23.840847 145.60669 -23.840847 145.60669 -23.840847 145.60669
25630000000 -24.352869 -86.105621 -24.352869 -86.105621 -24.352869 -86.105621 -24.352869 -86.105621
25685000000 -24.309391 47.575287 -24.309391 47.575287 -24.309391 47.575287 -24.309391 47.575287
25740000000 -24.085432 178.23416 -24.085432 178.23416 -24.085432 178.23416 -24.085432 178.23416
25795000000 -24.218512 -51.601231 -24.218512 -51.601231 -24.218512 -51.601231 -24.218512 -51.601231
25850000000 -23.828926 78.064621 -23.828926 78.064621 -23.828926 78.064621 -23.828926 78.064621
25905000000 -23.887295 -152.65613 -23.887295 -152.65613 -23.887295 -152.65613 -23.887295 -152.65613
25960000000 -24.157028 -20.730537 -24.157028 -20.730537 -24.157028 -20.730537 -24.157028 -20.730537
26015000000 -24.361515 109.24084 -24.361515 109.24084 -24.361515 109.24084 -24.361515 109.24084
26070000000 -23.945984 -118.715 -23.945984 -118.715 -23.945984 -118.715 -23.945984 -118.715
26125000000 -24.050766 10.094749 -24.050766 10.094749 -24.050766 10.094749 -24.050766 10.094749
26180000000 -24.170156 141.04062 -24.170156 141.04062 -24.170156 141.04062 -24.170156 141.04062
26235000000 -24.447887 -88.369095 -24.447887 -88.369095 -24.447887 -88.369095 -24.447887 -88.369095
26290000000 -23.997467 42.339867 -23.997467 42.339867 -23.997467 42.339867 -23.997467 42.339867
26345000000 -23.941593 172.06055 -23.941593 172.06055 -23.941593 172.06055 -23.941593 172.06055
26400000000 -24.073378 -59.824734 -24.073378 -59.824734 -24.073378 -59.824734 -24.073378 -59.824734
26455000000 -24.596052 73.044327 -24.596052 73.044327 -24.596052 73.044327 -24.596052 73.044327
26510000000 -24.235544 -155.0648 -24.235544 -155.0648 -24.235544 -155.0648 -24.235544 -155.0648
26565000000 -23.80691 -24.510126 -23.80691 -24.510126 -23.80691 -24.510126 -23.80691 -24.510126
26620000000 -24.348753 106.52707 -24.348753 106.52707 -24.348753 106.52707 -24.348753 106.52707
26675000000 -24.170517 -122.03264 -24.170517 -122.03264 -24.170517 -122.03264 -24.170517 -122.03264
26730000000 -24.044695 9.6203012 -24.044695 9.6203012 -24.044695 9.6203012 -24.044695 9.6203012
26785000000 -24.165241 138.2056 -24.165241 138.2056 -24.165241 138.2056 -24.165241 138.2056
26840000000 -24.244877 -89.910988 -24.244877 -89.910988 -24.244877 -89.910988 -24.244877 -89.910988
26895000000 -24.207886 42.405884 -24.207886 42.405884 -24.207886 42.405884 -24.207886 42.405884
26950000000 -23.799986 172.23439 -23.799986 172.23439 -23.799986 172.23439 -23.799986 172.23439
27005000000 -24.064276 -57.503651 -24.064276 -57.503651 -24.064276 -57.503651 -24.064276 -57.503651
27060000000 -23.742847 74.500122 -23.742847 74.500122 -23.742847 74.500122 -23.742847 74.500122
27115000000 -23.706814 -154.39641 -23.706814 -154.39641 -23.706814 -154.39641 -23.706814 -154.39641
27170000000 -23.905815 -26.048498 -23.905815 -26.048498 -23.905815 -26.048498 -23.905815 -26.048498
27225000000 -23.730066 104.89449 -23.730066 104.89449 -23.730066 104.89449 -23.730066 104.89449
27280000000 -23.763433 -126.62206 -23.763433 -126.62206 -23.763433 -126.62206 -23.763433 -126.62206
27335000000 -23.785025 4.3856568 -23.785025 4.3856568 -23.785025 4.3856568 -23.785025 4.3856568
27390000000 -23.77203 137.0356 -23.77203 137.0356 -23.77203 137.0356 -23.77203 137.0356
27445000000 -23.608215 -92.268723 -23.608215 -92.268723 -23.608215 -92.268723 -23.608215 -92.268723
27500000000 -23.275036 35.388168 -23.275036 35.388168 -23.275036 35.388168 -23.275036 35.388168
27555000000 -23.813812 167.161 -23.813812 167.161 -23.813812 167.161 -23.813812 167.161
27610000000 -23.93224 -61.579922 -23.93224 -61.579922 -23.93224 -61.579922 -23.93224 -61.579922
27665000000 -23.789614 71.558571 -23.789614 71.558571 -23.789614 71.558571 -23.789614 71.558571
27720000000 -23.40851 -160.25107 -23.40851 -160.25107 -23.40851 -160.25107 -23.40851 -160.25107
27775000000 -23.832771 -28.419792 -23.832771 -28.419792 -23.832771 -28.419792 -23.832771 -28.419792
27830000000 -23.878954 101.98545 -23.878954 101.98545 -23.878954 101.98545 -23.878954 101.98545
27885000000 -23.908697 -122.44625 -23.908697 -122.44625 -23.908697 -122.44625 -23.908697 -122.44625
27940000000 -23.441824 5.2720118 -23.441824 5.2720118 -23.441824 5.2720118 -23.441824 5.2720118
27995000000 -23.584953 134.98593 -23.584953 134.98593 -23.584953 134.98593 -23.584953 134.98593
28050000000 -24.023464 -93.042435 -24.023464 -93.042435 -24.023464 -93.042435 -24.023464 -93.042435
28105000000 -24.126118 38.079983 -24.126118 38.079983 -24.126118 38.079983 -24.126118 38.079983
28160000000 -23.785034 170.17613 -23.785034 170.17613 -23.785034 170.17613 -23.785034 170.17613
28215000000 -23.943386 -60.565865 -23.943386 -60.565865 -23.943386 -60.565865 -23.943386 -60.565865
28270000000 -23.912678 70.435936 -23.912678 70.435936 -23.912678 70.435936 -23.912678 70.435936
28325000000 -24.22167 -159.01016 -24.22167 -159.01016 -24.22167 -159.01016 -24.22167 -159.01016
28380000000 -24.137646 -26.220751 -24.137646 -26.220751 -24.137646 -26.220751 -24.137646 -26.220751
28435000000 -24.323595 104.8876 -24.323595 104.8876 -24.323595 104.8876 -24.323595 104.8876
28490000000 -23.985239 -124.276 -23.985239 -124.276 -23.985239 -124.276 -23.985239 -124.276
28545000000 -24.106911 6.7472024 -24.106911 6.7472024 -24.106911 6.7472024 -24.106911 6.7472024
28600000000 -24.129744 136.13014 -24.129744 136.13014 -24.129744 136.13014 -24.129744 136.13014
28655000000 -24.365717 -92.853661 -24.365717 -92.853661 -24.365717 -92.853661 -24.365717 -92.853661
28710000000 -24.245575 38.523563 -24.245575 38.523563 -24.245575 38.523563 -24.245575 38.523563
28765000000 -24.337523 169.94113 -24.337523 169.94113 -24.337523 169.94113 -24.337523 169.94113
28820000000 -24.338125 -56.860645 -24.338125 -56.860645 -24.338125 -56.860645 -24.338125 -56.860645
28875000000 -24.139812 73.021759 -24.139812 73.021759 -24.139812 73.021759 -24.139812 73.021759
28930000000 -24.202005 -153.79047 -24.202005 -153.79047 -24.202005 -153.79047 -24.202005 -153.79047
28985000000 -24.017216 -24.595705 -24.017216 -24.595705 -24.017216 -24.595705 -24.017216 -24.595705
29040000000 -24.303389 108.20703 -24.303389 108.20703 -24.303389 108.20703 -24.303389 108.20703
29095000000 -24.336609 -125.1455 -24.336609 -125.1455 -24.336609 -125.1455 -24.336609 -125.1455
29150000000 -24.141615 8.3307953 -24.141615 8.3307953 -24.141615 8.3307953 -24.141615 8.3307953
29205000000 -24.490129 139.31683 -24.490129 139.31683 -24.490129 139.31683 -24.490129 139.31683
29260000000 -24.305843 -87.028809 -24.305843 -87.028809 -24.305843 -87.028809 -24.305843 -87.028809
29315000000 -24.288233 42.552135 -24.288233 42.552135 -24.288233 42.552135 -24.288233 42.552135
29370000000 -23.958469 173.47672 -23.958469 173.47672 -23.958469 173.47672 -23.958469 173.47672
29425000000 -24.153166 -56.730183 -24.153166 -56.730183 -24.153166 -56.730183 -24.153166 -56.730183
29480000000 -24.398384 76.36441 -24.398384 76.36441 -24.398384 76.36441 -24.398384 76.36441
29535000000 -24.37007 -152.50893 -24.37007 -152.50893 -24.37007 -152.50893 -24.37007 -152.50893
29590000000 -24.256428 -21.913929 -24.256428 -21.913929 -24.256428 -21.913929 -24.256428 -21.913929
29645000000 -23.940725 110.71809 -23.940725 110.71809 -23.940725 110.71809 -23.940725 110.71809
29700000000 -23.953934 -118.62548 -23.953934 -118.62548 -23.953934 -118.62548 -23.953934 -118.62548
29755000000 -23.791368 11.92131 -23.791368 11.92131 -23.791368 11.92131 -23.791368 11.92131
29810000000 -23.659071 143.11832 -23.659071 143.11832 -23.659071 143.11832 -23.659071 143.11832
29865000000 -23.373634 -88.360115 -23.373634 -88.360115 -23.373634 -88.360115 -23.373634 -88.360115
29920000000 -23.849142 42.494583 -23.849142 42.494583 -23.849142 42.494583 -23.849142 42.494583
29975000000 -24.407351 173.93507 -24.407351 173.93507 -24.407351 173.93507 -24.407351 173.93507
30030000000 -23.960213 -50.804558 -23.960213 -50.804558 -23.960213 -50.804558 -23.960213 -50.804558
30085000000 -23.628759 80.250267 -23.628759 80.250267 -23.628759 80.250267 -23.628759 80.250267
30140000000 -23.319742 -149.94957 -23.319742 -149.94957 -23.319742 -149.94957 -23.319742 -149.94957
30195000000 -23.584614 -20.209547 -23.584614 -20.209547 -23.584614 -20.209547 -23.584614 -20.209547
30250000000 -23.316015 112.10491 -23.316015 112.10491 -23.316015 112.10491 -23.316015 112.10491
30305000000 -23.605373 -118.63139 -23.605373 -118.63139 -23.605373 -118.63139 -23.605373 -118.63139
30360000000 -23.522343 12.429424 -23.522343 12.429424 -23.522343 12.429424 -23.522343 12.429424
30415000000 -24.045858 143.45656 -24.045858 143.45656 -24.045858 143.45656 -24.045858 143.45656
30470000000 -23.661963 -83.345062 -23.661963 -83.345062 -23.661963 -83.345062 -23.661963 -83.345062
30525000000 -23.792101 46.785748 -23.792101 46.785748 -23.792101 46.785748 -23.792101 46.785748
30580000000 -23.246952 178.94681 -23.246952 178.94681 -23.246952 178.94681 -23.246952 178.94681
30635000000 -23.507429 -50.463314 -23.507429 -50.463314 -23.507429 -50.463314 -23.507429 -50.463314
30690000000 -23.413803 79.886818 -23.413803 79.886818 -23.413803 79.886818 -23.413803 79.886818
30745000000 -23.621456 -149.09833 -23.621456 -149.09833 -23.621456 -149.09833 -23.621456 -149.09833
30800000000 -23.694088 -18.184298 -23.694088 -18.184298 -23.694088 -18.184298 -23.694088 -18.184298
30855000000 -23.699505 113.6347 -23.699505 113.6347 -23.699505 113.6347 -23.699505 113.6347
30910000000 -23.933264 -114.95232 -23.933264 -114.95232 -23.933264 -114.95232 -23.933264 -114.95232
30965000000 -23.638842 16.274429 -23.638842 16.274429 -23.638842 16.274429 -23.638842 16.274429
31020000000 -23.779427 149.11111 -23.779427 149.11111 -23.779427 149.11111 -23.779427 149.11111
31075000000 -23.723623 -82.092186 -23.723623 -82.092186 -23.723623 -82.092186 -23.723623 -82.092186
31130000000 -23.405499 53.108372 -23.405499 53.108372 -23.405499 53.108372 -23.405499 53.108372
31185000000 -23.244261 -178.04671 -23.244261 -178.04671 -23.244261 -178.04671 -23.244261 -178.04671
31240000000 -23.274632 -46.550152 -23.274632 -46.550152 -23.274632 -46.550152 -23.274632 -46.550152
31295000000 -23.633314 83.246864 -23.633314 83.246864 -23.633314 83.246864 -23.633314 83.246864
31350000000 -23.55995 -144.48376 -23.55995 -144.48376 -23.55995 -144.48376 -23.55995 -144.48376
31405000000 -23.375927 -12.606487 -23.375927 -12.606487 -23.375927 -12.606487 -23.375927 -12.606487
31460000000 -23.338373 117.98004 -23.338373 117.98004 -23.338373 117.98004 -23.338373 117.98004
31515000000 -23.625004 -111.09864 -23.625004 -111.09864 -23.625004 -111.09864 -23.625004 -111.09864
31570000000 -23.939877 21.187374 -23.939877 21.187374 -23.939877 21.187374 -23.939877 21.187374
31625000000 -23.419641 153.80066 -23.419641 153.80066 -23.419641 153.80066 -23.419641 153.80066
31680000000 -23.280008 -71.609085 -23.280008 -71.609085 -23.280008 -71.609085 -23.280008 -71.609085
31735000000 -23.309401 55.399834 -23.309401 55.399834 -23.309401 55.399834 -23.309401 55.399834
31790000000 -23.274092 -174.30594 -23.274092 -174.30594 -23.274092 -174.30594 -23.274092 -174.30594
31845000000 -23.12332 -41.877747 -23.12332 -41.877747 -23.12332 -41.877747 -23.12332 -41.877747
31900000000 -23.276442 88.390579 -23.276442 88.390579 -23.276442 88.390579 -23.276442 88.390579
31955000000 -23.417553 -140.60866 -23.417553 -140.60866 -23.417553 -140.60866 -23.417553 -140.60866
32010000000 -23.988146 -9.8697701 -23.988146 -9.8697701 -23.988146 -9.8697701 -23.988146 -9.8697701
32065000000 -23.431097 125.2899 -23.431097 125.2899 -23.431097 125.2899 -23.431097 125.2899
32120000000 -23.203417 -100.77378 -23.203417 -100.77378 -23.203417 -100.77378 -23.203417 -100.77378
32175000000 -23.342546 26.577015 -23.342546 26.577015 -23.342546 26.577015 -23.342546 26.577015
32230000000 -23.394917 157.85492 -23.394917 157.85492 -23.394917 157.85492 -23.394917 157.85492
32285000000 -23.41007 -71.960266 -23.41007 -71.960266 -23.41007 -71.960266 -23.41007 -71.960266
32340000000 -23.23053 60.593334 -23.23053 60.593334 -23.23053 60.593334 -23.23053 60.593334
32395000000 -23.432566 -169.53517 -23.432566 -169.53517 -23.432566 -169.53517 -23.432566 -169.53517
32450000000 -23.505293 -39.069798 -23.505293 -39.069798 -23.505293 -39.069798 -23.505293 -39.069798
32505000000 -23.504086 93.934097 -23.504086 93.934097 -23.504086 93.934097 -23.504086 93.934097
32560000000 -23.208748 -134.49797 -23.208748 -134.49797 -23.208748 -134.49797 -23.208748 -134.49797
32615000000 -23.432793 -4.5642676 -23.432793 -4.5642676 -23.432793 -4.5642676 -23.432793 -4.5642676
32670000000 -23.437336 126.51184 -23.437336 126.51184 -23.437336 126.51184 -23.437336 126.51184
32725000000 -23.460655 -99.925385 -23.460655 -99.925385 -23.460655 -99.925385 -23.460655 -99.925385
32780000000 -23.523451 31.913288 -23.523451 31.913288 -23.523451 31.913288 -23.523451 31.913288
32835000000 -23.438475 161.24866 -23.438475 161.24866 -23.438475 161.24866 -23.438475 161.24866
32890000000 -23.571861 -66.398315 -23.571861 -66.398315 -23.571861 -66.398315 -23.571861 -66.398315
32945000000 -23.88673 64.990517 -23.88673 64.990517 -23.88673 64.990517 -23.88673 64.990517
33000000000 -23.001097 -163.02869 -23.001097 -163.02869 -23.001097 -163.02869 -23.001097 -163.02869
