!Keysight Technologies,N5224B,MY57181201,A.12.70.07
!Date: Friday, July 15, 2022 11:58:29
!Correction: S11(Off) 
!S21(Off) 
!S12(Off) 
!S22(Off) 
!S2P File: Measurements: S11, S21, S12, S22:
# Hz S  dB   R 50
22000000000 -200 45 -200 45 -200 45 -17.853922 -27.463717
22055000000 -200 45 -200 45 -200 45 -20.424494 -39.366829
22110000000 -200 45 -200 45 -200 45 -13.807712 -42.722847
22165000000 -200 45 -200 45 -200 45 -21.523483 -32.946026
22220000000 -200 45 -200 45 -200 45 -15.839162 -46.313568
22275000000 -200 45 -200 45 -200 45 -13.752514 -18.372566
22330000000 -200 45 -200 45 -200 45 -19.58099 -51.570316
22385000000 -200 45 -200 45 -200 45 -14.395584 -34.886337
22440000000 -200 45 -200 45 -200 45 -15.483606 -3.4219799
22495000000 -200 45 -200 45 -200 45 -15.505726 -44.348934
22550000000 -200 45 -200 45 -200 45 -14.880373 -18.490849
22605000000 -200 45 -200 45 -200 45 -18.98951 -12.533395
22660000000 -200 45 -200 45 -200 45 -13.252049 -25.124424
22715000000 -200 45 -200 45 -200 45 -15.588591 -4.0633478
22770000000 -200 45 -200 45 -200 45 -19.374063 -26.737993
22825000000 -200 45 -200 45 -200 45 -13.299588 -10.41044
22880000000 -200 45 -200 45 -200 45 -16.300829 0.15137719
22935000000 -200 45 -200 45 -200 45 -17.33341 -25.222
22990000000 -200 45 -200 45 -200 45 -14.630057 4.8632998
23045000000 -200 45 -200 45 -200 45 -16.932636 -3.9578288
23100000000 -200 45 -200 45 -200 45 -15.410728 -17.014421
23155000000 -200 45 -200 45 -200 45 -17.190859 22.031603
23210000000 -200 45 -200 45 -200 45 -18.625807 -9.1738586
23265000000 -200 45 -200 45 -200 45 -14.416056 -5.7388625
23320000000 -200 45 -200 45 -200 45 -21.525574 29.478415
23375000000 -200 45 -200 45 -200 45 -19.050953 -3.92802
23430000000 -200 45 -200 45 -200 45 -15.28331 6.5308914
23485000000 -200 45 -200 45 -200 45 -24.888756 -8.4323997
23540000000 -200 45 -200 45 -200 45 -19.426622 6.2476506
23595000000 -200 45 -200 45 -200 45 -18.834837 28.036264
23650000000 -200 45 -200 45 -200 45 -19.612764 -37.248253
23705000000 -200 45 -200 45 -200 45 -20.642008 17.526651
23760000000 -200 45 -200 45 -200 45 -27.451307 44.281437
23815000000 -200 45 -200 45 -200 45 -19.726465 -25.136986
23870000000 -200 45 -200 45 -200 45 -26.223364 4.1358318
23925000000 -200 45 -200 45 -200 45 -33.283669 -31.562674
23980000000 -200 45 -200 45 -200 45 -23.447174 2.3919942
24035000000 -200 45 -200 45 -200 45 -25.378914 -68.755844
24090000000 -200 45 -200 45 -200 45 -25.185406 -40.470303
24145000000 -200 45 -200 45 -200 45 -42.254517 16.799704
24200000000 -200 45 -200 45 -200 45 -21.864481 -69.727829
24255000000 -200 45 -200 45 -200 45 -26.159563 -76.224846
24310000000 -200 45 -200 45 -200 45 -24.884626 -102.86095
24365000000 -200 45 -200 45 -200 45 -25.109922 -37.538273
24420000000 -200 45 -200 45 -200 45 -20.568413 -106.39617
24475000000 -200 45 -200 45 -200 45 -19.642298 -82.054253
24530000000 -200 45 -200 45 -200 45 -40.252369 -46.964451
24585000000 -200 45 -200 45 -200 45 -17.683723 -89.399902
24640000000 -200 45 -200 45 -200 45 -19.649918 -72.288231
24695000000 -200 45 -200 45 -200 45 -21.994884 -117.27408
24750000000 -200 45 -200 45 -200 45 -17.409458 -67.392204
24805000000 -200 45 -200 45 -200 45 -20.758875 -87.825233
24860000000 -200 45 -200 45 -200 45 -15.627467 -99.660477
24915000000 -200 45 -200 45 -200 45 -19.366205 -48.612232
24970000000 -200 45 -200 45 -200 45 -18.38316 -101.5565
25025000000 -200 45 -200 45 -200 45 -14.737412 -82.829605
25080000000 -200 45 -200 45 -200 45 -22.481762 -74.713188
25135000000 -200 45 -200 45 -200 45 -16.518354 -82.157249
25190000000 -200 45 -200 45 -200 45 -16.687613 -68.959938
25245000000 -200 45 -200 45 -200 45 -17.550631 -98.002609
25300000000 -200 45 -200 45 -200 45 -16.006622 -63.180256
25355000000 -200 45 -200 45 -200 45 -19.442165 -68.693962
25410000000 -200 45 -200 45 -200 45 -15.617391 -87.812317
25465000000 -200 45 -200 45 -200 45 -18.256037 -60.447132
25520000000 -200 45 -200 45 -200 45 -18.084572 -62.503426
25575000000 -200 45 -200 45 -200 45 -16.474575 -64.89959
25630000000 -200 45 -200 45 -200 45 -18.59395 -82.860565
25685000000 -200 45 -200 45 -200 45 -17.745186 -55.04126
25740000000 -200 45 -200 45 -200 45 -19.092003 -49.400978
25795000000 -200 45 -200 45 -200 45 -17.334568 -79.418633
25850000000 -200 45 -200 45 -200 45 -20.463699 -51.545185
25905000000 -200 45 -200 45 -200 45 -19.703665 -54.405716
25960000000 -200 45 -200 45 -200 45 -18.173878 -49.311825
26015000000 -200 45 -200 45 -200 45 -27.195496 -81.205475
26070000000 -200 45 -200 45 -200 45 -18.073462 -54.364922
26125000000 -200 45 -200 45 -200 45 -19.90122 -21.774166
26180000000 -200 45 -200 45 -200 45 -23.162155 -104.80698
26235000000 -200 45 -200 45 -200 45 -19.847589 -27.891855
26290000000 -200 45 -200 45 -200 45 -26.08078 -21.885612
26345000000 -200 45 -200 45 -200 45 -20.550755 -63.422268
26400000000 -200 45 -200 45 -200 45 -25.562452 23.014435
26455000000 -200 45 -200 45 -200 45 -26.512262 -93.402397
26510000000 -200 45 -200 45 -200 45 -19.043819 -39.568653
26565000000 -200 45 -200 45 -200 45 -29.119976 107.69356
26620000000 -200 45 -200 45 -200 45 -24.649469 -97.92408
26675000000 -200 45 -200 45 -200 45 -22.975224 0.30376568
26730000000 -200 45 -200 45 -200 45 -28.429722 -153.30989
26785000000 -200 45 -200 45 -200 45 -31.887966 -54.67971
26840000000 -200 45 -200 45 -200 45 -26.65789 104.64935
26895000000 -200 45 -200 45 -200 45 -24.615412 -92.998093
26950000000 -200 45 -200 45 -200 45 -30.744087 43.619717
27005000000 -200 45 -200 45 -200 45 -22.434855 158.74051
27060000000 -200 45 -200 45 -200 45 -27.234356 -74.595993
27115000000 -200 45 -200 45 -200 45 -34.427792 123.81854
27170000000 -200 45 -200 45 -200 45 -23.734982 -175.9411
27225000000 -200 45 -200 45 -200 45 -36.825481 -177.30498
27280000000 -200 45 -200 45 -200 45 -25.577295 -164.54761
27335000000 -200 45 -200 45 -200 45 -25.678682 -143.02155
27390000000 -200 45 -200 45 -200 45 -26.84247 150.5295
27445000000 -200 45 -200 45 -200 45 -22.264202 -154.9509
27500000000 -200 45 -200 45 -200 45 -23.214954 -125.2196
27555000000 -200 45 -200 45 -200 45 -24.043592 162.6413
27610000000 -200 45 -200 45 -200 45 -21.666496 -151.52364
27665000000 -200 45 -200 45 -200 45 -21.824255 -122.28241
27720000000 -200 45 -200 45 -200 45 -21.236681 -163.15395
27775000000 -200 45 -200 45 -200 45 -22.851007 -145.71288
27830000000 -200 45 -200 45 -200 45 -24.088259 -148.20801
27885000000 -200 45 -200 45 -200 45 -18.123999 -135.27858
27940000000 -200 45 -200 45 -200 45 -23.834904 -122.71671
27995000000 -200 45 -200 45 -200 45 -21.093828 -163.70419
28050000000 -200 45 -200 45 -200 45 -17.278963 -121.70074
28105000000 -200 45 -200 45 -200 45 -22.505571 -129.04431
28160000000 -200 45 -200 45 -200 45 -20.037672 -141.70108
28215000000 -200 45 -200 45 -200 45 -21.639881 -111.13085
28270000000 -200 45 -200 45 -200 45 -18.002441 -138.18976
28325000000 -200 45 -200 45 -200 45 -18.818838 -115.20491
28380000000 -200 45 -200 45 -200 45 -26.597895 -154.70724
28435000000 -200 45 -200 45 -200 45 -17.281818 -124.39264
28490000000 -200 45 -200 45 -200 45 -20.5819 -102.7789
28545000000 -200 45 -200 45 -200 45 -22.531427 -150.35036
28600000000 -200 45 -200 45 -200 45 -20.443283 -95.435783
28655000000 -200 45 -200 45 -200 45 -22.793774 -137.71918
28710000000 -200 45 -200 45 -200 45 -18.587276 -117.00459
28765000000 -200 45 -200 45 -200 45 -26.420097 -41.186771
28820000000 -200 45 -200 45 -200 45 -19.966478 -143.95988
28875000000 -200 45 -200 45 -200 45 -19.494125 -88.421074
28930000000 -200 45 -200 45 -200 45 -37.507973 145.61172
28985000000 -200 45 -200 45 -200 45 -20.53195 -107.93056
29040000000 -200 45 -200 45 -200 45 -31.126543 -63.570465
29095000000 -200 45 -200 45 -200 45 -22.489273 -153.79384
29150000000 -200 45 -200 45 -200 45 -21.540113 -46.534966
29205000000 -200 45 -200 45 -200 45 -26.230505 130.96057
29260000000 -200 45 -200 45 -200 45 -21.299557 -118.12024
29315000000 -200 45 -200 45 -200 45 -23.532183 21.867985
29370000000 -200 45 -200 45 -200 45 -24.805578 163.52905
29425000000 -200 45 -200 45 -200 45 -27.645468 -40.220371
29480000000 -200 45 -200 45 -200 45 -24.186625 118.8317
29535000000 -200 45 -200 45 -200 45 -32.317039 -71.345451
29590000000 -200 45 -200 45 -200 45 -21.621046 56.998112
29645000000 -200 45 -200 45 -200 45 -20.83499 159.71783
29700000000 -200 45 -200 45 -200 45 -23.650711 23.54855
29755000000 -200 45 -200 45 -200 45 -20.433319 94.403076
29810000000 -200 45 -200 45 -200 45 -32.114681 162.77063
29865000000 -200 45 -200 45 -200 45 -19.5875 91.483078
29920000000 -200 45 -200 45 -200 45 -27.458719 105.8176
29975000000 -200 45 -200 45 -200 45 -22.521523 56.150475
30030000000 -200 45 -200 45 -200 45 -17.867657 130.3862
30085000000 -200 45 -200 45 -200 45 -25.159349 81.857903
30140000000 -200 45 -200 45 -200 45 -18.906958 82.766144
30195000000 -200 45 -200 45 -200 45 -23.802155 136.19139
30250000000 -200 45 -200 45 -200 45 -19.436155 97.420288
30305000000 -200 45 -200 45 -200 45 -20.608946 125.08732
30360000000 -200 45 -200 45 -200 45 -21.937914 60.489967
30415000000 -200 45 -200 45 -200 45 -16.633284 117.34023
30470000000 -200 45 -200 45 -200 45 -28.460691 144.16656
30525000000 -200 45 -200 45 -200 45 -18.233528 80.40654
30580000000 -200 45 -200 45 -200 45 -20.712288 147.80133
30635000000 -200 45 -200 45 -200 45 -23.54987 77.762787
30690000000 -200 45 -200 45 -200 45 -17.454464 127.6321
30745000000 -200 45 -200 45 -200 45 -32.322659 -47.048294
30800000000 -200 45 -200 45 -200 45 -16.685219 101.49423
30855000000 -200 45 -200 45 -200 45 -18.997269 173.38988
30910000000 -200 45 -200 45 -200 45 -20.546953 28.283886
30965000000 -200 45 -200 45 -200 45 -18.034851 141.73315
31020000000 -200 45 -200 45 -200 45 -32.384712 -91.719315
31075000000 -200 45 -200 45 -200 45 -19.129309 91.064812
31130000000 -200 45 -200 45 -200 45 -20.442471 -135.54478
31185000000 -200 45 -200 45 -200 45 -21.385756 34.648476
31240000000 -200 45 -200 45 -200 45 -17.726791 151.20345
31295000000 -200 45 -200 45 -200 45 -18.649536 -60.680084
31350000000 -200 45 -200 45 -200 45 -21.69005 87.185646
31405000000 -200 45 -200 45 -200 45 -21.214756 -137.2341
31460000000 -200 45 -200 45 -200 45 -19.603914 1.8785419
31515000000 -200 45 -200 45 -200 45 -21.513006 -161.45634
31570000000 -200 45 -200 45 -200 45 -19.243195 -46.910404
31625000000 -200 45 -200 45 -200 45 -23.200399 78.572235
31680000000 -200 45 -200 45 -200 45 -16.756535 -95.697159
31735000000 -200 45 -200 45 -200 45 -18.517557 -7.143661
31790000000 -200 45 -200 45 -200 45 -24.328459 -153.86751
31845000000 -200 45 -200 45 -200 45 -17.293207 -44.014496
31900000000 -200 45 -200 45 -200 45 -34.021679 -2.9666803
31955000000 -200 45 -200 45 -200 45 -17.531668 -74.842667
32010000000 -200 45 -200 45 -200 45 -19.789467 11.431056
32065000000 -200 45 -200 45 -200 45 -21.424475 -103.37273
32120000000 -200 45 -200 45 -200 45 -15.350895 -31.070694
32175000000 -200 45 -200 45 -200 45 -33.060017 41.659214
32230000000 -200 45 -200 45 -200 45 -17.533171 -57.055069
32285000000 -200 45 -200 45 -200 45 -19.812794 -3.8274746
32340000000 -200 45 -200 45 -200 45 -19.975012 -80.091637
32395000000 -200 45 -200 45 -200 45 -16.914196 -8.8923531
32450000000 -200 45 -200 45 -200 45 -39.687763 -71.655899
32505000000 -200 45 -200 45 -200 45 -15.845961 -52.498764
32560000000 -200 45 -200 45 -200 45 -19.934429 33.540535
32615000000 -200 45 -200 45 -200 45 -22.749945 -69.294403
32670000000 -200 45 -200 45 -200 45 -17.763866 -11.231385
32725000000 -200 45 -200 45 -200 45 -44.067661 -91.923378
32780000000 -200 45 -200 45 -200 45 -17.663099 -22.103186
32835000000 -200 45 -200 45 -200 45 -21.902023 46.919445
32890000000 -200 45 -200 45 -200 45 -21.299255 -73.915619
32945000000 -200 45 -200 45 -200 45 -17.563175 10.302257
33000000000 -200 45 -200 45 -200 45 -33.644638 121.73296
