!CSV A.01.01
!Keysight Technologies,N5224B,MY57181201,A.12.70.07
!Date: Tuesday, July 26, 2022 10:52:26
!Source: Standard

BEGIN CH1_DATA
Freq(Hz),S21(DB),S21(DEG)
22000000000,-0.54496384,12.915959
22055000000,-0.4779532,12.088916
22110000000,-0.52972966,12.657325
22165000000,-0.64098102,14.726083
22220000000,-0.31462771,13.835661
22275000000,-0.46916613,12.654557
22330000000,-0.68688691,12.130002
22385000000,-0.66525781,13.216004
22440000000,-0.6104309,11.95728
22495000000,-0.555022,12.621876
22550000000,-0.86568546,13.256647
22605000000,-0.79870874,14.437246
22660000000,-0.80725366,13.227239
22715000000,-0.61370671,15.092073
22770000000,-0.6141687,12.898272
22825000000,-0.76044136,13.994916
22880000000,-0.72986233,14.124987
22935000000,-0.78222853,14.267203
22990000000,-0.83584225,14.788287
23045000000,-1.0400289,15.679374
23100000000,-0.8186968,16.051731
23155000000,-0.66714823,14.348102
23210000000,-0.74994826,15.002706
23265000000,-0.64420474,15.086073
23320000000,-0.68763089,15.271496
23375000000,-0.77499479,13.913584
23430000000,-1.0504379,14.912373
23485000000,-0.88999635,16.423199
23540000000,-0.81502479,14.817583
23595000000,-1.1317641,15.301126
23650000000,-0.77985215,16.723495
23705000000,-0.61951441,14.115795
23760000000,-0.9801169,14.29495
23815000000,-0.98745644,15.770238
23870000000,-0.94732535,15.62324
23925000000,-0.98500007,15.705446
23980000000,-1.2249426,16.30057
24035000000,-1.0288925,18.688065
24090000000,-0.86098731,15.606049
24145000000,-1.1216425,15.348048
24200000000,-1.0855467,15.909992
24255000000,-0.96872771,16.174063
24310000000,-1.1394976,15.992046
24365000000,-1.2072042,17.821487
24420000000,-1.0701542,18.817085
24475000000,-0.71245819,17.432962
24530000000,-1.1053369,16.034023
24585000000,-1.0423933,17.140467
24640000000,-1.0844778,17.065872
24695000000,-1.1249733,17.618029
24750000000,-1.1435726,18.587162
24805000000,-1.0663081,17.83477
24860000000,-1.0393527,18.26494
24915000000,-0.88325316,17.40276
24970000000,-1.1349081,19.287151
25025000000,-1.0285504,18.320673
25080000000,-0.9731124,19.009884
25135000000,-1.1392368,16.921635
25190000000,-1.1454188,18.791683
25245000000,-1.2817554,19.746157
25300000000,-1.0038017,20.101215
25355000000,-1.0192338,17.795506
25410000000,-1.1909015,18.742622
25465000000,-0.86891717,18.360992
25520000000,-1.0265483,17.600702
25575000000,-1.326104,17.900047
25630000000,-0.98918301,20.625166
25685000000,-1.0172656,19.095215
25740000000,-1.2104845,18.356117
25795000000,-1.2538073,20.842735
25850000000,-0.97716779,19.964386
25905000000,-0.81872231,17.589567
25960000000,-1.3822589,18.518873
26015000000,-1.2592033,20.521215
26070000000,-1.035817,19.74015
26125000000,-1.1769029,19.426159
26180000000,-1.3115695,20.636272
26235000000,-0.86266565,22.050579
26290000000,-0.95402944,19.210436
26345000000,-1.1432208,19.94706
26400000000,-1.3960524,21.460257
26455000000,-0.95067608,21.165241
26510000000,-1.3011463,19.349504
26565000000,-1.283707,21.904261
26620000000,-0.96550614,22.10771
26675000000,-1.0138786,20.306612
26730000000,-1.5388023,21.047844
26785000000,-0.98217154,21.936377
26840000000,-1.1300524,18.418158
26895000000,-1.4391952,20.22015
26950000000,-1.0986588,23.781477
27005000000,-0.99933553,22.217184
27060000000,-1.0794253,23.778389
27115000000,-1.072964,20.882391
27170000000,-1.2525157,19.927071
27225000000,-1.4808258,21.814327
27280000000,-1.1277409,20.435329
27335000000,-1.1973509,20.546976
27390000000,-1.2915696,22.185808
27445000000,-1.2583272,24.172482
27500000000,-0.97045124,23.490963
27555000000,-1.4004918,21.428276
27610000000,-1.355309,22.341095
27665000000,-1.1341696,21.181858
27720000000,-1.7404505,20.091387
27775000000,-1.777432,23.838741
27830000000,-1.1256502,25.302509
27885000000,-0.89472347,24.218843
27940000000,-1.1236768,23.11867
27995000000,-1.1786081,24.059896
28050000000,-1.1947347,22.357235
28105000000,-1.5587767,21.84059
28160000000,-1.5392715,23.949661
28215000000,-1.4693118,25.338671
28270000000,-1.0950727,25.190126
28325000000,-0.93008518,23.6681
28380000000,-1.0341867,24.587503
28435000000,-1.0740852,23.072374
28490000000,-1.3588091,22.917658
28545000000,-1.7050142,23.60253
28600000000,-1.3251327,25.481756
28655000000,-1.0070307,25.472795
28710000000,-1.1224072,24.171459
28765000000,-0.9927997,24.821112
28820000000,-1.0736191,24.85112
28875000000,-1.1553082,22.756876
28930000000,-1.3195282,25.377012
28985000000,-1.1828389,23.953276
29040000000,-1.3643895,24.45682
29095000000,-1.3076243,25.466188
29150000000,-1.1878924,24.532299
29205000000,-1.2366133,25.323559
29260000000,-1.0791687,26.066814
29315000000,-0.89396292,23.969891
29370000000,-1.4792981,24.124111
29425000000,-1.5948173,25.500875
29480000000,-1.3755486,25.85998
29535000000,-1.2792051,26.121626
29590000000,-1.256569,25.79141
29645000000,-0.99763763,28.202467
29700000000,-0.82286406,26.271973
29755000000,-1.1673558,22.792171
29810000000,-1.686524,25.942127
29865000000,-1.3233677,26.440599
29920000000,-1.3251108,26.994101
29975000000,-1.5036244,26.814379
30030000000,-1.0155902,28.851446
30085000000,-1.0597554,25.426884
30140000000,-1.413533,25.042284
30195000000,-1.3958694,26.215681
30250000000,-1.5031878,26.138308
30305000000,-1.6145892,26.917015
30360000000,-1.4194751,28.639977
30415000000,-1.2210689,29.452595
30470000000,-0.93601412,27.49155
30525000000,-1.308561,25.686935
30580000000,-1.4004768,25.621891
30635000000,-1.5614837,26.862667
30690000000,-1.3818599,29.418079
30745000000,-1.4161363,28.498722
30800000000,-1.242676,30.175169
30855000000,-1.2165736,28.173006
30910000000,-1.1204439,29.355228
30965000000,-1.3763812,27.151871
31020000000,-1.4333398,27.44187
31075000000,-1.5020317,28.507566
31130000000,-1.4995104,30.068794
31185000000,-1.4291219,30.616117
31240000000,-1.0738519,30.849636
31295000000,-1.2960459,28.325039
31350000000,-1.1693293,28.589849
31405000000,-1.1851385,28.71998
31460000000,-1.363575,29.32021
31515000000,-1.3183562,30.076263
31570000000,-1.3659538,29.193546
31625000000,-1.1695019,30.577372
31680000000,-1.1381114,29.898746
31735000000,-1.0367523,28.948986
31790000000,-1.383974,28.426544
31845000000,-1.6105983,30.301107
31900000000,-1.0912242,30.764992
31955000000,-1.3987075,29.086555
32010000000,-1.4046351,30.858524
32065000000,-1.2016758,30.577459
32120000000,-1.2596787,29.556746
32175000000,-1.2328995,31.249584
32230000000,-1.1218911,30.090149
32285000000,-1.3307749,30.269712
32340000000,-1.3885132,30.684448
32395000000,-1.3763734,31.745651
32450000000,-1.1710286,30.848707
32505000000,-1.2119451,31.595551
32560000000,-1.0738205,30.251059
32615000000,-1.3313658,31.042948
32670000000,-1.2519447,32.299805
32725000000,-1.1706799,31.190725
32780000000,-1.2307464,31.348963
32835000000,-1.3109602,32.239662
32890000000,-1.2018809,32.432446
32945000000,-1.1243709,31.533884
33000000000,-1.3054558,31.329119
END

