!CSV A.01.01
!Keysight Technologies,N5224B,MY57181201,A.12.70.07
!Date: Wednesday, July 27, 2022 13:20:34
!Source: Standard

BEGIN CH1_DATA
Freq(Hz),S21(DB),S21(DEG)
2000000000,-0.15620768,-13.331306
2005000000,0.0087361969,-13.390049
2010000000,0.0011814859,-14.273997
2015000000,-0.12372773,-14.350745
2020000000,-0.12270701,-13.81071
2025000000,-0.061455678,-14.088084
2030000000,-0.10489615,-14.684854
2035000000,-0.20135395,-14.708282
2040000000,-0.26192257,-14.173434
2045000000,-0.25120926,-13.81732
2050000000,-0.24590886,-13.80271
2055000000,-0.2680856,-13.6658
2060000000,-0.30180022,-13.410539
2065000000,-0.27415949,-12.748246
2070000000,-0.18451844,-12.680931
2075000000,-0.15701857,-13.051723
2080000000,-0.19883904,-13.261393
2085000000,-0.29062617,-12.940616
2090000000,-0.21559481,-11.748091
2095000000,-0.057088975,-11.60422
2100000000,0.076930024,-12.392811
2105000000,0.030794928,-13.333514
2110000000,-0.070063628,-13.337979
2115000000,-0.0071485415,-12.601811
2120000000,0.10565625,-13.002415
2125000000,0.067125663,-13.697726
2130000000,0.048990544,-13.670685
2135000000,0.063051157,-13.884569
2140000000,0.077723041,-14.373679
2145000000,-0.049731888,-14.534214
2150000000,-0.065645136,-14.105115
2155000000,-0.029964438,-13.750555
2160000000,0.010445897,-13.886473
2165000000,0.05238156,-14.135628
2170000000,-0.016141411,-14.93876
2175000000,-0.16099741,-14.518235
2180000000,-0.12551928,-13.557477
2185000000,0.02281856,-13.391615
2190000000,0.043981932,-13.906091
2195000000,0.013173766,-13.963004
2200000000,0.056553319,-13.995055
2205000000,0.050925147,-14.05882
2210000000,0.069814414,-13.671774
2215000000,0.20137022,-13.842965
2220000000,0.19761008,-14.833899
2225000000,0.12309881,-14.920488
2230000000,0.17604278,-14.871076
2235000000,0.19258341,-15.561935
2240000000,0.16702478,-15.950872
2245000000,0.084843144,-16.171858
2250000000,0.04988005,-16.086105
2255000000,0.015689677,-15.911902
2260000000,0.054124881,-15.858245
2265000000,0.045903008,-16.223707
2270000000,-0.0026606275,-16.358089
2275000000,-0.0016271181,-16.159914
2280000000,0.019698819,-16.517752
2285000000,-0.061670113,-16.985926
2290000000,-0.12925053,-16.550783
2295000000,-0.15488057,-16.544317
2300000000,-0.16001491,-16.312887
2305000000,-0.16604713,-16.274729
2310000000,-0.18835166,-16.275803
2315000000,-0.22822013,-16.025671
2320000000,-0.18472518,-15.647141
2325000000,-0.15245587,-15.813274
2330000000,-0.15578626,-16.027773
2335000000,-0.19001171,-16.134796
2340000000,-0.2025978,-15.831236
2345000000,-0.18145099,-15.689515
2350000000,-0.1929421,-15.807988
2355000000,-0.18410003,-15.671118
2360000000,-0.16515739,-15.885542
2365000000,-0.14665379,-15.900715
2370000000,-0.1762903,-16.142864
2375000000,-0.19095854,-16.144068
2380000000,-0.2206994,-16.153925
2385000000,-0.25672406,-15.981075
2390000000,-0.28293309,-15.696021
2395000000,-0.29736686,-15.390336
2400000000,-0.2298197,-14.977277
2405000000,-0.16435355,-15.140648
2410000000,-0.11441056,-15.3342
2415000000,-0.14208512,-15.671552
2420000000,-0.15723398,-15.690185
2425000000,-0.15773316,-15.810045
2430000000,-0.18823457,-15.697412
2435000000,-0.17292325,-15.456127
2440000000,-0.11975607,-15.591341
2445000000,-0.13703509,-15.83343
2450000000,-0.18352652,-15.902957
2455000000,-0.17362911,-15.52141
2460000000,-0.12577958,-15.416982
2465000000,-0.09956605,-15.52142
2470000000,-0.081036843,-15.439296
2475000000,-0.037565839,-15.706932
2480000000,-0.031564977,-15.667773
2485000000,0.010015668,-16.314877
2490000000,-0.048593279,-16.429808
2495000000,-0.046426922,-16.513115
2500000000,-0.077850066,-16.702238
2505000000,-0.11580254,-16.538452
2510000000,-0.15389372,-16.336697
2515000000,-0.11194314,-15.604684
2520000000,0.033026956,-15.518733
2525000000,0.1015325,-16.404131
2530000000,0.07454291,-17.014179
2535000000,0.01010312,-17.272528
2540000000,-0.050297398,-17.301853
2545000000,-0.051040996,-16.924707
2550000000,0.00084740767,-17.018476
2555000000,0.012727223,-17.44894
2560000000,-0.074190162,-17.616913
2565000000,-0.095552005,-17.131481
2570000000,-0.050295297,-17.141888
2575000000,-0.023779225,-17.321812
2580000000,-0.043666609,-17.491354
2585000000,-0.076428816,-17.580521
2590000000,-0.061385341,-17.196354
2595000000,-0.027779374,-17.424524
2600000000,-0.027791495,-17.561136
2605000000,-0.024005704,-17.701344
2610000000,-0.022683049,-17.790958
2615000000,-0.053201687,-18.073677
2620000000,-0.077312209,-18.049379
2625000000,-0.09844254,-18.091969
2630000000,-0.14209205,-17.626312
2635000000,-0.062077358,-17.499212
2640000000,-0.011064327,-17.795057
2645000000,-0.0093633952,-18.341366
2650000000,-0.10850319,-18.619617
2655000000,-0.15480134,-18.193586
2660000000,-0.11412905,-17.884378
2665000000,-0.077802576,-18.12355
2670000000,-0.10571238,-18.471714
2675000000,-0.17272349,-18.381804
2680000000,-0.17212927,-17.939758
2685000000,-0.11958655,-18.036627
2690000000,-0.11087792,-18.218702
2695000000,-0.1353588,-18.616676
2700000000,-0.2303066,-18.331951
2705000000,-0.1986713,-17.476753
2710000000,-0.056131128,-17.596817
2715000000,-0.00148846,-18.251976
2720000000,-0.054553099,-19.118664
2725000000,-0.16099039,-19.220207
2730000000,-0.23917423,-18.854136
2735000000,-0.26004046,-18.50716
2740000000,-0.20221239,-18.080601
2745000000,-0.13324866,-18.15283
2750000000,-0.13767792,-18.374933
2755000000,-0.10963284,-18.648754
2760000000,-0.1420463,-19.168102
2765000000,-0.25149581,-19.282551
2770000000,-0.28681579,-18.721485
2775000000,-0.26633129,-18.336893
2780000000,-0.21252425,-17.88986
2785000000,-0.11473321,-18.362377
2790000000,-0.15089302,-18.948874
2795000000,-0.20708175,-18.864504
2800000000,-0.21028477,-18.676699
2805000000,-0.19652589,-18.6189
2810000000,-0.19899598,-18.649012
2815000000,-0.17464684,-18.542978
2820000000,-0.14673349,-18.828266
2825000000,-0.16351509,-18.932102
2830000000,-0.15793516,-18.924509
2835000000,-0.11449753,-19.282104
2840000000,-0.14564146,-19.827429
2845000000,-0.24474171,-20.014414
2850000000,-0.30508333,-19.563873
2855000000,-0.28834555,-19.497698
2860000000,-0.30787262,-19.34754
2865000000,-0.31791297,-19.317034
2870000000,-0.28682354,-19.453148
2875000000,-0.35810912,-19.287853
2880000000,-0.33836478,-19.028822
2885000000,-0.32740411,-19.178749
2890000000,-0.38802168,-19.034174
2895000000,-0.37746194,-18.819494
2900000000,-0.35183036,-18.560921
2905000000,-0.3432354,-18.568954
2910000000,-0.38197383,-18.226225
2915000000,-0.33425817,-17.804419
2920000000,-0.29459652,-17.417349
2925000000,-0.16356865,-17.285166
2930000000,-0.094042964,-17.756329
2935000000,-0.06594184,-18.052324
2940000000,-0.055402007,-18.352776
2945000000,-0.032753807,-18.48266
2950000000,-0.0094061764,-18.874449
2955000000,-0.057108626,-19.24748
2960000000,-0.071612746,-19.279844
2965000000,-0.10804734,-19.169285
2970000000,-0.070795096,-18.844496
2975000000,0.019328667,-19.109602
2980000000,0.046656523,-19.783304
2985000000,-0.028768927,-20.451105
2990000000,-0.18197231,-20.053127
2995000000,-0.096188277,-19.235075
3000000000,-0.0061436584,-19.6875
END

