!CSV A.01.01
!Keysight Technologies,N5224B,MY57181201,A.12.70.07
!Date: Thursday, July 21, 2022 11:47:19
!Source: Standard

BEGIN CH1_DATA
Freq(Hz),S11(DB),S11(DEG)
22000000000,-13.442793,-48.561394
22055000000,-12.128476,-43.298965
22110000000,-12.216598,-48.757034
22165000000,-11.907106,-48.621761
22220000000,-11.376937,-51.952847
22275000000,-11.0482,-51.945309
22330000000,-10.937821,-53.151051
22385000000,-10.5075,-54.01442
22440000000,-11.776624,-52.850613
22495000000,-11.553262,-46.019344
22550000000,-11.309243,-51.987156
22605000000,-10.989653,-57.946785
22660000000,-11.488341,-57.786564
22715000000,-9.8639517,-56.45237
22770000000,-9.9302273,-60.353622
22825000000,-9.8937855,-57.036369
22880000000,-9.6405954,-58.319893
22935000000,-10.087182,-63.542828
22990000000,-11.189067,-60.573071
23045000000,-10.315681,-61.313576
23100000000,-10.056714,-67.030441
23155000000,-10.331928,-70.405106
23210000000,-10.098408,-61.432457
23265000000,-8.5228214,-64.378746
23320000000,-9.2855396,-71.575447
23375000000,-10.272748,-69.65892
23430000000,-10.066245,-65.796356
23485000000,-9.5922079,-68.122681
23540000000,-9.0207806,-69.288521
23595000000,-10.018748,-73.868889
23650000000,-9.6961832,-68.014145
23705000000,-8.6015358,-75.043335
23760000000,-9.4831476,-76.480362
23815000000,-9.562151,-76.249603
23870000000,-9.3756018,-71.834785
23925000000,-8.8097563,-74.591637
23980000000,-9.2240667,-78.239151
24035000000,-9.2279816,-74.765877
24090000000,-8.243928,-77.224411
24145000000,-8.7426825,-82.944351
24200000000,-8.684227,-77.143623
24255000000,-8.6684322,-83.048882
24310000000,-8.9964638,-80.539894
24365000000,-8.7244892,-82.248634
24420000000,-8.760149,-81.759834
24475000000,-7.8265424,-82.221466
24530000000,-8.0608501,-86.914345
24585000000,-8.2230921,-87.45002
24640000000,-7.7270947,-89.432732
24695000000,-8.1794453,-93.614357
24750000000,-8.6584072,-92.579056
24805000000,-8.5846138,-88.916283
24860000000,-8.2394085,-87.933723
24915000000,-8.3524618,-91.334953
24970000000,-8.4081764,-94.167557
25025000000,-7.7847161,-91.498985
25080000000,-7.6586452,-99.107643
25135000000,-8.1683187,-99.305321
25190000000,-8.336051,-96.894966
25245000000,-8.4404974,-95.348412
25300000000,-8.401823,-97.206635
25355000000,-8.6830158,-95.987381
25410000000,-8.3667583,-96.990105
25465000000,-7.5565281,-94.878738
25520000000,-6.9621634,-101.75791
25575000000,-7.580409,-106.86392
25630000000,-7.9620991,-103.80202
25685000000,-8.0720692,-102.71563
25740000000,-8.1035585,-106.91742
25795000000,-8.3145933,-103.86831
25850000000,-7.2707028,-98.826889
25905000000,-6.9922576,-104.2383
25960000000,-7.5405035,-106.51858
26015000000,-6.9371128,-107.05746
26070000000,-7.8304329,-115.47211
26125000000,-7.9669805,-111.73594
26180000000,-7.6527305,-114.35092
26235000000,-7.652792,-112.55786
26290000000,-7.7346797,-111.40524
26345000000,-7.6395383,-109.52634
26400000000,-7.6332054,-113.49359
26455000000,-7.4807434,-114.32462
26510000000,-7.7405896,-118.303
26565000000,-7.4655757,-118.6157
26620000000,-7.8777528,-123.11749
26675000000,-8.2481203,-114.27985
26730000000,-7.5409508,-119.4587
26785000000,-8.2861938,-117.74875
26840000000,-7.8568807,-115.11097
26895000000,-7.1707864,-118.41468
26950000000,-7.864069,-119.78913
27005000000,-7.4475231,-121.30882
27060000000,-7.6148634,-124.80153
27115000000,-7.8459754,-121.20519
27170000000,-7.4124308,-124.16996
27225000000,-7.7126241,-120.36485
27280000000,-6.8993087,-124.61996
27335000000,-7.6470284,-122.14374
27390000000,-6.7930098,-123.79666
27445000000,-7.3499684,-129.62094
27500000000,-7.9065647,-129.7478
27555000000,-7.4575534,-125.6843
27610000000,-7.2486625,-132.39098
27665000000,-7.6125183,-126.17039
27720000000,-6.957643,-128.11224
27775000000,-7.2035065,-127.34097
27830000000,-6.9446907,-132.55194
27885000000,-7.2331128,-131.97513
27940000000,-7.435544,-135.20033
27995000000,-7.0779414,-133.48055
28050000000,-7.7983131,-134.33482
28105000000,-7.0011625,-132.69833
28160000000,-7.3793459,-134.58226
28215000000,-6.9860721,-135.17195
28270000000,-7.3876691,-137.55811
28325000000,-7.0322661,-139.58499
28380000000,-7.4911871,-136.78912
28435000000,-7.1026068,-137.97174
28490000000,-7.5706601,-139.09567
28545000000,-7.7820387,-141.55309
28600000000,-7.0604444,-136.18555
28655000000,-6.8276286,-142.95906
28710000000,-7.321372,-139.03108
28765000000,-7.1050715,-141.48978
28820000000,-7.2323847,-139.20303
28875000000,-7.0432768,-144.88492
28930000000,-7.1979656,-141.59782
28985000000,-7.2071919,-145.58755
29040000000,-7.0154195,-145.84891
29095000000,-7.0382295,-145.99011
29150000000,-6.8149986,-146.99425
29205000000,-7.2088504,-147.18262
29260000000,-7.1055551,-146.31163
29315000000,-7.2993293,-147.93396
29370000000,-7.305995,-150.17621
29425000000,-6.7907681,-147.88695
29480000000,-7.4047441,-152.79887
29535000000,-7.211452,-150.69463
29590000000,-7.9594278,-148.78127
29645000000,-6.3546495,-152.02695
29700000000,-8.1030512,-152.10419
29755000000,-5.968679,-152.47141
29810000000,-7.204215,-150.45699
29865000000,-7.1382251,-159.07239
29920000000,-7.3279915,-146.79488
29975000000,-6.638391,-168.22652
30030000000,-7.6619277,-149.40895
30085000000,-6.7675614,-163.14197
30140000000,-5.895534,-148.78809
30195000000,-7.302597,-168.04942
30250000000,-6.6321926,-147.2711
30305000000,-6.9431419,-162.07259
30360000000,-7.1960163,-156.0798
30415000000,-7.8049359,14.874407
30470000000,-5.9663353,20.652403
30525000000,-6.6822133,-164.8828
30580000000,-5.930716,21.682909
30635000000,-6.8734226,17.619112
30690000000,-6.6950865,-160.9678
30745000000,-7.9214683,18.076303
30800000000,-7.1363058,-164.0867
30855000000,-6.2715788,11.651546
30910000000,-8.4205551,19.037851
30965000000,-4.0768762,-162.47786
31020000000,-6.0301356,1.0193663
31075000000,-7.9590592,8.0070295
31130000000,-7.7522259,31.609989
31185000000,-4.9283299,-177.25188
31240000000,-11.965364,-0.31769237
31295000000,-4.586482,5.8996081
31350000000,-8.953949,-161.60323
31405000000,-3.9056599,11.731581
31460000000,-7.0443668,-9.3253679
31515000000,-6.3999467,-168.10049
31570000000,-5.1057477,40.610657
31625000000,-4.4422898,-27.119335
31680000000,-15.430058,37.627682
31735000000,-4.9424677,11.435974
31790000000,-5.3315482,6.9039025
31845000000,-7.000083,-28.389175
31900000000,-7.968081,5.4717584
31955000000,-2.4729578,33.63195
32010000000,-0.41738206,-32.647781
32065000000,-17.587276,-58.576305
32120000000,-2.6804562,6.3982921
32175000000,-5.2005363,-176.33614
32230000000,-6.01618,-31.655041
32285000000,1.7205026,60.821518
32340000000,-6.8151574,-71.65255
32395000000,0.53329039,-126.28456
32450000000,-7.605619,-95.17807
32505000000,17.043518,-165.83234
32560000000,9.8921986,72.057091
32615000000,-13.413283,-133.05942
32670000000,7.214499,-144.66003
32725000000,10.67907,-33.745522
32780000000,-17.5751,109.79166
32835000000,-13.985964,-29.394802
32890000000,0.61682481,-8.1234274
32945000000,-7.8900466,-44.147522
33000000000,-3.4957004,-10.895223
END

