!CSV A.01.01
!Keysight Technologies,N5224B,MY57181201,A.12.70.07
!Date: Thursday, July 21, 2022 11:48:58
!Source: Standard

BEGIN CH1_DATA
Freq(Hz),S12(DB),S12(DEG)
22000000000,0.2352429,-163.37543
22055000000,0.051617797,-163.8774
22110000000,-0.15555114,-163.61162
22165000000,-0.041262187,-163.83708
22220000000,0.044337776,-164.7195
22275000000,-0.031527944,-165.3559
22330000000,-0.05364066,-165.84947
22385000000,0.081800036,-165.5107
22440000000,0.15216592,-166.87259
22495000000,0.026679199,-166.84856
22550000000,0.083735056,-167.73189
22605000000,-0.03882429,-168.35478
22660000000,-0.068623275,-166.97495
22715000000,0.061056655,-168.88438
22770000000,-0.23841397,-169.55179
22825000000,0.0039116726,-170.20966
22880000000,0.11383662,-170.00703
22935000000,0.050059371,-170.52113
22990000000,0.0039072498,-171.2995
23045000000,-0.08330828,-170.8748
23100000000,0.047422931,-172.12671
23155000000,0.0046903468,-173.48418
23210000000,-0.079142869,-173.39735
23265000000,-0.17236438,-175.0863
23320000000,-0.23916475,-174.24838
23375000000,-0.18370652,-174.50278
23430000000,-0.2102478,-174.68063
23485000000,-0.035967503,-175.04446
23540000000,-0.016489662,-176.66937
23595000000,-0.30762738,-176.0928
23650000000,-0.20559761,-177.19583
23705000000,-0.35848629,-177.62079
23760000000,-0.3262513,-178.55257
23815000000,-0.35077882,-178.81783
23870000000,-0.25811893,-178.60614
23925000000,-0.23289123,-179.43027
23980000000,-0.15428439,179.35254
24035000000,-0.24033295,-179.86145
24090000000,-0.26662299,177.91498
24145000000,-0.43953508,-179.51747
24200000000,-0.18467641,176.73892
24255000000,-0.7276116,177.93813
24310000000,-0.22311763,178.01588
24365000000,-0.5144577,175.84763
24420000000,-0.62958133,176.21519
24475000000,-0.3060917,176.77786
24530000000,-0.36329851,174.48775
24585000000,-0.66055733,174.74454
24640000000,-0.49300867,175.76064
24695000000,-0.54522628,174.38136
24750000000,-0.52968615,173.80771
24805000000,-0.7763893,172.10258
24860000000,-0.34354013,173.28799
24915000000,-0.70780504,170.75259
24970000000,-0.77351922,172.15666
25025000000,-0.8867963,170.61771
25080000000,-0.77022022,172.0547
25135000000,-0.87839353,170.69844
25190000000,-0.53488106,169.76968
25245000000,-0.78276098,169.35185
25300000000,-0.59487563,169.46132
25355000000,-0.92670965,167.16513
25410000000,-1.031743,167.6432
25465000000,-1.073436,169.47537
25520000000,-0.72250569,166.80649
25575000000,-1.2801256,166.41846
25630000000,-0.9494437,167.61531
25685000000,-0.80857819,166.37569
25740000000,-1.1273979,162.73326
25795000000,-1.4708474,166.88423
25850000000,-1.0881805,166.15033
25905000000,-1.2302233,164.78008
25960000000,-1.3787156,165.43629
26015000000,-1.0735745,165.55432
26070000000,-1.3196474,165.7654
26125000000,-0.96020776,164.11258
26180000000,-1.3391582,164.21864
26235000000,-1.2712466,163.53505
26290000000,-1.1635623,163.98663
26345000000,-1.0448848,161.86215
26400000000,-1.3480201,161.32716
26455000000,-1.3194431,163.46738
26510000000,-1.0649196,161.01683
26565000000,-1.632722,158.6624
26620000000,-1.6653874,162.46083
26675000000,-0.98716068,159.31828
26730000000,-1.7310127,156.8783
26785000000,-1.5069641,159.86444
26840000000,-1.5568058,159.0359
26895000000,-1.3543652,158.82516
26950000000,-1.7600337,157.7765
27005000000,-1.6971022,159.19797
27060000000,-1.5513841,157.93607
27115000000,-1.6000746,157.27708
27170000000,-1.832727,157.40295
27225000000,-1.6388263,157.57915
27280000000,-1.8711722,155.74922
27335000000,-1.4296733,158.19328
27390000000,-1.9388732,154.51689
27445000000,-1.6769735,160.24556
27500000000,-1.4322202,155.77089
27555000000,-1.763141,154.16389
27610000000,-2.1668847,155.37251
27665000000,-1.4774613,155.5862
27720000000,-1.7809677,152.96388
27775000000,-1.8556572,154.21239
27830000000,-1.9909139,156.54494
27885000000,-1.4793432,153.6539
27940000000,-2.0322664,152.96062
27995000000,-1.9080486,154.46429
28050000000,-1.506723,154.59723
28105000000,-1.6980115,150.01089
28160000000,-1.9532287,151.30347
28215000000,-2.1482525,149.51671
28270000000,-1.9091532,153.48146
28325000000,-1.8793035,148.70125
28380000000,-2.3430934,151.85722
28435000000,-1.8461418,151.98628
28490000000,-1.8670493,150.74855
28545000000,-2.2512612,149.34351
28600000000,-1.9728885,149.33359
28655000000,-2.1773212,149.35806
28710000000,-1.9715786,147.75894
28765000000,-2.380348,148.71712
28820000000,-2.2088325,151.1152
28875000000,-2.102205,149.57675
28930000000,-2.455276,148.98476
28985000000,-2.047081,150.03178
29040000000,-2.1037605,146.88696
29095000000,-1.9054554,149.16873
29150000000,-1.8577967,144.65175
29205000000,-2.4139264,148.05846
29260000000,-2.0290265,147.62238
29315000000,-2.3447716,146.46931
29370000000,-2.4573154,147.25542
29425000000,-2.1695166,147.80116
29480000000,-1.8197283,146.15115
29535000000,-2.1984236,144.51625
29590000000,-2.1711605,147.60117
29645000000,-2.3759828,145.37372
29700000000,-2.1517994,146.54828
29755000000,-2.5902286,143.86801
29810000000,-2.1076019,145.53134
29865000000,-2.301295,145.38736
29920000000,-1.8678892,144.66391
29975000000,-2.5194075,143.87585
30030000000,-2.0575194,144.1499
30085000000,-2.5298686,143.73016
30140000000,-1.9631312,140.74803
30195000000,-2.7590787,142.52798
30250000000,-2.1500325,144.8196
30305000000,-2.0447621,143.53551
30360000000,-2.3703213,140.71861
30415000000,-2.7193468,146.15894
30470000000,-1.7490534,140.91891
30525000000,-2.5014973,138.22992
30580000000,-2.3089564,141.92238
30635000000,-1.9868579,140.22971
30690000000,-2.4371197,141.41049
30745000000,-2.2970297,143.15379
30800000000,-2.6343255,143.35379
30855000000,-2.2588639,140.67532
30910000000,-2.0421295,140.78113
30965000000,-2.289717,136.84283
31020000000,-2.1847668,137.63966
31075000000,-2.0966806,143.01028
31130000000,-1.4340651,139.67932
31185000000,-3.0271363,134.22554
31240000000,-2.4828694,147.86763
31295000000,-1.3171382,136.09142
31350000000,-2.2010767,134.71246
31405000000,-2.4159706,140.97847
31460000000,-1.4352316,137.80881
31515000000,-2.2813959,133.06931
31570000000,-2.320873,138.70226
31625000000,-3.1958821,132.15163
31680000000,-1.3267069,141.17097
31735000000,-2.0113003,132.00642
31790000000,-2.4467285,137.18541
31845000000,-2.0405815,136.4884
31900000000,-2.0321875,138.13632
31955000000,-1.2672971,134.5741
32010000000,-3.9066539,113.57697
32065000000,-2.172416,151.31517
32120000000,-0.56824255,131.39995
32175000000,-2.700274,106.29472
32230000000,-2.9523821,149.36928
32285000000,1.7020478,142.11342
32340000000,-6.8433218,147.66473
32395000000,-3.0962214,154.49588
32450000000,2.4479597,118.77863
32505000000,19.456127,65.227005
32560000000,6.8878236,160.89012
32615000000,-2.4611764,175.07797
32670000000,2.2562799,120.81129
32725000000,4.2977133,150.25302
32780000000,0.2243558,134.75966
32835000000,-2.4057221,144.98569
32890000000,-1.6649954,116.88227
32945000000,-5.4230227,128.52145
33000000000,-0.78221434,136.41446
END

