!CSV A.01.01
!Keysight Technologies,N5224B,MY57181201,A.12.70.07
!Date: Thursday, July 21, 2022 11:49:37
!Source: Standard

BEGIN CH1_DATA
Freq(Hz),S12(DB),S12(DEG)
22000000000,0.14675534,-162.92062
22055000000,0.041383885,-163.64525
22110000000,-0.072597444,-163.42332
22165000000,-0.1207948,-164.88634
22220000000,0.080382943,-163.83333
22275000000,0.083833538,-166.24571
22330000000,-0.092355892,-165.38281
22385000000,0.14363194,-165.88887
22440000000,0.15324056,-166.18065
22495000000,0.011798434,-167.31039
22550000000,0.15451999,-166.9032
22605000000,-0.090882979,-169.11433
22660000000,-0.088717289,-166.8259
22715000000,0.13863936,-168.49626
22770000000,-0.28368586,-169.9827
22825000000,-0.040199544,-169.35185
22880000000,0.097673647,-170.64645
22935000000,0.010533716,-170.22664
22990000000,0.024532972,-171.9072
23045000000,-0.082419693,-170.27795
23100000000,0.16258591,-172.58754
23155000000,-0.07850153,-173.34692
23210000000,-0.11980591,-172.80391
23265000000,-0.13682595,-174.9996
23320000000,-0.14919153,-174.28166
23375000000,-0.17474677,-175.09029
23430000000,-0.25484335,-174.58125
23485000000,-0.034513585,-174.58556
23540000000,0.00070894184,-177.19189
23595000000,-0.33213902,-176.38559
23650000000,-0.24181989,-176.69363
23705000000,-0.33511525,-178.48706
23760000000,-0.38047597,-178.1058
23815000000,-0.26367694,-178.27122
23870000000,-0.21158223,-179.07991
23925000000,-0.2643126,-179.45508
23980000000,-0.25226325,179.93332
24035000000,-0.23811324,-179.71445
24090000000,-0.21934961,178.00923
24145000000,-0.43046236,179.83153
24200000000,-0.18187194,176.60141
24255000000,-0.69160873,177.95013
24310000000,-0.18512851,178.64653
24365000000,-0.50318289,175.18742
24420000000,-0.67759961,176.3188
24475000000,-0.28370962,177.79639
24530000000,-0.27906066,174.32735
24585000000,-0.73723644,174.7326
24640000000,-0.57088667,175.33499
24695000000,-0.46571857,174.90347
24750000000,-0.52029592,173.19746
24805000000,-0.6807493,172.513
24860000000,-0.4103027,172.9126
24915000000,-0.62708789,171.31599
24970000000,-0.77805507,171.71356
25025000000,-0.85451108,170.91928
25080000000,-0.7791366,171.85953
25135000000,-0.78522474,170.92737
25190000000,-0.53292638,169.5867
25245000000,-0.74466825,170.17288
25300000000,-0.52296948,169.2399
25355000000,-0.95418692,166.86342
25410000000,-1.0486299,168.18747
25465000000,-1.099562,169.42821
25520000000,-0.60036558,167.23041
25575000000,-1.36956,165.24712
25630000000,-1.0032275,167.80312
25685000000,-0.73423749,165.81993
25740000000,-1.0807723,162.80606
25795000000,-1.4993939,166.48633
25850000000,-1.0787735,166.32185
25905000000,-1.2510313,165.07864
25960000000,-1.3459133,166.1185
26015000000,-1.1169744,165.2072
26070000000,-1.4025078,165.63388
26125000000,-0.99068993,163.95067
26180000000,-1.3005517,163.51505
26235000000,-1.306129,163.45313
26290000000,-1.1278186,164.10403
26345000000,-0.99102354,162.02879
26400000000,-1.4537724,161.49304
26455000000,-1.255293,163.43976
26510000000,-1.1338021,160.64281
26565000000,-1.5910858,158.2343
26620000000,-1.7549559,161.46655
26675000000,-0.85174501,159.99149
26730000000,-1.5808101,156.55161
26785000000,-1.6016616,159.65068
26840000000,-1.5507067,159.72736
26895000000,-1.2656608,159.14795
26950000000,-1.8802764,157.05324
27005000000,-1.7635866,159.87306
27060000000,-1.430384,158.23422
27115000000,-1.6791686,156.10855
27170000000,-1.824048,157.97498
27225000000,-1.5558511,157.80685
27280000000,-1.8692628,155.63806
27335000000,-1.4702613,158.18179
27390000000,-1.8000361,155.44223
27445000000,-1.6677946,159.65086
27500000000,-1.5018207,155.35385
27555000000,-1.796839,154.04498
27610000000,-2.045876,155.88048
27665000000,-1.4305121,155.40105
27720000000,-1.8239024,153.15588
27775000000,-1.8355426,154.0986
27830000000,-1.9718133,156.43436
27885000000,-1.4410104,154.21388
27940000000,-2.1319802,152.35913
27995000000,-2.0052631,154.00218
28050000000,-1.5590819,153.52019
28105000000,-1.7433451,150.29164
28160000000,-1.8421506,150.85718
28215000000,-2.1224687,149.99409
28270000000,-1.8799343,152.92171
28325000000,-1.9150448,149.01054
28380000000,-2.2921178,151.9597
28435000000,-1.8642049,152.30571
28490000000,-1.793607,149.83638
28545000000,-2.3542914,149.64784
28600000000,-1.8663617,149.67244
28655000000,-2.1327624,149.25719
28710000000,-2.0361245,147.45045
28765000000,-2.5038817,149.23518
28820000000,-2.173444,151.08153
28875000000,-2.1862965,148.84337
28930000000,-2.3679976,149.48367
28985000000,-2.0074763,149.73589
29040000000,-2.0918386,146.85234
29095000000,-1.9436594,149.04181
29150000000,-1.8225349,145.19072
29205000000,-2.4153502,147.58699
29260000000,-2.0774848,148.70004
29315000000,-2.3134439,146.48135
29370000000,-2.4582627,147.68723
29425000000,-2.1645939,147.22623
29480000000,-1.7871288,146.57793
29535000000,-2.2637823,143.45316
29590000000,-2.2376068,148.70465
29645000000,-2.2166104,145.03658
29700000000,-2.2093768,146.31676
29755000000,-2.6677883,143.9453
29810000000,-1.9712536,145.32643
29865000000,-2.3065672,145.47713
29920000000,-1.7626054,144.65312
29975000000,-2.5912533,144.17833
30030000000,-1.9707481,143.93338
30085000000,-2.5514622,144.31413
30140000000,-1.8638308,140.64851
30195000000,-2.8034136,142.43773
30250000000,-2.0664091,144.59535
30305000000,-2.1802304,143.55957
30360000000,-2.2858584,140.65947
30415000000,-2.6982677,145.98927
30470000000,-1.7364936,141.0603
30525000000,-2.5479796,138.42905
30580000000,-2.2889671,142.01816
30635000000,-2.0187111,140.09109
30690000000,-2.3474998,141.276
30745000000,-2.2868521,142.51706
30800000000,-2.6200085,144.11548
30855000000,-2.1310613,140.38033
30910000000,-2.0009096,140.62477
30965000000,-2.2686844,136.85976
31020000000,-2.1371946,137.66447
31075000000,-2.1231718,142.45102
31130000000,-1.3811507,139.65594
31185000000,-3.1048095,134.3098
31240000000,-2.3511505,147.53311
31295000000,-1.3921241,136.10983
31350000000,-2.1237872,134.74879
31405000000,-2.4580829,141.74472
31460000000,-1.4040612,136.9361
31515000000,-2.379477,133.77933
31570000000,-2.1569352,138.44591
31625000000,-3.3360519,132.30606
31680000000,-1.1096364,140.81972
31735000000,-2.0628383,131.66573
31790000000,-2.5652933,136.82504
31845000000,-2.0288618,137.33031
31900000000,-1.93792,136.72064
31955000000,-1.3791404,134.7404
32010000000,-3.8573837,114.19222
32065000000,-2.055187,151.69174
32120000000,-0.63633382,130.65016
32175000000,-2.764504,106.29111
32230000000,-2.9142625,149.6965
32285000000,1.84061,141.09563
32340000000,-6.9383936,148.02023
32395000000,-3.072099,155.27365
32450000000,2.5528588,115.57101
32505000000,19.995934,64.253052
32560000000,6.9123077,161.14944
32615000000,-2.3877192,175.01312
32670000000,2.0814734,119.99486
32725000000,4.0716147,149.45688
32780000000,0.2144583,134.9296
32835000000,-2.4657145,145.75133
32890000000,-1.5858632,117.47637
32945000000,-5.3540006,127.54377
33000000000,-0.79428917,136.94302
END

