!CSV A.01.01
!Keysight Technologies,N5224B,MY57181201,A.12.70.07
!Date: Thursday, July 21, 2022 12:11:38
!Source: Standard

BEGIN CH1_DATA
Freq(Hz),S12(DB),S12(DEG)
22000000000,-1.1478686,12.507219
22055000000,-1.4282084,12.977867
22110000000,-1.3224022,14.014209
22165000000,-1.410345,11.612617
22220000000,-1.0764018,12.276733
22275000000,-0.49706611,7.7215161
22330000000,-0.87890309,4.8729463
22385000000,-0.68598181,4.2207603
22440000000,-0.91972518,3.1375952
22495000000,-0.9325754,2.5850835
22550000000,-0.90047514,1.7804852
22605000000,-1.086284,0.99742526
22660000000,-0.72034019,2.5613534
22715000000,-0.53477424,-0.60733026
22770000000,-0.68540865,-3.0906794
22825000000,-0.6402784,-5.2846026
22880000000,-0.49455583,-6.5610132
22935000000,-0.5480448,-8.0289183
22990000000,-0.67174071,-9.2801476
23045000000,-0.86565858,-9.2018499
23100000000,-0.75834328,-9.6557159
23155000000,-0.59984541,-10.981706
23210000000,-0.65396827,-12.946452
23265000000,-0.4606033,-14.860998
23320000000,-0.56663382,-17.373333
23375000000,-0.74473339,-17.414633
23430000000,-0.8398065,-18.523706
23485000000,-0.72174954,-18.979446
23540000000,-0.63867176,-19.875801
23595000000,-0.69206995,-22.264408
23650000000,-0.77588391,-23.102896
23705000000,-0.76849842,-24.808641
23760000000,-0.83879256,-25.840212
23815000000,-0.85301459,-27.397299
23870000000,-0.80778801,-27.366165
23925000000,-0.68022346,-29.395744
23980000000,-0.8184523,-31.230799
24035000000,-0.86826974,-33.700405
24090000000,-0.96113133,-33.442486
24145000000,-1.0429928,-34.163662
24200000000,-0.93514717,-34.814999
24255000000,-0.94483936,-37.848076
24310000000,-0.9179951,-36.504715
24365000000,-1.0013363,-39.971863
24420000000,-1.1406882,-41.109386
24475000000,-1.3867683,-41.459007
24530000000,-1.292912,-42.393791
24585000000,-1.3567998,-42.507488
24640000000,-1.1563894,-44.200237
24695000000,-1.207508,-44.80331
24750000000,-1.0657129,-47.314102
24805000000,-1.4167166,-48.120449
24860000000,-1.2790236,-48.013988
24915000000,-1.5191814,-51.784115
24970000000,-2.086257,-50.597366
25025000000,-1.5268213,-51.084755
25080000000,-1.7505742,-53.279099
25135000000,-1.5353103,-53.183475
25190000000,-1.4632459,-55.49234
25245000000,-1.4310539,-56.570843
25300000000,-1.6510414,-58.008839
25355000000,-1.7345026,-58.284985
25410000000,-1.946081,-60.247097
25465000000,-2.265121,-59.21048
25520000000,-2.1615081,-59.914913
25575000000,-2.2802422,-62.32122
25630000000,-2.0957468,-61.685524
25685000000,-1.748638,-64.993988
25740000000,-2.0885036,-66.562889
25795000000,-2.0651267,-65.874329
25850000000,-2.1345026,-67.60807
25905000000,-2.6440482,-69.177177
25960000000,-2.7488098,-66.542259
26015000000,-2.3684433,-67.419334
26070000000,-2.5606697,-68.547394
26125000000,-2.406599,-70.510796
26180000000,-2.358511,-70.386208
26235000000,-2.5027776,-75.108658
26290000000,-2.8251476,-73.245949
26345000000,-2.636709,-75.416359
26400000000,-3.038893,-74.030602
26455000000,-2.8761287,-75.252609
26510000000,-2.8660886,-76.222351
26565000000,-3.1343973,-77.816505
26620000000,-2.6538589,-75.178215
26675000000,-2.5629106,-83.001434
26730000000,-3.5187826,-79.838524
26785000000,-2.4373951,-77.969025
26840000000,-2.7187996,-83.052635
26895000000,-3.0511439,-81.278786
26950000000,-2.9302669,-80.899406
27005000000,-3.0222433,-84.06488
27060000000,-3.1895499,-83.156586
27115000000,-3.0884049,-86.154854
27170000000,-3.0849576,-84.697906
27225000000,-2.7857709,-89.372284
27280000000,-3.2095778,-87.528648
27335000000,-2.5313444,-88.944786
27390000000,-3.6013894,-89.937408
27445000000,-2.8603225,-87.397514
27500000000,-3.3680341,-93.71656
27555000000,-3.813307,-91.762512
27610000000,-3.1573193,-89.864807
27665000000,-3.1275139,-97.220634
27720000000,-3.7548437,-93.020386
27775000000,-3.1096184,-93.189133
27830000000,-3.0239995,-94.124512
27885000000,-3.5822175,-99.30912
27940000000,-3.7791815,-94.30246
27995000000,-3.3345089,-99.156105
28050000000,-3.498446,-101.59898
28105000000,-4.1376982,-99.099228
28160000000,-3.2778831,-98.524918
28215000000,-3.8100049,-100.26807
28270000000,-3.1566675,-100.82017
28325000000,-3.9265406,-103.77063
28380000000,-3.6063917,-102.52369
28435000000,-3.5938785,-105.58025
28490000000,-4.0632377,-106.64118
28545000000,-4.2824306,-102.67307
28600000000,-3.851114,-104.68849
28655000000,-3.8813772,-104.43786
28710000000,-3.7220438,-107.55468
28765000000,-3.7400219,-106.34793
28820000000,-3.3788466,-108.43987
28875000000,-3.9896431,-110.69705
28930000000,-4.2952514,-107.54463
28985000000,-4.0484085,-109.7921
29040000000,-4.3497076,-111.09437
29095000000,-3.7307541,-111.38477
29150000000,-4.057508,-112.6787
29205000000,-3.2003284,-109.77068
29260000000,-3.4551263,-115.87472
29315000000,-3.722949,-114.56583
29370000000,-4.2866464,-114.29748
29425000000,-4.1035714,-115.69997
29480000000,-4.486197,-116.69154
29535000000,-4.2227402,-116.17324
29590000000,-3.4115152,-116.60966
29645000000,-3.6647701,-118.30151
29700000000,-3.3400302,-118.22145
29755000000,-4.1179671,-120.40853
29810000000,-3.9155605,-121.50314
29865000000,-4.2739291,-120.82343
29920000000,-3.928664,-123.1097
29975000000,-4.1241164,-118.20792
30030000000,-3.6011193,-123.34288
30085000000,-3.9504714,-120.88223
30140000000,-3.9234021,-127.91503
30195000000,-4.2825251,-121.45628
30250000000,-3.5632432,-130.43369
30305000000,-4.3688073,-126.4764
30360000000,-3.7076766,-124.98708
30415000000,-3.1617329,-125.47301
30470000000,-4.2335305,-130.85077
30525000000,-4.4147468,-124.04804
30580000000,-3.8152797,-135.07428
30635000000,-4.6068363,-130.73788
30690000000,-3.8701606,-134.19124
30745000000,-3.6555912,-130.64647
30800000000,-3.1665044,-131.99869
30855000000,-4.2368045,-132.79628
30910000000,-3.2772026,-128.28441
30965000000,-4.2164884,-138.63011
31020000000,-4.6709476,-132.03716
31075000000,-3.4622104,-137.72151
31130000000,-3.6009414,-144.26852
31185000000,-4.8499613,-133.60689
31240000000,-1.8791673,-132.4395
31295000000,-5.034575,-139.91753
31350000000,-2.8499601,-128.29726
31405000000,-3.878242,-146.49452
31460000000,-4.8316293,-134.10184
31515000000,-3.2763824,-143.49815
31570000000,-3.2666175,-158.17036
31625000000,-5.4914112,-134.53053
31680000000,-0.60302168,-137.23392
31735000000,-3.7661734,-144.76541
31790000000,-3.5516558,-143.84436
31845000000,-4.3477206,-135.71658
31900000000,-3.0068989,-147.39125
31955000000,-3.6641841,-158.32472
32010000000,-6.2387476,-144.62042
32065000000,-0.11367858,-129.62779
32120000000,-4.8016415,-153.16473
32175000000,-2.0240381,-140.40521
32230000000,-3.5731046,-157.27788
32285000000,-1.322042,-156.68504
32340000000,-0.088453092,-106.83771
32395000000,-3.5733557,-179.09264
32450000000,0.60545975,164.2151
32505000000,4.2120657,174.09981
32560000000,0.26154068,-167.46042
32615000000,3.3652637,-117.84202
32670000000,-1.2683516,162.86348
32725000000,-7.2565975,-178.89061
32780000000,2.2265646,-158.2518
32835000000,-2.9230163,-174.27452
32890000000,-3.3528352,-169.2482
32945000000,-0.5775075,-155.44669
33000000000,-4.6181045,-161.80719
END

