!CSV A.01.01
!Keysight Technologies,N5224B,MY57181201,A.12.70.07
!Date: Thursday, July 21, 2022 11:48:35
!Source: Standard

BEGIN CH1_DATA
Freq(Hz),S21(DB),S21(DEG)
22000000000,0.13579459,-162.09705
22055000000,0.16409922,-163.42136
22110000000,-0.12559803,-162.56746
22165000000,0.1337008,-163.01735
22220000000,0.087602854,-163.95317
22275000000,0.05258251,-163.85985
22330000000,-0.029178221,-164.67598
22385000000,0.086687908,-164.1524
22440000000,0.15070254,-166.17279
22495000000,-0.020016398,-166.11769
22550000000,0.13310364,-166.60327
22605000000,-0.1288708,-167.98198
22660000000,-0.073528275,-165.79312
22715000000,0.20043415,-167.87868
22770000000,-0.18741889,-169.37726
22825000000,-0.070041813,-168.6936
22880000000,0.12789814,-169.4641
22935000000,0.038722571,-169.09358
22990000000,0.049019083,-171.44626
23045000000,-0.10210059,-169.48717
23100000000,0.075501367,-172.17487
23155000000,0.034141891,-172.19031
23210000000,-0.11251285,-173.14185
23265000000,-0.06420967,-173.3624
23320000000,-0.22813083,-173.32329
23375000000,-0.17883201,-172.88809
23430000000,-0.29247111,-174.06779
23485000000,0.012945317,-173.69452
23540000000,-0.049862031,-176.94873
23595000000,-0.29549271,-174.32664
23650000000,-0.12265746,-176.24098
23705000000,-0.26616502,-176.47237
23760000000,-0.3364453,-177.45793
23815000000,-0.40245664,-177.43117
23870000000,-0.23821464,-177.98213
23925000000,-0.090255126,-177.94432
23980000000,-0.20518541,179.73148
24035000000,-0.3603808,-178.23503
24090000000,-0.29168537,179.28972
24145000000,-0.33435538,-179.21773
24200000000,-0.18286404,177.02457
24255000000,-0.638304,179.45424
24310000000,-0.26007688,179.67546
24365000000,-0.43614355,177.13312
24420000000,-0.6705988,176.68958
24475000000,-0.37180981,178.5049
24530000000,-0.42854822,175.47664
24585000000,-0.52150774,177.06815
24640000000,-0.52497846,175.98386
24695000000,-0.4224599,175.59718
24750000000,-0.61140335,174.88251
24805000000,-0.65919644,173.76364
24860000000,-0.31175861,174.6295
24915000000,-0.61486673,172.51514
24970000000,-0.77217692,173.03279
25025000000,-0.78393281,172.43129
25080000000,-0.72211415,173.38957
25135000000,-0.80924958,172.15286
25190000000,-0.47671846,170.53314
25245000000,-0.83262217,170.34969
25300000000,-0.52850586,170.58392
25355000000,-0.82145292,168.33432
25410000000,-0.95035225,168.38249
25465000000,-1.2118604,171.27985
25520000000,-0.67970699,168.70039
25575000000,-1.2774757,167.06262
25630000000,-0.98208147,168.48511
25685000000,-0.83011997,167.70604
25740000000,-0.98833168,164.98314
25795000000,-1.487238,167.27039
25850000000,-1.0546641,167.65189
25905000000,-1.2117989,165.33984
25960000000,-1.3626472,166.99356
26015000000,-1.0321804,166.43185
26070000000,-1.2142451,167.7843
26125000000,-0.84794396,164.09814
26180000000,-1.4326185,165.61046
26235000000,-1.2969278,164.59616
26290000000,-1.1008272,165.84442
26345000000,-0.93991828,162.36397
26400000000,-1.4200619,162.4223
26455000000,-1.2363608,165.00854
26510000000,-0.87634212,162.15508
26565000000,-1.5746465,158.63431
26620000000,-1.7745664,162.66135
26675000000,-0.86776209,160.70345
26730000000,-1.5814952,158.07962
26785000000,-1.3949726,160.82951
26840000000,-1.4722629,159.49127
26895000000,-1.3214166,160.14552
26950000000,-1.7953117,159.23505
27005000000,-1.6379752,159.94031
27060000000,-1.5482166,158.83917
27115000000,-1.6301745,157.58212
27170000000,-1.7694873,159.28291
27225000000,-1.5219276,158.00449
27280000000,-1.9021903,157.43541
27335000000,-1.4204848,158.64122
27390000000,-2.0039082,156.13553
27445000000,-1.6580814,160.3687
27500000000,-1.5000639,156.85132
27555000000,-1.6891183,154.93933
27610000000,-2.1069586,157.20682
27665000000,-1.427856,156.78398
27720000000,-1.8140601,154.53737
27775000000,-1.8439921,154.58904
27830000000,-2.0179844,158.03931
27885000000,-1.4316674,154.9623
27940000000,-2.0416539,154.53645
27995000000,-1.7524241,154.88194
28050000000,-1.5640632,155.09763
28105000000,-1.692109,151.13144
28160000000,-1.8605925,152.92081
28215000000,-2.0522614,150.43138
28270000000,-1.9470211,154.5313
28325000000,-1.9190714,150.16119
28380000000,-2.231437,153.39627
28435000000,-1.8904198,152.354
28490000000,-1.8931682,152.07755
28545000000,-2.1900046,150.57892
28600000000,-1.9137568,150.90643
28655000000,-2.2370193,149.4334
28710000000,-1.9012238,149.75287
28765000000,-2.4004498,149.34515
28820000000,-2.191582,152.65002
28875000000,-2.2240579,150.51176
28930000000,-2.2085695,151.23566
28985000000,-2.1037941,150.11443
29040000000,-2.0455298,148.92757
29095000000,-1.9618007,150.36642
29150000000,-1.7048689,146.92795
29205000000,-2.5589402,148.24971
29260000000,-1.9763268,150.3192
29315000000,-2.3137684,147.20993
29370000000,-2.2664375,148.96777
29425000000,-2.3126552,148.04642
29480000000,-1.7356001,147.98256
29535000000,-2.2609694,145.53499
29590000000,-2.0499485,149.38702
29645000000,-2.3954694,145.93915
29700000000,-2.1207652,147.20447
29755000000,-2.6718609,144.37881
29810000000,-1.9614338,146.98508
29865000000,-2.2750916,146.27759
29920000000,-1.7318802,145.32764
29975000000,-2.61695,145.84378
30030000000,-1.9320652,145.50542
30085000000,-2.5797391,144.85349
30140000000,-1.8641279,141.2388
30195000000,-2.73878,143.75699
30250000000,-1.9957812,146.31587
30305000000,-2.0602281,144.30699
30360000000,-2.3204992,141.73209
30415000000,-2.6810782,147.66072
30470000000,-1.6413964,142.04439
30525000000,-2.4618428,139.33676
30580000000,-2.2743249,143.17314
30635000000,-1.9422982,141.14766
30690000000,-2.3823018,142.65047
30745000000,-2.3096657,143.76427
30800000000,-2.4526172,144.39066
30855000000,-2.2451057,140.90312
30910000000,-2.0019484,141.89038
30965000000,-2.2976141,137.80917
31020000000,-2.138679,138.96393
31075000000,-2.2301948,143.28038
31130000000,-1.3745751,141.19345
31185000000,-3.1290972,135.24846
31240000000,-2.2747595,148.63377
31295000000,-1.3646497,136.70174
31350000000,-2.0544722,135.41115
31405000000,-2.4632003,141.94434
31460000000,-1.2675716,139.64459
31515000000,-2.314744,134.07434
31570000000,-2.1532984,140.22942
31625000000,-3.3964386,133.4052
31680000000,-1.2263235,141.84477
31735000000,-2.0476382,133.22617
31790000000,-2.2045615,138.25981
31845000000,-2.1196258,138.00188
31900000000,-1.9089615,139.36215
31955000000,-1.237131,136.0325
32010000000,-3.7485919,114.37042
32065000000,-2.075496,152.22011
32120000000,-0.44872835,132.94633
32175000000,-2.8138399,107.12612
32230000000,-2.9290264,150.78275
32285000000,1.6224681,142.34235
32340000000,-6.8321476,148.43094
32395000000,-3.2352517,154.71284
32450000000,6.5335083,119.50082
32505000000,18.274805,69.777184
32560000000,6.9615712,162.31715
32615000000,-2.2691433,177.29477
32670000000,2.3918655,122.69254
32725000000,3.9341118,149.86867
32780000000,0.34482214,135.87621
32835000000,-2.4290819,147.26921
32890000000,-1.3305296,117.86899
32945000000,-5.5075908,129.68864
33000000000,-0.63371938,137.98241
END

