!CSV A.01.01
!Keysight Technologies,N5224B,MY57181201,A.12.70.07
!Date: Thursday, July 21, 2022 12:14:40
!Source: Standard

BEGIN CH1_DATA
Freq(Hz),S21(DB),S21(DEG)
22000000000,-1.2233469,14.810839
22055000000,-1.3785121,14.685269
22110000000,-1.4280528,15.793018
22165000000,-1.3150139,14.496472
22220000000,-0.80588794,13.48032
22275000000,-0.62988091,9.6418695
22330000000,-0.89027363,7.5675082
22385000000,-0.72159207,7.0413046
22440000000,-0.67752576,5.0358424
22495000000,-0.91388118,2.9454651
22550000000,-0.94717771,4.0263715
22605000000,-1.0047607,3.7599444
22660000000,-0.67818958,4.3295155
22715000000,-0.59325826,0.88222402
22770000000,-0.67652792,-0.4452931
22825000000,-0.41012695,-2.8516717
22880000000,-0.51135772,-5.2044864
22935000000,-0.51241416,-5.8358092
22990000000,-0.6637125,-7.7343807
23045000000,-0.83898509,-6.778687
23100000000,-0.58952695,-7.7245207
23155000000,-0.63366443,-9.0597095
23210000000,-0.67460942,-10.684243
23265000000,-0.4810228,-13.567618
23320000000,-0.6046232,-14.808251
23375000000,-0.72342181,-15.412233
23430000000,-0.77472919,-16.139721
23485000000,-0.60374612,-17.233871
23540000000,-0.68541545,-18.405869
23595000000,-0.68409377,-19.776659
23650000000,-0.63290501,-21.444576
23705000000,-0.7107923,-22.797626
23760000000,-0.86680996,-23.854683
23815000000,-0.81075722,-25.320435
23870000000,-0.87586355,-25.123114
23925000000,-0.56344795,-27.540775
23980000000,-0.75658137,-29.455181
24035000000,-0.8095066,-31.372887
24090000000,-0.99210364,-31.354954
24145000000,-1.031276,-32.39785
24200000000,-0.94231117,-32.299145
24255000000,-0.91142762,-35.184418
24310000000,-0.77622503,-33.802925
24365000000,-0.91271883,-37.818043
24420000000,-1.0563762,-39.236065
24475000000,-1.3620727,-39.663372
24530000000,-1.2327541,-39.483128
24585000000,-1.3136802,-40.687298
24640000000,-1.2145296,-41.26046
24695000000,-1.0009261,-42.495617
24750000000,-1.0760268,-46.398098
24805000000,-1.530614,-45.678318
24860000000,-1.1922146,-45.152618
24915000000,-1.4217148,-49.269638
24970000000,-2.1659498,-48.738354
25025000000,-1.4565538,-47.722851
25080000000,-1.4770191,-51.341888
25135000000,-1.5710444,-52.598858
25190000000,-1.4324831,-52.316189
25245000000,-1.3022279,-53.76659
25300000000,-1.61019,-55.43137
25355000000,-1.6556317,-56.15126
25410000000,-1.943218,-57.360176
25465000000,-2.2283213,-57.375927
25520000000,-1.9941876,-57.566303
25575000000,-2.1324785,-60.197552
25630000000,-2.1044657,-59.281769
25685000000,-1.5780272,-61.661037
25740000000,-1.988528,-64.849548
25795000000,-2.1723511,-62.465599
25850000000,-1.9076633,-64.479401
25905000000,-2.5297515,-66.543182
25960000000,-2.6563287,-64.852562
26015000000,-2.4200125,-65.787201
26070000000,-2.4522088,-63.721199
26125000000,-1.9103303,-69.35247
26180000000,-2.5853059,-69.149147
26235000000,-2.5086284,-71.491402
26290000000,-2.592391,-70.220787
26345000000,-2.3973262,-73.279099
26400000000,-3.0868864,-71.742378
26455000000,-2.7950118,-70.389557
26510000000,-2.5841839,-74.606033
26565000000,-3.2533922,-77.00383
26620000000,-2.7344248,-73.162231
26675000000,-2.3138034,-80.815598
26730000000,-3.3078556,-78.382057
26785000000,-2.3707614,-76.072113
26840000000,-2.6110101,-81.027756
26895000000,-3.0154963,-79.282524
26950000000,-2.8861094,-78.584221
27005000000,-3.0479381,-82.216721
27060000000,-3.0915134,-80.399734
27115000000,-2.9678602,-85.201096
27170000000,-3.0627267,-83.785103
27225000000,-2.7887685,-85.809288
27280000000,-2.9751155,-84.27137
27335000000,-2.5125661,-88.185699
27390000000,-3.6741526,-88.267349
27445000000,-2.9310744,-83.98922
27500000000,-3.2163339,-91.541588
27555000000,-3.7104387,-90.293091
27610000000,-3.1562452,-86.790474
27665000000,-2.8194706,-94.541618
27720000000,-3.7109592,-90.314972
27775000000,-2.9848521,-91.328056
27830000000,-2.9770389,-92.574364
27885000000,-3.4855101,-96.620995
27940000000,-3.7050221,-92.040405
27995000000,-3.3389101,-96.642235
28050000000,-3.5195706,-99.425377
28105000000,-4.0071726,-96.422531
28160000000,-3.3214886,-97.069351
28215000000,-3.920872,-97.372429
28270000000,-2.9156637,-97.119659
28325000000,-3.7398596,-102.05072
28380000000,-3.6809604,-101.28134
28435000000,-3.7114825,-101.71996
28490000000,-3.9300311,-102.66349
28545000000,-3.9805064,-100.9631
28600000000,-3.9483414,-103.41671
28655000000,-3.9560008,-101.25169
28710000000,-3.4134927,-104.83697
28765000000,-3.8086305,-104.74656
28820000000,-3.3571308,-106.04697
28875000000,-3.8763866,-108.00283
28930000000,-4.1840615,-105.28238
28985000000,-4.007844,-107.69674
29040000000,-4.1628723,-108.31655
29095000000,-3.579685,-108.3836
29150000000,-4.0808687,-110.76584
29205000000,-3.2640815,-107.44189
29260000000,-3.3037581,-113.4715
29315000000,-3.722542,-112.02617
29370000000,-4.1435151,-111.88637
29425000000,-3.9746089,-114.56237
29480000000,-4.4727869,-114.31871
29535000000,-4.1019258,-113.00946
29590000000,-3.2997041,-114.31741
29645000000,-3.6531267,-116.61489
29700000000,-3.3560259,-115.16487
29755000000,-3.8681936,-117.99641
29810000000,-3.8203945,-119.66056
29865000000,-4.0668259,-118.01182
29920000000,-3.7872016,-120.13396
29975000000,-3.9970171,-116.29011
30030000000,-3.5849655,-120.66879
30085000000,-3.958627,-118.52084
30140000000,-3.7555285,-126.18212
30195000000,-4.2853041,-119.15285
30250000000,-3.3542264,-128.36166
30305000000,-4.3098092,-123.9497
30360000000,-3.4786625,-121.8294
30415000000,-3.0024147,-123.79018
30470000000,-4.3410444,-128.86755
30525000000,-4.2535634,-120.64314
30580000000,-3.684597,-133.14549
30635000000,-4.6120653,-128.87051
30690000000,-3.7791042,-131.76199
30745000000,-3.4874728,-128.66139
30800000000,-3.101964,-129.71616
30855000000,-4.0624452,-129.75241
30910000000,-3.141448,-125.78347
30965000000,-4.0562181,-136.853
31020000000,-4.7264247,-130.44678
31075000000,-3.6192374,-134.56204
31130000000,-3.3931482,-141.50838
31185000000,-4.6899018,-131.61232
31240000000,-1.8832495,-129.83815
31295000000,-4.9147892,-138.71336
31350000000,-2.7674942,-125.70649
31405000000,-3.6111259,-143.90179
31460000000,-4.8429885,-132.99069
31515000000,-3.1892228,-140.04076
31570000000,-3.0790255,-155.16516
31625000000,-5.4781117,-132.58463
31680000000,-0.62304091,-134.23531
31735000000,-3.7431467,-141.67427
31790000000,-3.3433154,-141.47742
31845000000,-4.2759128,-134.75755
31900000000,-2.9310114,-144.1008
31955000000,-3.3611403,-155.43607
32010000000,-6.1047907,-142.58176
32065000000,-0.18783277,-127.32523
32120000000,-4.6812005,-150.56255
32175000000,-1.8187371,-138.52222
32230000000,-3.5988319,-155.39183
32285000000,-1.1633675,-152.85051
32340000000,0.062623627,-105.18635
32395000000,-3.2239184,-177.77763
32450000000,-1.7549738,173.1498
32505000000,4.5927005,176.53105
32560000000,0.72452962,-164.28992
32615000000,3.2206342,-116.7328
32670000000,-1.0873516,166.08565
32725000000,-7.2119436,-176.25284
32780000000,2.4109418,-155.04245
32835000000,-2.7935166,-172.88437
32890000000,-3.2489963,-166.72169
32945000000,-0.52982169,-153.44435
33000000000,-4.3106494,-159.65546
END

