!CSV A.01.01
!Keysight Technologies,N5224B,MY57181201,A.12.70.07
!Date: Thursday, July 21, 2022 12:12:42
!Source: Standard

BEGIN CH1_DATA
Freq(Hz),S22(DB),S22(DEG)
22000000000,-6.6918569,-67.797279
22055000000,-8.2095041,-73.142776
22110000000,-10.74157,-67.494667
22165000000,-7.2239223,-63.794117
22220000000,-7.5521417,-83.061081
22275000000,-8.9142981,-74.115288
22330000000,-7.9062281,-66.733711
22385000000,-8.1511393,-59.614815
22440000000,-8.1425133,-56.534565
22495000000,-9.3780355,-50.125286
22550000000,-10.221575,-47.636208
22605000000,-10.367523,-61.691616
22660000000,-12.553232,-81.102791
22715000000,-12.098293,-67.675644
22770000000,-10.716756,-59.493877
22825000000,-9.2514048,-57.636593
22880000000,-9.9176626,-55.313278
22935000000,-11.698286,-34.427639
22990000000,-9.6064234,-30.696903
23045000000,-15.419422,-54.506409
23100000000,-19.74206,-24.012062
23155000000,-20.853416,-69.893394
23210000000,-16.290894,-60.127876
23265000000,-14.9686,-74.922058
23320000000,-13.972856,-48.789455
23375000000,-12.512121,-34.809139
23430000000,-15.595168,-39.87484
23485000000,-18.380056,18.8447
23540000000,-20.319838,-0.28005752
23595000000,-20.809505,92.749397
23650000000,-23.034437,47.684631
23705000000,-26.666172,177.02388
23760000000,-28.070303,73.80265
23815000000,-24.454468,-0.2480929
23870000000,-21.751612,-0.41298476
23925000000,-23.273174,45.231205
23980000000,-16.417622,85.529976
24035000000,-11.569759,83.102364
24090000000,-18.377876,99.059113
24145000000,-10.937299,125.77502
24200000000,-20.934481,97.360268
24255000000,-13.379045,115.81366
24310000000,-17.141827,69.161453
24365000000,-16.831026,122.91692
24420000000,-10.95231,113.08719
24475000000,-10.48354,90.195702
24530000000,-13.102152,127.83823
24585000000,-9.2386131,114.71256
24640000000,-10.610136,111.32366
24695000000,-15.364985,116.88291
24750000000,-11.811286,130.12939
24805000000,-10.385571,123.96586
24860000000,-8.5206251,104.28248
24915000000,-10.008043,133.63875
24970000000,-5.6958709,124.84773
25025000000,-9.3095751,121.35287
25080000000,-9.1922779,125.63428
25135000000,-8.7540636,132.6554
25190000000,-9.0125809,129.16092
25245000000,-7.6020241,131.40773
25300000000,-8.2962751,117.94503
25355000000,-7.7474642,135.88347
25410000000,-5.084024,122.75881
25465000000,-6.7151551,114.29308
25520000000,-8.4323263,134.55136
25575000000,-5.4338999,143.23845
25630000000,-6.2833428,129.40039
25685000000,-8.1358023,143.37547
25740000000,-6.3285594,147.35318
25795000000,-4.4786372,136.57303
25850000000,-7.6226249,117.96404
25905000000,-5.9290657,140.28798
25960000000,-4.7457523,126.28651
26015000000,-6.7741461,139.02289
26070000000,-4.5728774,145.97363
26125000000,-5.7473402,149.46729
26180000000,-4.5951719,155.36259
26235000000,-5.4898524,152.80061
26290000000,-4.6651421,144.75186
26345000000,-5.8538342,138.3062
26400000000,-4.7025247,141.62178
26455000000,-4.6434197,140.79176
26510000000,-4.6939816,153.70557
26565000000,-3.9534595,157.89262
26620000000,-3.9968679,154.83432
26675000000,-5.2585354,168.75179
26730000000,-2.8513708,164.18321
26785000000,-4.3782778,142.6395
26840000000,-5.7408524,157.93636
26895000000,-3.9132838,156.06506
26950000000,-3.5006056,152.89922
27005000000,-4.1367006,159.50832
27060000000,-3.6107059,169.25398
27115000000,-3.0297413,169.96567
27170000000,-3.4201937,163.54041
27225000000,-4.3504105,169.65196
27280000000,-3.2299144,169.31848
27335000000,-4.1430106,159.50664
27390000000,-3.464222,165.10532
27445000000,-3.751631,162.83832
27500000000,-3.2086546,-179.76563
27555000000,-2.0412762,172.58469
27610000000,-3.7377758,170.81001
27665000000,-3.2893057,-177.13451
27720000000,-2.5726101,175.83215
27775000000,-3.6588321,168.45845
27830000000,-3.8722873,174.92392
27885000000,-3.0001237,-177.34691
27940000000,-2.0142355,-179.58449
27995000000,-3.4598439,179.59007
28050000000,-2.9602871,-166.12782
28105000000,-2.0659583,-174.85632
28160000000,-3.1269281,-179.64876
28215000000,-3.0578499,-173.87326
28270000000,-3.5299828,-171.23546
28325000000,-1.9826607,-165.06259
28380000000,-2.0874281,-177.48911
28435000000,-4.0453081,-168.55969
28490000000,-1.3528638,-161.02992
28545000000,-1.7812575,-175.5351
28600000000,-3.9305596,-165.4463
28655000000,-2.808322,-156.82115
28710000000,-2.0566199,-161.21428
28765000000,-2.8235371,-163.44098
28820000000,-2.8903162,-159.82491
28875000000,-1.8719653,-160.75919
28930000000,-1.7175438,-165.82143
28985000000,-2.9035389,-158.49431
29040000000,-2.1704917,-155.02599
29095000000,-3.5111687,-154.25473
29150000000,-2.5579684,-143.75975
29205000000,-2.4288926,-155.75223
29260000000,-3.1113513,-148.39821
29315000000,-1.365307,-152.53749
29370000000,-1.995389,-157.34882
29425000000,-2.7365973,-151.96143
29480000000,-2.124557,-141.50845
29535000000,-2.5310423,-148.03775
29590000000,-3.7987874,-141.19441
29645000000,-3.1017852,-140.48503
29700000000,-2.0851607,-141.74409
29755000000,-2.5973577,-146.39285
29810000000,-1.6503865,-139.22542
29865000000,-2.3274612,-143.93707
29920000000,-3.1184714,-137.87225
29975000000,-3.0739944,-133.73753
30030000000,-2.5353799,-136.5896
30085000000,-3.5456843,-131.05287
30140000000,-2.2434094,-128.226
30195000000,-1.7045366,-128.44186
30250000000,-3.0915978,-136.5072
30305000000,-3.1601429,-124.59661
30360000000,-1.7717326,-134.35054
30415000000,-4.1362376,45.273201
30470000000,-2.7356014,66.163803
30525000000,-1.377087,-123.65451
30580000000,-3.6591983,58.758533
30635000000,-1.3900876,68.036331
30690000000,-2.4717269,-123.94064
30745000000,-2.7359188,57.339821
30800000000,-3.9164126,-125.73908
30855000000,-2.9083705,63.286118
30910000000,-2.2542567,60.012844
30965000000,-3.9409595,-116.35305
31020000000,-1.8491489,77.646278
31075000000,-2.8478723,68.397514
31130000000,-2.2608025,67.367439
31185000000,-2.8148024,-117.40668
31240000000,-3.5407963,63.368767
31295000000,-3.2365263,86.214409
31350000000,-0.91475767,-119.50719
31405000000,-7.2080145,81.804375
31460000000,-1.619856,101.50431
31515000000,-1.7866005,-115.41741
31570000000,-4.8145528,68.260498
31625000000,-2.1193674,86.246071
31680000000,-1.2834949,58.102943
31735000000,-3.9873185,77.943535
31790000000,-5.3362479,85.865379
31845000000,-3.1728284,101.17908
31900000000,-4.214138,85.560829
31955000000,-3.8380466,84.82695
32010000000,-2.5339053,86.562973
32065000000,-0.62364751,76.759659
32120000000,-3.278564,97.530479
32175000000,1.8029872,-128.71223
32230000000,-10.36498,113.80225
32285000000,-1.6062471,98.907776
32340000000,0.39405206,59.88755
32395000000,-6.3103237,-84.683319
32450000000,3.911823,-177.65912
32505000000,2.2032137,-96.164604
32560000000,-0.50090218,102.82202
32615000000,3.6361046,77.525574
32670000000,-2.099345,-100.41402
32725000000,-10.297225,176.07846
32780000000,-4.1181746,54.122406
32835000000,-10.837106,99.932274
32890000000,-4.7389636,100.14301
32945000000,-3.7164419,70.967651
33000000000,-5.0757194,129.08946
END

