!Keysight Technologies,N5224B,MY57181201,A.12.70.07
!Date: Thursday, July 14, 2022 17:19:33
!Correction: S11(Response(S21)) 
!S21(Response(S21)) 
!S12(Response(S21)) 
!S22(Response(S21)) 
!S2P File: Measurements: S11, S21, S12, S22:
# Hz S  dB   R 50
29000000000 -22.94652 60.766747 -22.94652 60.766747 -22.94652 60.766747 -22.94652 60.766747
29020000000 -23.04286 43.533192 -23.04286 43.533192 -23.04286 43.533192 -23.04286 43.533192
29040000000 -23.013826 26.796352 -23.013826 26.796352 -23.013826 26.796352 -23.013826 26.796352
29060000000 -22.993925 9.3537283 -22.993925 9.3537283 -22.993925 9.3537283 -22.993925 9.3537283
29080000000 -22.979115 -7.9742117 -22.979115 -7.9742117 -22.979115 -7.9742117 -22.979115 -7.9742117
29100000000 -22.996498 -24.690823 -22.996498 -24.690823 -22.996498 -24.690823 -22.996498 -24.690823
29120000000 -23.005013 -42.519478 -23.005013 -42.519478 -23.005013 -42.519478 -23.005013 -42.519478
29140000000 -23.023726 -58.279827 -23.023726 -58.279827 -23.023726 -58.279827 -23.023726 -58.279827
29160000000 -22.92342 -76.266861 -22.92342 -76.266861 -22.92342 -76.266861 -22.92342 -76.266861
29180000000 -22.97901 -93.546066 -22.97901 -93.546066 -22.97901 -93.546066 -22.97901 -93.546066
29200000000 -23.020555 -110.27668 -23.020555 -110.27668 -23.020555 -110.27668 -23.020555 -110.27668
29220000000 -23.046291 -127.03001 -23.046291 -127.03001 -23.046291 -127.03001 -23.046291 -127.03001
29240000000 -23.022221 -143.98927 -23.022221 -143.98927 -23.022221 -143.98927 -23.022221 -143.98927
29260000000 -23.029741 -160.77483 -23.029741 -160.77483 -23.029741 -160.77483 -23.029741 -160.77483
29280000000 -23.084837 -177.39792 -23.084837 -177.39792 -23.084837 -177.39792 -23.084837 -177.39792
29300000000 -22.986095 165.78169 -22.986095 165.78169 -22.986095 165.78169 -22.986095 165.78169
29320000000 -22.869862 148.56512 -22.869862 148.56512 -22.869862 148.56512 -22.869862 148.56512
29340000000 -22.924765 130.74533 -22.924765 130.74533 -22.924765 130.74533 -22.924765 130.74533
29360000000 -22.819818 114.04194 -22.819818 114.04194 -22.819818 114.04194 -22.819818 114.04194
29380000000 -22.90097 96.413712 -22.90097 96.413712 -22.90097 96.413712 -22.90097 96.413712
29400000000 -22.85043 79.323517 -22.85043 79.323517 -22.85043 79.323517 -22.85043 79.323517
29420000000 -22.962242 62.110218 -22.962242 62.110218 -22.962242 62.110218 -22.962242 62.110218
29440000000 -22.895802 45.66037 -22.895802 45.66037 -22.895802 45.66037 -22.895802 45.66037
29460000000 -22.855507 27.733629 -22.855507 27.733629 -22.855507 27.733629 -22.855507 27.733629
29480000000 -22.99534 11.104044 -22.99534 11.104044 -22.99534 11.104044 -22.99534 11.104044
29500000000 -22.903296 -5.797668 -22.903296 -5.797668 -22.903296 -5.797668 -22.903296 -5.797668
29520000000 -22.93714 -22.781605 -22.93714 -22.781605 -22.93714 -22.781605 -22.93714 -22.781605
29540000000 -22.872564 -39.723541 -22.872564 -39.723541 -22.872564 -39.723541 -22.872564 -39.723541
29560000000 -22.90777 -57.048088 -22.90777 -57.048088 -22.90777 -57.048088 -22.90777 -57.048088
29580000000 -22.910358 -73.829773 -22.910358 -73.829773 -22.910358 -73.829773 -22.910358 -73.829773
29600000000 -22.826298 -90.986816 -22.826298 -90.986816 -22.826298 -90.986816 -22.826298 -90.986816
29620000000 -22.869244 -108.06234 -22.869244 -108.06234 -22.869244 -108.06234 -22.869244 -108.06234
29640000000 -22.924458 -125.24849 -22.924458 -125.24849 -22.924458 -125.24849 -22.924458 -125.24849
29660000000 -22.818554 -142.36333 -22.818554 -142.36333 -22.818554 -142.36333 -22.818554 -142.36333
29680000000 -22.789875 -158.75296 -22.789875 -158.75296 -22.789875 -158.75296 -22.789875 -158.75296
29700000000 -22.909897 -176.16232 -22.909897 -176.16232 -22.909897 -176.16232 -22.909897 -176.16232
29720000000 -22.785027 167.12901 -22.785027 167.12901 -22.785027 167.12901 -22.785027 167.12901
29740000000 -22.85453 149.97591 -22.85453 149.97591 -22.85453 149.97591 -22.85453 149.97591
29760000000 -22.740377 132.89192 -22.740377 132.89192 -22.740377 132.89192 -22.740377 132.89192
29780000000 -22.699396 115.41225 -22.699396 115.41225 -22.699396 115.41225 -22.699396 115.41225
29800000000 -22.704674 98.107315 -22.704674 98.107315 -22.704674 98.107315 -22.704674 98.107315
29820000000 -22.620283 80.900932 -22.620283 80.900932 -22.620283 80.900932 -22.620283 80.900932
29840000000 -22.711361 63.452251 -22.711361 63.452251 -22.711361 63.452251 -22.711361 63.452251
29860000000 -22.764618 47.040565 -22.764618 47.040565 -22.764618 47.040565 -22.764618 47.040565
29880000000 -22.745096 30.028008 -22.745096 30.028008 -22.745096 30.028008 -22.745096 30.028008
29900000000 -22.792551 12.213623 -22.792551 12.213623 -22.792551 12.213623 -22.792551 12.213623
29920000000 -22.736124 -4.0521579 -22.736124 -4.0521579 -22.736124 -4.0521579 -22.736124 -4.0521579
29940000000 -22.81802 -21.302338 -22.81802 -21.302338 -22.81802 -21.302338 -22.81802 -21.302338
29960000000 -22.712128 -38.055454 -22.712128 -38.055454 -22.712128 -38.055454 -22.712128 -38.055454
29980000000 -22.613794 -55.931988 -22.613794 -55.931988 -22.613794 -55.931988 -22.613794 -55.931988
30000000000 -22.800209 -72.248283 -22.800209 -72.248283 -22.800209 -72.248283 -22.800209 -72.248283
30020000000 -22.746897 -89.522804 -22.746897 -89.522804 -22.746897 -89.522804 -22.746897 -89.522804
30040000000 -22.571016 -106.81014 -22.571016 -106.81014 -22.571016 -106.81014 -22.571016 -106.81014
30060000000 -22.789156 -123.78101 -22.789156 -123.78101 -22.789156 -123.78101 -22.789156 -123.78101
30080000000 -22.784239 -141.06642 -22.784239 -141.06642 -22.784239 -141.06642 -22.784239 -141.06642
30100000000 -22.749659 -157.27161 -22.749659 -157.27161 -22.749659 -157.27161 -22.749659 -157.27161
30120000000 -22.527189 -174.97052 -22.527189 -174.97052 -22.527189 -174.97052 -22.527189 -174.97052
30140000000 -22.721624 167.98851 -22.721624 167.98851 -22.721624 167.98851 -22.721624 167.98851
30160000000 -22.660599 151.67029 -22.660599 151.67029 -22.660599 151.67029 -22.660599 151.67029
30180000000 -22.519108 134.16853 -22.519108 134.16853 -22.519108 134.16853 -22.519108 134.16853
30200000000 -22.648386 115.91936 -22.648386 115.91936 -22.648386 115.91936 -22.648386 115.91936
30220000000 -22.590599 99.643127 -22.590599 99.643127 -22.590599 99.643127 -22.590599 99.643127
30240000000 -22.558882 82.218719 -22.558882 82.218719 -22.558882 82.218719 -22.558882 82.218719
30260000000 -22.627262 64.848618 -22.627262 64.848618 -22.627262 64.848618 -22.627262 64.848618
30280000000 -22.638145 47.752914 -22.638145 47.752914 -22.638145 47.752914 -22.638145 47.752914
30300000000 -22.721495 30.982708 -22.721495 30.982708 -22.721495 30.982708 -22.721495 30.982708
30320000000 -22.596436 14.199388 -22.596436 14.199388 -22.596436 14.199388 -22.596436 14.199388
30340000000 -22.712355 -3.9837964 -22.712355 -3.9837964 -22.712355 -3.9837964 -22.712355 -3.9837964
30360000000 -22.737463 -19.75964 -22.737463 -19.75964 -22.737463 -19.75964 -22.737463 -19.75964
30380000000 -22.659241 -37.388268 -22.659241 -37.388268 -22.659241 -37.388268 -22.659241 -37.388268
30400000000 -22.698774 -53.882149 -22.698774 -53.882149 -22.698774 -53.882149 -22.698774 -53.882149
30420000000 -22.607676 -70.735008 -22.607676 -70.735008 -22.607676 -70.735008 -22.607676 -70.735008
30440000000 -22.644564 -87.89267 -22.644564 -87.89267 -22.644564 -87.89267 -22.644564 -87.89267
30460000000 -22.632984 -104.91505 -22.632984 -104.91505 -22.632984 -104.91505 -22.632984 -104.91505
30480000000 -22.542561 -122.40434 -22.542561 -122.40434 -22.542561 -122.40434 -22.542561 -122.40434
30500000000 -22.731497 -139.74814 -22.731497 -139.74814 -22.731497 -139.74814 -22.731497 -139.74814
30520000000 -22.674337 -156.06314 -22.674337 -156.06314 -22.674337 -156.06314 -22.674337 -156.06314
30540000000 -22.559458 -174.27802 -22.559458 -174.27802 -22.559458 -174.27802 -22.559458 -174.27802
30560000000 -22.763386 168.79492 -22.763386 168.79492 -22.763386 168.79492 -22.763386 168.79492
30580000000 -22.686583 152.68567 -22.686583 152.68567 -22.686583 152.68567 -22.686583 152.68567
30600000000 -22.607676 136.09599 -22.607676 136.09599 -22.607676 136.09599 -22.607676 136.09599
30620000000 -22.487152 118.87645 -22.487152 118.87645 -22.487152 118.87645 -22.487152 118.87645
30640000000 -22.690849 99.870872 -22.690849 99.870872 -22.690849 99.870872 -22.690849 99.870872
30660000000 -22.698162 85.315811 -22.698162 85.315811 -22.698162 85.315811 -22.698162 85.315811
30680000000 -22.516405 67.142342 -22.516405 67.142342 -22.516405 67.142342 -22.516405 67.142342
30700000000 -22.555613 48.650391 -22.555613 48.650391 -22.555613 48.650391 -22.555613 48.650391
30720000000 -22.719545 32.161598 -22.719545 32.161598 -22.719545 32.161598 -22.719545 32.161598
30740000000 -22.733942 15.491457 -22.733942 15.491457 -22.733942 15.491457 -22.733942 15.491457
30760000000 -22.828243 -0.99479115 -22.828243 -0.99479115 -22.828243 -0.99479115 -22.828243 -0.99479115
30780000000 -22.690218 -17.795593 -22.690218 -17.795593 -22.690218 -17.795593 -22.690218 -17.795593
30800000000 -22.623356 -35.461422 -22.623356 -35.461422 -22.623356 -35.461422 -22.623356 -35.461422
30820000000 -22.769148 -51.861702 -22.769148 -51.861702 -22.769148 -51.861702 -22.769148 -51.861702
30840000000 -22.676552 -68.979294 -22.676552 -68.979294 -22.676552 -68.979294 -22.676552 -68.979294
30860000000 -22.752834 -85.676117 -22.752834 -85.676117 -22.752834 -85.676117 -22.752834 -85.676117
30880000000 -22.562101 -102.82021 -22.562101 -102.82021 -22.562101 -102.82021 -22.562101 -102.82021
30900000000 -22.699623 -121.1551 -22.699623 -121.1551 -22.699623 -121.1551 -22.699623 -121.1551
30920000000 -22.804377 -136.70576 -22.804377 -136.70576 -22.804377 -136.70576 -22.804377 -136.70576
30940000000 -22.774097 -153.50409 -22.774097 -153.50409 -22.774097 -153.50409 -22.774097 -153.50409
30960000000 -22.56138 -170.05367 -22.56138 -170.05367 -22.56138 -170.05367 -22.56138 -170.05367
30980000000 -22.539862 171.51118 -22.539862 171.51118 -22.539862 171.51118 -22.539862 171.51118
31000000000 -22.795006 154.09143 -22.795006 154.09143 -22.795006 154.09143 -22.795006 154.09143
31020000000 -22.677261 139.42706 -22.677261 139.42706 -22.677261 139.42706 -22.677261 139.42706
31040000000 -22.564688 121.47424 -22.564688 121.47424 -22.564688 121.47424 -22.564688 121.47424
31060000000 -22.534729 103.13023 -22.534729 103.13023 -22.534729 103.13023 -22.534729 103.13023
31080000000 -22.753677 86.370422 -22.753677 86.370422 -22.753677 86.370422 -22.753677 86.370422
31100000000 -22.684383 70.012413 -22.684383 70.012413 -22.684383 70.012413 -22.684383 70.012413
31120000000 -22.644011 53.850483 -22.644011 53.850483 -22.644011 53.850483 -22.644011 53.850483
31140000000 -22.483826 35.111439 -22.483826 35.111439 -22.483826 35.111439 -22.483826 35.111439
31160000000 -22.858795 18.437777 -22.858795 18.437777 -22.858795 18.437777 -22.858795 18.437777
31180000000 -22.642752 2.2305005 -22.642752 2.2305005 -22.642752 2.2305005 -22.642752 2.2305005
31200000000 -22.67786 -16.071676 -22.67786 -16.071676 -22.67786 -16.071676 -22.67786 -16.071676
31220000000 -22.803526 -31.967491 -22.803526 -31.967491 -22.803526 -31.967491 -22.803526 -31.967491
31240000000 -22.635832 -49.050011 -22.635832 -49.050011 -22.635832 -49.050011 -22.635832 -49.050011
31260000000 -22.704054 -66.561539 -22.704054 -66.561539 -22.704054 -66.561539 -22.704054 -66.561539
31280000000 -22.745047 -82.911301 -22.745047 -82.911301 -22.745047 -82.911301 -22.745047 -82.911301
31300000000 -22.815329 -99.814316 -22.815329 -99.814316 -22.815329 -99.814316 -22.815329 -99.814316
31320000000 -22.622549 -115.71124 -22.622549 -115.71124 -22.622549 -115.71124 -22.622549 -115.71124
31340000000 -22.525908 -133.24718 -22.525908 -133.24718 -22.525908 -133.24718 -22.525908 -133.24718
31360000000 -22.625435 -151.9861 -22.625435 -151.9861 -22.625435 -151.9861 -22.625435 -151.9861
31380000000 -22.649586 -167.03189 -22.649586 -167.03189 -22.649586 -167.03189 -22.649586 -167.03189
31400000000 -22.510355 175.0584 -22.510355 175.0584 -22.510355 175.0584 -22.510355 175.0584
31420000000 -22.616911 157.29973 -22.616911 157.29973 -22.616911 157.29973 -22.616911 157.29973
31440000000 -22.629976 140.66405 -22.629976 140.66405 -22.629976 140.66405 -22.629976 140.66405
31460000000 -22.591738 124.22262 -22.591738 124.22262 -22.591738 124.22262 -22.591738 124.22262
31480000000 -22.511105 107.75668 -22.511105 107.75668 -22.511105 107.75668 -22.511105 107.75668
31500000000 -22.541325 89.615891 -22.541325 89.615891 -22.541325 89.615891 -22.541325 89.615891
31520000000 -22.553333 74.187912 -22.553333 74.187912 -22.553333 74.187912 -22.553333 74.187912
31540000000 -22.445702 55.495029 -22.445702 55.495029 -22.445702 55.495029 -22.445702 55.495029
31560000000 -22.72319 37.333344 -22.72319 37.333344 -22.72319 37.333344 -22.72319 37.333344
31580000000 -22.683197 22.725721 -22.683197 22.725721 -22.683197 22.725721 -22.683197 22.725721
31600000000 -22.561213 5.2546105 -22.561213 5.2546105 -22.561213 5.2546105 -22.561213 5.2546105
31620000000 -22.530725 -11.839234 -22.530725 -11.839234 -22.530725 -11.839234 -22.530725 -11.839234
31640000000 -22.633955 -29.10536 -22.633955 -29.10536 -22.633955 -29.10536 -22.633955 -29.10536
31660000000 -22.818926 -45.923244 -22.818926 -45.923244 -22.818926 -45.923244 -22.818926 -45.923244
31680000000 -22.461126 -60.897495 -22.461126 -60.897495 -22.461126 -60.897495 -22.461126 -60.897495
31700000000 -22.37907 -80.144707 -22.37907 -80.144707 -22.37907 -80.144707 -22.37907 -80.144707
31720000000 -22.568033 -98.076111 -22.568033 -98.076111 -22.568033 -98.076111 -22.568033 -98.076111
31740000000 -22.686434 -113.04114 -22.686434 -113.04114 -22.686434 -113.04114 -22.686434 -113.04114
31760000000 -22.522837 -130.17072 -22.522837 -130.17072 -22.522837 -130.17072 -22.522837 -130.17072
31780000000 -22.387913 -147.174 -22.387913 -147.174 -22.387913 -147.174 -22.387913 -147.174
31800000000 -22.409864 -165.162 -22.409864 -165.162 -22.409864 -165.162 -22.409864 -165.162
31820000000 -22.598368 178.53249 -22.598368 178.53249 -22.598368 178.53249 -22.598368 178.53249
31840000000 -22.418776 161.29752 -22.418776 161.29752 -22.418776 161.29752 -22.418776 161.29752
31860000000 -22.537153 144.34399 -22.537153 144.34399 -22.537153 144.34399 -22.537153 144.34399
31880000000 -22.408751 127.74557 -22.408751 127.74557 -22.408751 127.74557 -22.408751 127.74557
31900000000 -22.357563 109.86319 -22.357563 109.86319 -22.357563 109.86319 -22.357563 109.86319
31920000000 -22.492973 92.328705 -22.492973 92.328705 -22.492973 92.328705 -22.492973 92.328705
31940000000 -22.641413 77.19416 -22.641413 77.19416 -22.641413 77.19416 -22.641413 77.19416
31960000000 -22.280193 60.036064 -22.280193 60.036064 -22.280193 60.036064 -22.280193 60.036064
31980000000 -22.293623 42.005207 -22.293623 42.005207 -22.293623 42.005207 -22.293623 42.005207
32000000000 -22.481905 24.030357 -22.481905 24.030357 -22.481905 24.030357 -22.481905 24.030357
32020000000 -22.660955 8.8161974 -22.660955 8.8161974 -22.660955 8.8161974 -22.660955 8.8161974
32040000000 -22.304956 -7.8595772 -22.304956 -7.8595772 -22.304956 -7.8595772 -22.304956 -7.8595772
32060000000 -22.340258 -26.109531 -22.340258 -26.109531 -22.340258 -26.109531 -22.340258 -26.109531
32080000000 -22.480148 -43.398594 -22.480148 -43.398594 -22.480148 -43.398594 -22.480148 -43.398594
32100000000 -22.476727 -60.096539 -22.476727 -60.096539 -22.476727 -60.096539 -22.476727 -60.096539
32120000000 -22.474779 -75.696167 -22.474779 -75.696167 -22.474779 -75.696167 -22.474779 -75.696167
32140000000 -22.298752 -93.668564 -22.298752 -93.668564 -22.298752 -93.668564 -22.298752 -93.668564
32160000000 -22.331488 -111.47895 -22.331488 -111.47895 -22.331488 -111.47895 -22.331488 -111.47895
32180000000 -22.436956 -127.61683 -22.436956 -127.61683 -22.436956 -127.61683 -22.436956 -127.61683
32200000000 -22.330811 -144.40271 -22.330811 -144.40271 -22.330811 -144.40271 -22.330811 -144.40271
32220000000 -22.378059 -161.62677 -22.378059 -161.62677 -22.378059 -161.62677 -22.378059 -161.62677
32240000000 -22.377554 -178.12848 -22.377554 -178.12848 -22.377554 -178.12848 -22.377554 -178.12848
32260000000 -22.281937 163.8591 -22.281937 163.8591 -22.281937 163.8591 -22.281937 163.8591
32280000000 -22.367733 145.69281 -22.367733 145.69281 -22.367733 145.69281 -22.367733 145.69281
32300000000 -22.525286 130.61903 -22.525286 130.61903 -22.525286 130.61903 -22.525286 130.61903
32320000000 -22.272398 113.44286 -22.272398 113.44286 -22.272398 113.44286 -22.272398 113.44286
32340000000 -22.234213 95.409492 -22.234213 95.409492 -22.234213 95.409492 -22.234213 95.409492
32360000000 -22.284386 78.188004 -22.284386 78.188004 -22.284386 78.188004 -22.284386 78.188004
32380000000 -22.504805 62.961628 -22.504805 62.961628 -22.504805 62.961628 -22.504805 62.961628
32400000000 -22.290201 45.404488 -22.290201 45.404488 -22.290201 45.404488 -22.290201 45.404488
32420000000 -22.229691 28.665262 -22.229691 28.665262 -22.229691 28.665262 -22.229691 28.665262
32440000000 -22.287029 10.827705 -22.287029 10.827705 -22.287029 10.827705 -22.287029 10.827705
32460000000 -22.2897 -6.4356604 -22.2897 -6.4356604 -22.2897 -6.4356604 -22.2897 -6.4356604
32480000000 -22.308989 -22.98488 -22.308989 -22.98488 -22.308989 -22.98488 -22.308989 -22.98488
32500000000 -22.346895 -39.85112 -22.346895 -39.85112 -22.346895 -39.85112 -22.346895 -39.85112
32520000000 -22.303186 -56.938683 -22.303186 -56.938683 -22.303186 -56.938683 -22.303186 -56.938683
32540000000 -22.370426 -73.963768 -22.370426 -73.963768 -22.370426 -73.963768 -22.370426 -73.963768
32560000000 -22.314291 -90.576157 -22.314291 -90.576157 -22.314291 -90.576157 -22.314291 -90.576157
32580000000 -22.43828 -108.26737 -22.43828 -108.26737 -22.43828 -108.26737 -22.43828 -108.26737
32600000000 -22.331001 -123.74923 -22.331001 -123.74923 -22.331001 -123.74923 -22.331001 -123.74923
32620000000 -22.203819 -141.56432 -22.203819 -141.56432 -22.203819 -141.56432 -22.203819 -141.56432
32640000000 -22.285137 -159.25533 -22.285137 -159.25533 -22.285137 -159.25533 -22.285137 -159.25533
32660000000 -22.323387 -176.37294 -22.323387 -176.37294 -22.323387 -176.37294 -22.323387 -176.37294
32680000000 -22.381409 168.36761 -22.381409 168.36761 -22.381409 168.36761 -22.381409 168.36761
32700000000 -22.186211 150.77493 -22.186211 150.77493 -22.186211 150.77493 -22.186211 150.77493
32720000000 -22.305277 132.44691 -22.305277 132.44691 -22.305277 132.44691 -22.305277 132.44691
32740000000 -22.386889 115.95383 -22.386889 115.95383 -22.386889 115.95383 -22.386889 115.95383
32760000000 -22.381506 99.967865 -22.381506 99.967865 -22.381506 99.967865 -22.381506 99.967865
32780000000 -22.189812 82.941032 -22.189812 82.941032 -22.189812 82.941032 -22.189812 82.941032
32800000000 -22.209768 65.407104 -22.209768 65.407104 -22.209768 65.407104 -22.209768 65.407104
32820000000 -22.214417 48.507339 -22.214417 48.507339 -22.214417 48.507339 -22.214417 48.507339
32840000000 -22.285816 30.921568 -22.285816 30.921568 -22.285816 30.921568 -22.285816 30.921568
32860000000 -22.379557 14.612902 -22.379557 14.612902 -22.379557 14.612902 -22.379557 14.612902
32880000000 -22.156693 -1.8893042 -22.156693 -1.8893042 -22.156693 -1.8893042 -22.156693 -1.8893042
32900000000 -22.254951 -19.44466 -22.254951 -19.44466 -22.254951 -19.44466 -22.254951 -19.44466
32920000000 -22.218695 -36.878731 -22.218695 -36.878731 -22.218695 -36.878731 -22.218695 -36.878731
32940000000 -22.377275 -52.711716 -22.377275 -52.711716 -22.377275 -52.711716 -22.377275 -52.711716
32960000000 -22.206144 -69.910828 -22.206144 -69.910828 -22.206144 -69.910828 -22.206144 -69.910828
32980000000 -22.130072 -87.058586 -22.130072 -87.058586 -22.130072 -87.058586 -22.130072 -87.058586
33000000000 -22.082315 -104.79452 -22.082315 -104.79452 -22.082315 -104.79452 -22.082315 -104.79452
