!Keysight Technologies,N5224B,MY57181201,A.12.70.07
!Date: Thursday, July 14, 2022 13:03:35
!Correction: S11(Off) 
!S21(Off) 
!S12(Off) 
!S22(Off) 
!S2P File: Measurements: S11, S21, S12, S22:
# Hz S  dB   R 50
22000000000 -200 45 -30.029562 -166.60223 -200 45 -200 45
22055000000 -200 45 -30.108074 -72.239769 -200 45 -200 45
22110000000 -200 45 -29.912144 21.680714 -200 45 -200 45
22165000000 -200 45 -29.733076 116.745 -200 45 -200 45
22220000000 -200 45 -29.779757 -152.7168 -200 45 -200 45
22275000000 -200 45 -30.031328 -58.648922 -200 45 -200 45
22330000000 -200 45 -29.779715 34.521183 -200 45 -200 45
22385000000 -200 45 -30.260347 130.95576 -200 45 -200 45
22440000000 -200 45 -29.655153 -135.40724 -200 45 -200 45
22495000000 -200 45 -30.066099 -42.90514 -200 45 -200 45
22550000000 -200 45 -29.786568 51.850838 -200 45 -200 45
22605000000 -200 45 -29.864931 144.72585 -200 45 -200 45
22660000000 -200 45 -29.753521 -119.52196 -200 45 -200 45
22715000000 -200 45 -29.758512 -29.366379 -200 45 -200 45
22770000000 -200 45 -29.666613 65.953766 -200 45 -200 45
22825000000 -200 45 -30.376287 159.32373 -200 45 -200 45
22880000000 -200 45 -30.055662 -103.94193 -200 45 -200 45
22935000000 -200 45 -30.038507 -10.307556 -200 45 -200 45
22990000000 -200 45 -30.129744 85.199532 -200 45 -200 45
23045000000 -200 45 -29.882389 178.74352 -200 45 -200 45
23100000000 -200 45 -29.802998 -86.958557 -200 45 -200 45
23155000000 -200 45 -29.729721 3.3626232 -200 45 -200 45
23210000000 -200 45 -30.030325 99.192619 -200 45 -200 45
23265000000 -200 45 -30.532526 -166.74701 -200 45 -200 45
23320000000 -200 45 -30.51269 -69.320694 -200 45 -200 45
23375000000 -200 45 -30.126141 23.460308 -200 45 -200 45
23430000000 -200 45 -30.459122 117.81236 -200 45 -200 45
23485000000 -200 45 -30.556696 -146.5423 -200 45 -200 45
23540000000 -200 45 -30.697777 -53.234089 -200 45 -200 45
23595000000 -200 45 -30.48311 42.46587 -200 45 -200 45
23650000000 -200 45 -30.343054 137.40082 -200 45 -200 45
23705000000 -200 45 -30.473156 -129.60393 -200 45 -200 45
23760000000 -200 45 -30.555256 -35.952541 -200 45 -200 45
23815000000 -200 45 -30.56329 58.2267 -200 45 -200 45
23870000000 -200 45 -30.601622 153.28636 -200 45 -200 45
23925000000 -200 45 -31.016626 -113.46466 -200 45 -200 45
23980000000 -200 45 -31.242964 -14.436938 -200 45 -200 45
24035000000 -200 45 -30.411495 80.92244 -200 45 -200 45
24090000000 -200 45 -30.250198 173.64612 -200 45 -200 45
24145000000 -200 45 -30.777502 -92.954796 -200 45 -200 45
24200000000 -200 45 -30.68314 1.243488 -200 45 -200 45
24255000000 -200 45 -30.85161 98.214813 -200 45 -200 45
24310000000 -200 45 -30.534723 -165.24414 -200 45 -200 45
24365000000 -200 45 -30.850515 -73.410217 -200 45 -200 45
24420000000 -200 45 -30.79257 22.089121 -200 45 -200 45
24475000000 -200 45 -30.819338 116.04341 -200 45 -200 45
24530000000 -200 45 -31.184174 -146.18845 -200 45 -200 45
24585000000 -200 45 -31.108444 -52.636826 -200 45 -200 45
24640000000 -200 45 -31.321999 45.310925 -200 45 -200 45
24695000000 -200 45 -30.682766 139.75247 -200 45 -200 45
24750000000 -200 45 -31.167873 -127.6768 -200 45 -200 45
24805000000 -200 45 -31.254993 -33.409027 -200 45 -200 45
24860000000 -200 45 -31.583755 64.638794 -200 45 -200 45
24915000000 -200 45 -31.222897 162.06984 -200 45 -200 45
24970000000 -200 45 -30.871264 -105.44372 -200 45 -200 45
25025000000 -200 45 -31.065622 -12.033555 -200 45 -200 45
25080000000 -200 45 -30.836447 82.661713 -200 45 -200 45
25135000000 -200 45 -31.097891 177.28221 -200 45 -200 45
25190000000 -200 45 -31.243135 -86.685829 -200 45 -200 45
25245000000 -200 45 -31.407768 8.6915541 -200 45 -200 45
25300000000 -200 45 -31.238207 106.43465 -200 45 -200 45
25355000000 -200 45 -30.714025 -157.36139 -200 45 -200 45
25410000000 -200 45 -30.941946 -64.261826 -200 45 -200 45
25465000000 -200 45 -30.911982 29.915413 -200 45 -200 45
25520000000 -200 45 -31.09194 125.15604 -200 45 -200 45
25575000000 -200 45 -31.105936 -137.78976 -200 45 -200 45
25630000000 -200 45 -31.034601 -43.010117 -200 45 -200 45
25685000000 -200 45 -31.27692 50.760822 -200 45 -200 45
25740000000 -200 45 -31.277857 149.53857 -200 45 -200 45
25795000000 -200 45 -31.141493 -114.41037 -200 45 -200 45
25850000000 -200 45 -31.010151 -19.923941 -200 45 -200 45
25905000000 -200 45 -31.004225 71.925217 -200 45 -200 45
25960000000 -200 45 -30.98679 167.87169 -200 45 -200 45
26015000000 -200 45 -30.915649 -95.926445 -200 45 -200 45
26070000000 -200 45 -31.197367 -3.9838057 -200 45 -200 45
26125000000 -200 45 -31.52562 91.886665 -200 45 -200 45
26180000000 -200 45 -31.554348 -169.71243 -200 45 -200 45
26235000000 -200 45 -31.111872 -71.206184 -200 45 -200 45
26290000000 -200 45 -30.755356 21.203419 -200 45 -200 45
26345000000 -200 45 -30.912422 114.09387 -200 45 -200 45
26400000000 -200 45 -31.03096 -147.65105 -200 45 -200 45
26455000000 -200 45 -30.93157 -52.628998 -200 45 -200 45
26510000000 -200 45 -30.960638 42.61552 -200 45 -200 45
26565000000 -200 45 -30.515591 137.75333 -200 45 -200 45
26620000000 -200 45 -30.49284 -127.85326 -200 45 -200 45
26675000000 -200 45 -30.799614 -32.87978 -200 45 -200 45
26730000000 -200 45 -31.130281 61.749363 -200 45 -200 45
26785000000 -200 45 -30.987761 160.04094 -200 45 -200 45
26840000000 -200 45 -30.476547 -106.6678 -200 45 -200 45
26895000000 -200 45 -31.204525 -9.4680481 -200 45 -200 45
26950000000 -200 45 -30.551386 83.901474 -200 45 -200 45
27005000000 -200 45 -30.874025 -179.36035 -200 45 -200 45
27060000000 -200 45 -30.506655 -83.029732 -200 45 -200 45
27115000000 -200 45 -30.731726 9.8902416 -200 45 -200 45
27170000000 -200 45 -30.789471 107.84792 -200 45 -200 45
27225000000 -200 45 -30.482035 -158.79575 -200 45 -200 45
27280000000 -200 45 -30.679781 -62.174194 -200 45 -200 45
27335000000 -200 45 -30.644026 32.961483 -200 45 -200 45
27390000000 -200 45 -30.79277 130.67722 -200 45 -200 45
27445000000 -200 45 -30.394457 -134.78818 -200 45 -200 45
27500000000 -200 45 -30.111969 -41.624065 -200 45 -200 45
27555000000 -200 45 -30.810814 51.839409 -200 45 -200 45
27610000000 -200 45 -31.166159 150.07845 -200 45 -200 45
27665000000 -200 45 -30.987041 -113.97284 -200 45 -200 45
27720000000 -200 45 -30.510809 -17.11986 -200 45 -200 45
27775000000 -200 45 -30.655987 77.952957 -200 45 -200 45
27830000000 -200 45 -30.616796 171.66333 -200 45 -200 45
27885000000 -200 45 -30.640806 -93.49707 -200 45 -200 45
27940000000 -200 45 -30.722797 1.7838469 -200 45 -200 45
27995000000 -200 45 -31.211763 99.0952 -200 45 -200 45
28050000000 -200 45 -30.976686 -165.01344 -200 45 -200 45
28105000000 -200 45 -31.064634 -67.417084 -200 45 -200 45
28160000000 -200 45 -30.579874 28.90292 -200 45 -200 45
28215000000 -200 45 -30.452795 120.54237 -200 45 -200 45
28270000000 -200 45 -30.764021 -143.52209 -200 45 -200 45
28325000000 -200 45 -30.908188 -49.556431 -200 45 -200 45
28380000000 -200 45 -30.769922 49.872318 -200 45 -200 45
28435000000 -200 45 -30.697611 141.36932 -200 45 -200 45
28490000000 -200 45 -31.251125 -122.46946 -200 45 -200 45
28545000000 -200 45 -31.102692 -26.8813 -200 45 -200 45
28600000000 -200 45 -31.533577 72.831436 -200 45 -200 45
28655000000 -200 45 -31.220472 168.60966 -200 45 -200 45
28710000000 -200 45 -31.023758 -96.509041 -200 45 -200 45
28765000000 -200 45 -30.715982 -0.96369755 -200 45 -200 45
28820000000 -200 45 -30.766695 91.870499 -200 45 -200 45
28875000000 -200 45 -31.154036 -173.94673 -200 45 -200 45
28930000000 -200 45 -31.329918 -76.66732 -200 45 -200 45
28985000000 -200 45 -31.266773 20.928909 -200 45 -200 45
29040000000 -200 45 -31.503572 117.9479 -200 45 -200 45
29095000000 -200 45 -31.029882 -144.79614 -200 45 -200 45
29150000000 -200 45 -30.828869 -52.892193 -200 45 -200 45
29205000000 -200 45 -30.903051 43.062805 -200 45 -200 45
29260000000 -200 45 -31.430155 138.2531 -200 45 -200 45
29315000000 -200 45 -31.346605 -121.85159 -200 45 -200 45
29370000000 -200 45 -30.757969 -28.548069 -200 45 -200 45
29425000000 -200 45 -31.018818 68.177818 -200 45 -200 45
29480000000 -200 45 -31.082178 166.33173 -200 45 -200 45
29535000000 -200 45 -31.015181 -97.290749 -200 45 -200 45
29590000000 -200 45 -30.721802 -3.3107884 -200 45 -200 45
29645000000 -200 45 -30.757504 94.533195 -200 45 -200 45
29700000000 -200 45 -30.831285 -168.72173 -200 45 -200 45
29755000000 -200 45 -30.575331 -74.034317 -200 45 -200 45
29810000000 -200 45 -30.236521 19.549557 -200 45 -200 45
29865000000 -200 45 -30.545786 114.00137 -200 45 -200 45
29920000000 -200 45 -30.570034 -147.32474 -200 45 -200 45
29975000000 -200 45 -30.571531 -53.658451 -200 45 -200 45
30030000000 -200 45 -30.58222 42.733486 -200 45 -200 45
30085000000 -200 45 -30.290396 138.36639 -200 45 -200 45
30140000000 -200 45 -30.59359 -124.12178 -200 45 -200 45
30195000000 -200 45 -30.435234 -30.357885 -200 45 -200 45
30250000000 -200 45 -30.308723 64.83268 -200 45 -200 45
30305000000 -200 45 -30.061649 161.50223 -200 45 -200 45
30360000000 -200 45 -30.457827 -103.24347 -200 45 -200 45
30415000000 -200 45 -30.107347 -9.0834665 -200 45 -200 45
30470000000 -200 45 -30.017628 85.889465 -200 45 -200 45
30525000000 -200 45 -30.230003 -177.37354 -200 45 -200 45
30580000000 -200 45 -30.662283 -80.703651 -200 45 -200 45
30635000000 -200 45 -30.25358 16.487751 -200 45 -200 45
30690000000 -200 45 -29.724642 108.93578 -200 45 -200 45
30745000000 -200 45 -29.872356 -157.65273 -200 45 -200 45
30800000000 -200 45 -30.432852 -64.748703 -200 45 -200 45
30855000000 -200 45 -31.196049 35.319962 -200 45 -200 45
30910000000 -200 45 -30.992388 132.86206 -200 45 -200 45
30965000000 -200 45 -30.622087 -129.72525 -200 45 -200 45
31020000000 -200 45 -30.457476 -31.801088 -200 45 -200 45
31075000000 -200 45 -30.307081 61.514301 -200 45 -200 45
31130000000 -200 45 -29.798779 155.0882 -200 45 -200 45
31185000000 -200 45 -30.229923 -112.61675 -200 45 -200 45
31240000000 -200 45 -30.803492 -15.29945 -200 45 -200 45
31295000000 -200 45 -30.938944 82.439827 -200 45 -200 45
31350000000 -200 45 -30.565998 177.13326 -200 45 -200 45
31405000000 -200 45 -30.797585 -88.486191 -200 45 -200 45
31460000000 -200 45 -31.305517 10.477378 -200 45 -200 45
31515000000 -200 45 -31.353033 109.23755 -200 45 -200 45
31570000000 -200 45 -30.804976 -154.29596 -200 45 -200 45
31625000000 -200 45 -30.309464 -61.462891 -200 45 -200 45
31680000000 -200 45 -30.681751 34.150681 -200 45 -200 45
31735000000 -200 45 -30.730856 127.50857 -200 45 -200 45
31790000000 -200 45 -31.335182 -136.85347 -200 45 -200 45
31845000000 -200 45 -31.414772 -35.469646 -200 45 -200 45
31900000000 -200 45 -31.39628 63.020317 -200 45 -200 45
31955000000 -200 45 -30.710398 162.19327 -200 45 -200 45
32010000000 -200 45 -30.48362 -108.11183 -200 45 -200 45
32065000000 -200 45 -30.219864 -14.887609 -200 45 -200 45
32120000000 -200 45 -31.276266 83.16436 -200 45 -200 45
32175000000 -200 45 -30.965658 -179.35385 -200 45 -200 45
32230000000 -200 45 -30.725863 -82.515617 -200 45 -200 45
32285000000 -200 45 -30.281904 12.797071 -200 45 -200 45
32340000000 -200 45 -30.330233 105.59821 -200 45 -200 45
32395000000 -200 45 -30.75753 -157.10509 -200 45 -200 45
32450000000 -200 45 -30.834635 -60.472725 -200 45 -200 45
32505000000 -200 45 -30.681383 38.756794 -200 45 -200 45
32560000000 -200 45 -30.055574 134.0368 -200 45 -200 45
32615000000 -200 45 -30.14361 -132.91231 -200 45 -200 45
32670000000 -200 45 -30.178329 -41.028877 -200 45 -200 45
32725000000 -200 45 -30.590786 54.874401 -200 45 -200 45
32780000000 -200 45 -30.954414 155.49222 -200 45 -200 45
32835000000 -200 45 -30.752626 -108.09821 -200 45 -200 45
32890000000 -200 45 -30.278383 -11.935229 -200 45 -200 45
32945000000 -200 45 -30.021534 83.005707 -200 45 -200 45
33000000000 -200 45 -30.544851 175.66705 -200 45 -200 45
