!Keysight Technologies,N5224B,MY57181201,A.12.70.07
!Date: Thursday, July 14, 2022 17:09:13
!Correction: S11(Response(S21)) 
!S21(Response(S21)) 
!S12(Response(S21)) 
!S22(Response(S21)) 
!S2P File: Measurements: S11, S21, S12, S22:
# Hz S  dB   R 50
30000000000 -1.2068006 138.39798 -1.2068006 138.39798 -1.2068006 138.39798 -1.2068006 138.39798
30015000000 -1.2296518 38.321056 -1.2296518 38.321056 -1.2296518 38.321056 -1.2296518 38.321056
30030000000 -1.3208992 -58.484329 -1.3208992 -58.484329 -1.3208992 -58.484329 -1.3208992 -58.484329
30045000000 -1.2720498 -155.06485 -1.2720498 -155.06485 -1.2720498 -155.06485 -1.2720498 -155.06485
30060000000 -1.1924053 106.39984 -1.1924053 106.39984 -1.1924053 106.39984 -1.1924053 106.39984
30075000000 -1.0974631 7.9129372 -1.0974631 7.9129372 -1.0974631 7.9129372 -1.0974631 7.9129372
30090000000 -1.0837994 -90.686203 -1.0837994 -90.686203 -1.0837994 -90.686203 -1.0837994 -90.686203
30105000000 -0.9686572 171.16505 -0.9686572 171.16505 -0.9686572 171.16505 -0.9686572 171.16505
30120000000 -0.83283478 72.426483 -0.83283478 72.426483 -0.83283478 72.426483 -0.83283478 72.426483
30135000000 -0.86197561 -24.816154 -0.86197561 -24.816154 -0.86197561 -24.816154 -0.86197561 -24.816154
30150000000 -0.69491202 -123.24625 -0.69491202 -123.24625 -0.69491202 -123.24625 -0.69491202 -123.24625
30165000000 -0.44019863 137.98596 -0.44019863 137.98596 -0.44019863 137.98596 -0.44019863 137.98596
30180000000 -0.50677747 38.919117 -0.50677747 38.919117 -0.50677747 38.919117 -0.50677747 38.919117
30195000000 -0.58815455 -59.355431 -0.58815455 -59.355431 -0.58815455 -59.355431 -0.58815455 -59.355431
30210000000 -0.37075317 -157.91698 -0.37075317 -157.91698 -0.37075317 -157.91698 -0.37075317 -157.91698
30225000000 -0.3035638 102.7512 -0.3035638 102.7512 -0.3035638 102.7512 -0.3035638 102.7512
30240000000 -0.57813251 3.9514494 -0.57813251 3.9514494 -0.57813251 3.9514494 -0.57813251 3.9514494
30255000000 -0.83952373 -94.699928 -0.83952373 -94.699928 -0.83952373 -94.699928 -0.83952373 -94.699928
30270000000 -0.87149781 167.47133 -0.87149781 167.47133 -0.87149781 167.47133 -0.87149781 167.47133
30285000000 -0.89888704 69.234016 -0.89888704 69.234016 -0.89888704 69.234016 -0.89888704 69.234016
30300000000 -0.85948664 -31.301125 -0.85948664 -31.301125 -0.85948664 -31.301125 -0.85948664 -31.301125
30315000000 -0.9320274 -129.40575 -0.9320274 -129.40575 -0.9320274 -129.40575 -0.9320274 -129.40575
30330000000 -0.97653788 132.06088 -0.97653788 132.06088 -0.97653788 132.06088 -0.97653788 132.06088
30345000000 -1.37412 34.901623 -1.37412 34.901623 -1.37412 34.901623 -1.37412 34.901623
30360000000 -1.0945048 -61.561008 -1.0945048 -61.561008 -1.0945048 -61.561008 -1.0945048 -61.561008
30375000000 -1.1356962 -161.87396 -1.1356962 -161.87396 -1.1356962 -161.87396 -1.1356962 -161.87396
30390000000 -1.4554288 101.51919 -1.4554288 101.51919 -1.4554288 101.51919 -1.4554288 101.51919
30405000000 -1.4138691 3.8242135 -1.4138691 3.8242135 -1.4138691 3.8242135 -1.4138691 3.8242135
30420000000 -1.6483821 -93.054741 -1.6483821 -93.054741 -1.6483821 -93.054741 -1.6483821 -93.054741
30435000000 -1.4751385 170.28442 -1.4751385 170.28442 -1.4751385 170.28442 -1.4751385 170.28442
30450000000 -1.3982961 71.53286 -1.3982961 71.53286 -1.3982961 71.53286 -1.3982961 71.53286
30465000000 -1.4048517 -25.570726 -1.4048517 -25.570726 -1.4048517 -25.570726 -1.4048517 -25.570726
30480000000 -1.2302939 -123.87036 -1.2302939 -123.87036 -1.2302939 -123.87036 -1.2302939 -123.87036
30495000000 -1.444839 137.86249 -1.444839 137.86249 -1.444839 137.86249 -1.444839 137.86249
30510000000 -1.2115605 41.300293 -1.2115605 41.300293 -1.2115605 41.300293 -1.2115605 41.300293
30525000000 -0.90486199 -58.085835 -0.90486199 -58.085835 -0.90486199 -58.085835 -0.90486199 -58.085835
30540000000 -0.99103969 -157.30344 -0.99103969 -157.30344 -0.99103969 -157.30344 -0.99103969 -157.30344
30555000000 -0.93770683 103.23911 -0.93770683 103.23911 -0.93770683 103.23911 -0.93770683 103.23911
30570000000 -1.0887216 5.4438276 -1.0887216 5.4438276 -1.0887216 5.4438276 -1.0887216 5.4438276
30585000000 -1.0413417 -90.83786 -1.0413417 -90.83786 -1.0413417 -90.83786 -1.0413417 -90.83786
30600000000 -0.81056881 170.91772 -0.81056881 170.91772 -0.81056881 170.91772 -0.81056881 170.91772
30615000000 -0.81329167 72.962975 -0.81329167 72.962975 -0.81329167 72.962975 -0.81329167 72.962975
30630000000 -0.65136075 -25.664345 -0.65136075 -25.664345 -0.65136075 -25.664345 -0.65136075 -25.664345
30645000000 -0.662907 -124.86134 -0.662907 -124.86134 -0.662907 -124.86134 -0.662907 -124.86134
30660000000 -0.54527515 137.65308 -0.54527515 137.65308 -0.54527515 137.65308 -0.54527515 137.65308
30675000000 -0.41279054 38.07132 -0.41279054 38.07132 -0.41279054 38.07132 -0.41279054 38.07132
30690000000 -0.66882879 -61.289131 -0.66882879 -61.289131 -0.66882879 -61.289131 -0.66882879 -61.289131
30705000000 -0.54047465 -159.80743 -0.54047465 -159.80743 -0.54047465 -159.80743 -0.54047465 -159.80743
30720000000 -0.70194918 101.39333 -0.70194918 101.39333 -0.70194918 101.39333 -0.70194918 101.39333
30735000000 -0.81373167 1.7885135 -0.81373167 1.7885135 -0.81373167 1.7885135 -0.81373167 1.7885135
30750000000 -0.93751901 -96.068436 -0.93751901 -96.068436 -0.93751901 -96.068436 -0.93751901 -96.068436
30765000000 -0.80706304 166.19078 -0.80706304 166.19078 -0.80706304 166.19078 -0.80706304 166.19078
30780000000 -0.95836312 67.933441 -0.95836312 67.933441 -0.95836312 67.933441 -0.95836312 67.933441
30795000000 -1.0461724 -30.025009 -1.0461724 -30.025009 -1.0461724 -30.025009 -1.0461724 -30.025009
30810000000 -1.2986561 -128.40135 -1.2986561 -128.40135 -1.2986561 -128.40135 -1.2986561 -128.40135
30825000000 -1.3145652 134.24979 -1.3145652 134.24979 -1.3145652 134.24979 -1.3145652 134.24979
30840000000 -1.3474482 35.277782 -1.3474482 35.277782 -1.3474482 35.277782 -1.3474482 35.277782
30855000000 -1.2796998 -61.511318 -1.2796998 -61.511318 -1.2796998 -61.511318 -1.2796998 -61.511318
30870000000 -1.1640792 -157.78998 -1.1640792 -157.78998 -1.1640792 -157.78998 -1.1640792 -157.78998
30885000000 -1.114199 102.16588 -1.114199 102.16588 -1.114199 102.16588 -1.114199 102.16588
30900000000 -1.3476912 4.0968704 -1.3476912 4.0968704 -1.3476912 4.0968704 -1.3476912 4.0968704
30915000000 -1.2622174 -92.413116 -1.2622174 -92.413116 -1.2622174 -92.413116 -1.2622174 -92.413116
30930000000 -1.400841 168.85387 -1.400841 168.85387 -1.400841 168.85387 -1.400841 168.85387
30945000000 -1.3249477 71.663857 -1.3249477 71.663857 -1.3249477 71.663857 -1.3249477 71.663857
30960000000 -1.1529967 -25.605841 -1.1529967 -25.605841 -1.1529967 -25.605841 -1.1529967 -25.605841
30975000000 -0.99718988 -125.06696 -0.99718988 -125.06696 -0.99718988 -125.06696 -0.99718988 -125.06696
30990000000 -1.1694545 134.69046 -1.1694545 134.69046 -1.1694545 134.69046 -1.1694545 134.69046
31005000000 -1.1939095 38.722549 -1.1939095 38.722549 -1.1939095 38.722549 -1.1939095 38.722549
31020000000 -1.0383008 -58.083015 -1.0383008 -58.083015 -1.0383008 -58.083015 -1.0383008 -58.083015
31035000000 -0.5363009 -157.23285 -0.5363009 -157.23285 -0.5363009 -157.23285 -0.5363009 -157.23285
31050000000 -0.5279457 102.40537 -0.5279457 102.40537 -0.5279457 102.40537 -0.5279457 102.40537
31065000000 -0.73768204 5.2470112 -0.73768204 5.2470112 -0.73768204 5.2470112 -0.73768204 5.2470112
31080000000 -0.88217258 -92.845253 -0.88217258 -92.845253 -0.88217258 -92.845253 -0.88217258 -92.845253
31095000000 -0.68377781 168.8047 -0.68377781 168.8047 -0.68377781 168.8047 -0.68377781 168.8047
31110000000 -0.69947481 70.441513 -0.69947481 70.441513 -0.69947481 70.441513 -0.69947481 70.441513
31125000000 -0.64664471 -27.85202 -0.64664471 -27.85202 -0.64664471 -27.85202 -0.64664471 -27.85202
31140000000 -0.59274757 -129.1613 -0.59274757 -129.1613 -0.59274757 -129.1613 -0.59274757 -129.1613
31155000000 -0.87142742 133.68066 -0.87142742 133.68066 -0.87142742 133.68066 -0.87142742 133.68066
31170000000 -0.95935047 35.616863 -0.95935047 35.616863 -0.95935047 35.616863 -0.95935047 35.616863
31185000000 -0.92787319 -62.757904 -0.92787319 -62.757904 -0.92787319 -62.757904 -0.92787319 -62.757904
31200000000 -0.80420977 -162.93108 -0.80420977 -162.93108 -0.80420977 -162.93108 -0.80420977 -162.93108
31215000000 -1.1926078 100.05587 -1.1926078 100.05587 -1.1926078 100.05587 -1.1926078 100.05587
31230000000 -1.040452 2.2621276 -1.040452 2.2621276 -1.040452 2.2621276 -1.040452 2.2621276
31245000000 -0.9783715 -96.558441 -0.9783715 -96.558441 -0.9783715 -96.558441 -0.9783715 -96.558441
31260000000 -1.3121973 166.56969 -1.3121973 166.56969 -1.3121973 166.56969 -1.3121973 166.56969
31275000000 -1.2714049 69.334587 -1.2714049 69.334587 -1.2714049 69.334587 -1.2714049 69.334587
31290000000 -1.0858337 -30.218513 -1.0858337 -30.218513 -1.0858337 -30.218513 -1.0858337 -30.218513
31305000000 -1.2712706 -126.65695 -1.2712706 -126.65695 -1.2712706 -126.65695 -1.2712706 -126.65695
31320000000 -1.0815896 134.95772 -1.0815896 134.95772 -1.0815896 134.95772 -1.0815896 134.95772
31335000000 -1.1909454 36.381119 -1.1909454 36.381119 -1.1909454 36.381119 -1.1909454 36.381119
31350000000 -1.1398685 -60.825054 -1.1398685 -60.825054 -1.1398685 -60.825054 -1.1398685 -60.825054
31365000000 -1.4813514 -159.03136 -1.4813514 -159.03136 -1.4813514 -159.03136 -1.4813514 -159.03136
31380000000 -1.2636044 103.84536 -1.2636044 103.84536 -1.2636044 103.84536 -1.2636044 103.84536
31395000000 -1.036513 5.3971453 -1.036513 5.3971453 -1.036513 5.3971453 -1.036513 5.3971453
31410000000 -1.0366839 -92.994164 -1.0366839 -92.994164 -1.0366839 -92.994164 -1.0366839 -92.994164
31425000000 -1.0456382 169.04468 -1.0456382 169.04468 -1.0456382 169.04468 -1.0456382 169.04468
31440000000 -0.92343998 70.797577 -0.92343998 70.797577 -0.92343998 70.797577 -0.92343998 70.797577
31455000000 -0.86559004 -26.893835 -0.86559004 -26.893835 -0.86559004 -26.893835 -0.86559004 -26.893835
31470000000 -0.65884554 -125.64568 -0.65884554 -125.64568 -0.65884554 -125.64568 -0.65884554 -125.64568
31485000000 -0.73702472 133.60445 -0.73702472 133.60445 -0.73702472 133.60445 -0.73702472 133.60445
31500000000 -0.65017825 35.605312 -0.65017825 35.605312 -0.65017825 35.605312 -0.65017825 35.605312
31515000000 -0.81903791 -61.663128 -0.81903791 -61.663128 -0.81903791 -61.663128 -0.81903791 -61.663128
31530000000 -0.54470104 -159.11821 -0.54470104 -159.11821 -0.54470104 -159.11821 -0.54470104 -159.11821
31545000000 -0.48437312 101.10287 -0.48437312 101.10287 -0.48437312 101.10287 -0.48437312 101.10287
31560000000 -0.7589646 3.3443449 -0.7589646 3.3443449 -0.7589646 3.3443449 -0.7589646 3.3443449
31575000000 -0.66495687 -94.500656 -0.66495687 -94.500656 -0.66495687 -94.500656 -0.66495687 -94.500656
31590000000 -0.55648154 166.99802 -0.55648154 166.99802 -0.55648154 166.99802 -0.55648154 166.99802
31605000000 -0.77314085 67.953239 -0.77314085 67.953239 -0.77314085 67.953239 -0.77314085 67.953239
31620000000 -0.91173446 -30.117893 -0.91173446 -30.117893 -0.91173446 -30.117893 -0.91173446 -30.117893
31635000000 -0.90103024 -129.30127 -0.90103024 -129.30127 -0.90103024 -129.30127 -0.90103024 -129.30127
31650000000 -0.88118196 131.38777 -0.88118196 131.38777 -0.88118196 131.38777 -0.88118196 131.38777
31665000000 -1.1722789 32.783295 -1.1722789 32.783295 -1.1722789 32.783295 -1.1722789 32.783295
31680000000 -1.0337772 -63.282303 -1.0337772 -63.282303 -1.0337772 -63.282303 -1.0337772 -63.282303
31695000000 -0.65762115 -162.19415 -0.65762115 -162.19415 -0.65762115 -162.19415 -0.65762115 -162.19415
31710000000 -0.87149912 99.618446 -0.87149912 99.618446 -0.87149912 99.618446 -0.87149912 99.618446
31725000000 -0.97395164 1.7838091 -0.97395164 1.7838091 -0.97395164 1.7838091 -0.97395164 1.7838091
31740000000 -1.102584 -95.129951 -1.102584 -95.129951 -1.102584 -95.129951 -1.102584 -95.129951
31755000000 -1.0370609 166.63998 -1.0370609 166.63998 -1.0370609 166.63998 -1.0370609 166.63998
31770000000 -1.2226847 68.440567 -1.2226847 68.440567 -1.2226847 68.440567 -1.2226847 68.440567
31785000000 -1.0784769 -29.064548 -1.0784769 -29.064548 -1.0784769 -29.064548 -1.0784769 -29.064548
31800000000 -1.1691602 -127.36493 -1.1691602 -127.36493 -1.1691602 -127.36493 -1.1691602 -127.36493
31815000000 -1.319342 136.10437 -1.319342 136.10437 -1.319342 136.10437 -1.319342 136.10437
31830000000 -1.0619339 37.395527 -1.0619339 37.395527 -1.0619339 37.395527 -1.0619339 37.395527
31845000000 -1.014917 -61.881138 -1.014917 -61.881138 -1.014917 -61.881138 -1.014917 -61.881138
31860000000 -1.292878 -159.40852 -1.292878 -159.40852 -1.292878 -159.40852 -1.292878 -159.40852
31875000000 -1.051083 103.36926 -1.051083 103.36926 -1.051083 103.36926 -1.051083 103.36926
31890000000 -1.0557939 5.532177 -1.0557939 5.532177 -1.0557939 5.532177 -1.0557939 5.532177
31905000000 -0.79289162 -92.420509 -0.79289162 -92.420509 -0.79289162 -92.420509 -0.79289162 -92.420509
31920000000 -0.94590437 165.79985 -0.94590437 165.79985 -0.94590437 165.79985 -0.94590437 165.79985
31935000000 -0.97507817 69.495277 -0.97507817 69.495277 -0.97507817 69.495277 -0.97507817 69.495277
31950000000 -0.60150772 -29.088978 -0.60150772 -29.088978 -0.60150772 -29.088978 -0.60150772 -29.088978
31965000000 -0.57913476 -127.34298 -0.57913476 -127.34298 -0.57913476 -127.34298 -0.57913476 -127.34298
31980000000 -0.12074938 132.98151 -0.12074938 132.98151 -0.12074938 132.98151 -0.12074938 132.98151
31995000000 -0.44063979 34.142689 -0.44063979 34.142689 -0.44063979 34.142689 -0.44063979 34.142689
32010000000 -0.70333058 -63.123497 -0.70333058 -63.123497 -0.70333058 -63.123497 -0.70333058 -63.123497
32025000000 -0.82619047 -160.9964 -0.82619047 -160.9964 -0.82619047 -160.9964 -0.82619047 -160.9964
32040000000 -0.79351807 102.27598 -0.79351807 102.27598 -0.79351807 102.27598 -0.79351807 102.27598
32055000000 -0.75011945 2.7050581 -0.75011945 2.7050581 -0.75011945 2.7050581 -0.75011945 2.7050581
32070000000 -0.93848073 -98.140289 -0.93848073 -98.140289 -0.93848073 -98.140289 -0.93848073 -98.140289
32085000000 -1.0120487 164.99483 -1.0120487 164.99483 -1.0120487 164.99483 -1.0120487 164.99483
32100000000 -0.87388331 66.521172 -0.87388331 66.521172 -0.87388331 66.521172 -0.87388331 66.521172
32115000000 -1.1494939 -32.627075 -1.1494939 -32.627075 -1.1494939 -32.627075 -1.1494939 -32.627075
32130000000 -0.82472044 -127.65132 -0.82472044 -127.65132 -0.82472044 -127.65132 -0.82472044 -127.65132
32145000000 -0.71854424 133.01984 -0.71854424 133.01984 -0.71854424 133.01984 -0.71854424 133.01984
32160000000 -0.9533478 34.15519 -0.9533478 34.15519 -0.9533478 34.15519 -0.9533478 34.15519
32175000000 -0.78164065 -63.940319 -0.78164065 -63.940319 -0.78164065 -63.940319 -0.78164065 -63.940319
32190000000 -0.98401809 -161.27942 -0.98401809 -161.27942 -0.98401809 -161.27942 -0.98401809 -161.27942
32205000000 -1.1405437 101.0686 -1.1405437 101.0686 -1.1405437 101.0686 -1.1405437 101.0686
32220000000 -1.0924448 2.0818787 -1.0924448 2.0818787 -1.0924448 2.0818787 -1.0924448 2.0818787
32235000000 -1.0316026 -94.189987 -1.0316026 -94.189987 -1.0316026 -94.189987 -1.0316026 -94.189987
32250000000 -0.83846849 167.66106 -0.83846849 167.66106 -0.83846849 167.66106 -0.83846849 167.66106
32265000000 -0.98307312 68.203903 -0.98307312 68.203903 -0.98307312 68.203903 -0.98307312 68.203903
32280000000 -0.8284564 -29.72625 -0.8284564 -29.72625 -0.8284564 -29.72625 -0.8284564 -29.72625
32295000000 -1.0095122 -126.46657 -1.0095122 -126.46657 -1.0095122 -126.46657 -1.0095122 -126.46657
32310000000 -0.80428368 135.21869 -0.80428368 135.21869 -0.80428368 135.21869 -0.80428368 135.21869
32325000000 -0.71367413 36.28627 -0.71367413 36.28627 -0.71367413 36.28627 -0.71367413 36.28627
32340000000 -0.85163981 -61.876503 -0.85163981 -61.876503 -0.85163981 -61.876503 -0.85163981 -61.876503
32355000000 -0.94201332 -161.18521 -0.94201332 -161.18521 -0.94201332 -161.18521 -0.94201332 -161.18521
32370000000 -0.83375019 100.91982 -0.83375019 100.91982 -0.83375019 100.91982 -0.83375019 100.91982
32385000000 -0.83425713 3.0287135 -0.83425713 3.0287135 -0.83425713 3.0287135 -0.83425713 3.0287135
32400000000 -0.65825337 -95.192329 -0.65825337 -95.192329 -0.65825337 -95.192329 -0.65825337 -95.192329
32415000000 -0.67760736 164.63039 -0.67760736 164.63039 -0.67760736 164.63039 -0.67760736 164.63039
32430000000 -0.64878875 67.034187 -0.64878875 67.034187 -0.64878875 67.034187 -0.64878875 67.034187
32445000000 -0.69409144 -31.460648 -0.69409144 -31.460648 -0.69409144 -31.460648 -0.69409144 -31.460648
32460000000 -0.79237276 -129.37991 -0.79237276 -129.37991 -0.79237276 -129.37991 -0.79237276 -129.37991
32475000000 -0.73907012 132.03329 -0.73907012 132.03329 -0.73907012 132.03329 -0.73907012 132.03329
32490000000 -0.79924154 34.659344 -0.79924154 34.659344 -0.79924154 34.659344 -0.79924154 34.659344
32505000000 -0.66634369 -65.401352 -0.66634369 -65.401352 -0.66634369 -65.401352 -0.66634369 -65.401352
32520000000 -0.77566761 -162.86269 -0.77566761 -162.86269 -0.77566761 -162.86269 -0.77566761 -162.86269
32535000000 -0.65183789 98.907028 -0.65183789 98.907028 -0.65183789 98.907028 -0.65183789 98.907028
32550000000 -0.98603302 0.78647506 -0.98603302 0.78647506 -0.98603302 0.78647506 -0.98603302 0.78647506
32565000000 -0.74278784 -97.462135 -0.74278784 -97.462135 -0.74278784 -97.462135 -0.74278784 -97.462135
32580000000 -0.82513154 162.38675 -0.82513154 162.38675 -0.82513154 162.38675 -0.82513154 162.38675
32595000000 -1.1274631 64.6278 -1.1274631 64.6278 -1.1274631 64.6278 -1.1274631 64.6278
32610000000 -1.1204543 -32.524017 -1.1204543 -32.524017 -1.1204543 -32.524017 -1.1204543 -32.524017
32625000000 -0.94589591 -130.59827 -0.94589591 -130.59827 -0.94589591 -130.59827 -0.94589591 -130.59827
32640000000 -0.81077915 131.87958 -0.81077915 131.87958 -0.81077915 131.87958 -0.81077915 131.87958
32655000000 -0.90320909 33.349255 -0.90320909 33.349255 -0.90320909 33.349255 -0.90320909 33.349255
32670000000 -1.1711738 -64.416756 -1.1711738 -64.416756 -1.1711738 -64.416756 -1.1711738 -64.416756
32685000000 -1.1192102 -160.32341 -1.1192102 -160.32341 -1.1192102 -160.32341 -1.1192102 -160.32341
32700000000 -1.0565207 100.68671 -1.0565207 100.68671 -1.0565207 100.68671 -1.0565207 100.68671
32715000000 -1.0702162 1.7116448 -1.0702162 1.7116448 -1.0702162 1.7116448 -1.0702162 1.7116448
32730000000 -0.99570662 -96.54184 -0.99570662 -96.54184 -0.99570662 -96.54184 -0.99570662 -96.54184
32745000000 -1.3540207 165.7953 -1.3540207 165.7953 -1.3540207 165.7953 -1.3540207 165.7953
32760000000 -1.101691 68.173088 -1.101691 68.173088 -1.101691 68.173088 -1.101691 68.173088
32775000000 -0.96199715 -30.197271 -0.96199715 -30.197271 -0.96199715 -30.197271 -0.96199715 -30.197271
32790000000 -0.84106702 -128.47566 -0.84106702 -128.47566 -0.84106702 -128.47566 -0.84106702 -128.47566
32805000000 -0.82569551 132.59019 -0.82569551 132.59019 -0.82569551 132.59019 -0.82569551 132.59019
32820000000 -0.7557748 34.931614 -0.7557748 34.931614 -0.7557748 34.931614 -0.7557748 34.931614
32835000000 -0.77513129 -64.017204 -0.77513129 -64.017204 -0.77513129 -64.017204 -0.77513129 -64.017204
32850000000 -0.82223451 -162.54492 -0.82223451 -162.54492 -0.82223451 -162.54492 -0.82223451 -162.54492
32865000000 -1.0464576 98.678238 -1.0464576 98.678238 -1.0464576 98.678238 -1.0464576 98.678238
32880000000 -0.60575759 2.0658455 -0.60575759 2.0658455 -0.60575759 2.0658455 -0.60575759 2.0658455
32895000000 -0.62567955 -98.331207 -0.62567955 -98.331207 -0.62567955 -98.331207 -0.62567955 -98.331207
32910000000 -0.6129117 163.07417 -0.6129117 163.07417 -0.6129117 163.07417 -0.6129117 163.07417
32925000000 -0.4908762 64.244637 -0.4908762 64.244637 -0.4908762 64.244637 -0.4908762 64.244637
32940000000 -0.82790285 -32.516029 -0.82790285 -32.516029 -0.82790285 -32.516029 -0.82790285 -32.516029
32955000000 -0.69871223 -130.89311 -0.69871223 -130.89311 -0.69871223 -130.89311 -0.69871223 -130.89311
