!Keysight Technologies,N5224B,MY57181201,A.12.70.07
!Date: Thursday, July 14, 2022 12:59:09
!Correction: S11(Off) 
!S21(Off) 
!S12(Off) 
!S22(Off) 
!S2P File: Measurements: S11, S21, S12, S22:
# Hz S  dB   R 50
22000000000 -200 45 -30.006197 -124.60769 -200 45 -200 45
22055000000 -200 45 -29.998421 -29.763311 -200 45 -200 45
22110000000 -200 45 -29.865303 64.16642 -200 45 -200 45
22165000000 -200 45 -29.766743 157.51144 -200 45 -200 45
22220000000 -200 45 -29.867592 -110.11395 -200 45 -200 45
22275000000 -200 45 -30.22234 -14.90239 -200 45 -200 45
22330000000 -200 45 -29.746548 78.395264 -200 45 -200 45
22385000000 -200 45 -30.045544 173.10962 -200 45 -200 45
22440000000 -200 45 -29.595081 -92.768982 -200 45 -200 45
22495000000 -200 45 -29.820452 0.7837441 -200 45 -200 45
22550000000 -200 45 -29.786993 93.170059 -200 45 -200 45
22605000000 -200 45 -29.91885 -171.46547 -200 45 -200 45
22660000000 -200 45 -29.690191 -75.640854 -200 45 -200 45
22715000000 -200 45 -29.749889 16.209602 -200 45 -200 45
22770000000 -200 45 -29.560299 111.38489 -200 45 -200 45
22825000000 -200 45 -30.036276 -155.21921 -200 45 -200 45
22880000000 -200 45 -29.605679 -59.96376 -200 45 -200 45
22935000000 -200 45 -29.853149 33.554977 -200 45 -200 45
22990000000 -200 45 -29.846682 129.00966 -200 45 -200 45
23045000000 -200 45 -29.741514 -137.66841 -200 45 -200 45
23100000000 -200 45 -29.59164 -42.286644 -200 45 -200 45
23155000000 -200 45 -29.68305 49.133469 -200 45 -200 45
23210000000 -200 45 -29.874456 145.42195 -200 45 -200 45
23265000000 -200 45 -29.906036 -120.52765 -200 45 -200 45
23320000000 -200 45 -29.735367 -24.323681 -200 45 -200 45
23375000000 -200 45 -29.86952 68.489304 -200 45 -200 45
23430000000 -200 45 -29.887583 164.17282 -200 45 -200 45
23485000000 -200 45 -29.824724 -102.76366 -200 45 -200 45
23540000000 -200 45 -29.944536 -9.1020947 -200 45 -200 45
23595000000 -200 45 -30.058443 84.784882 -200 45 -200 45
23650000000 -200 45 -30.059639 -177.49629 -200 45 -200 45
23705000000 -200 45 -29.840849 -85.023804 -200 45 -200 45
23760000000 -200 45 -30.143553 8.8729401 -200 45 -200 45
23815000000 -200 45 -30.067047 104.2268 -200 45 -200 45
23870000000 -200 45 -30.088959 -160.8839 -200 45 -200 45
23925000000 -200 45 -30.119623 -67.216011 -200 45 -200 45
23980000000 -200 45 -30.338257 28.289701 -200 45 -200 45
24035000000 -200 45 -30.090393 124.16171 -200 45 -200 45
24090000000 -200 45 -29.954323 -141.27379 -200 45 -200 45
24145000000 -200 45 -30.083256 -48.138279 -200 45 -200 45
24200000000 -200 45 -30.197432 47.579193 -200 45 -200 45
24255000000 -200 45 -30.439568 143.07672 -200 45 -200 45
24310000000 -200 45 -30.189768 -120.15533 -200 45 -200 45
24365000000 -200 45 -30.029593 -27.036142 -200 45 -200 45
24420000000 -200 45 -30.358427 66.558769 -200 45 -200 45
24475000000 -200 45 -30.713051 162.70345 -200 45 -200 45
24530000000 -200 45 -30.509907 -99.279716 -200 45 -200 45
24585000000 -200 45 -30.402279 -4.9285288 -200 45 -200 45
24640000000 -200 45 -30.28936 90.22596 -200 45 -200 45
24695000000 -200 45 -30.29842 -176.0873 -200 45 -200 45
24750000000 -200 45 -30.403612 -81.585258 -200 45 -200 45
24805000000 -200 45 -30.535688 12.215425 -200 45 -200 45
24860000000 -200 45 -30.997276 110.87453 -200 45 -200 45
24915000000 -200 45 -30.597239 -152.92915 -200 45 -200 45
24970000000 -200 45 -30.426365 -59.120781 -200 45 -200 45
25025000000 -200 45 -30.225954 34.099216 -200 45 -200 45
25080000000 -200 45 -30.438314 127.81511 -200 45 -200 45
25135000000 -200 45 -30.726961 -136.22707 -200 45 -200 45
25190000000 -200 45 -30.775364 -39.467487 -200 45 -200 45
25245000000 -200 45 -30.458082 57.197502 -200 45 -200 45
25300000000 -200 45 -30.336645 152.13882 -200 45 -200 45
25355000000 -200 45 -30.22929 -113.61473 -200 45 -200 45
25410000000 -200 45 -30.427073 -17.96166 -200 45 -200 45
25465000000 -200 45 -30.306824 76.391609 -200 45 -200 45
25520000000 -200 45 -30.64015 172.80048 -200 45 -200 45
25575000000 -200 45 -30.554632 -89.638092 -200 45 -200 45
25630000000 -200 45 -30.42197 4.4691243 -200 45 -200 45
25685000000 -200 45 -30.395168 99.854546 -200 45 -200 45
25740000000 -200 45 -30.502007 -165.03717 -200 45 -200 45
25795000000 -200 45 -30.563562 -68.808632 -200 45 -200 45
25850000000 -200 45 -30.304125 25.749189 -200 45 -200 45
25905000000 -200 45 -30.568285 120.19226 -200 45 -200 45
25960000000 -200 45 -30.476295 -143.37543 -200 45 -200 45
26015000000 -200 45 -30.3113 -48.102333 -200 45 -200 45
26070000000 -200 45 -30.109148 45.235676 -200 45 -200 45
26125000000 -200 45 -30.606712 139.3949 -200 45 -200 45
26180000000 -200 45 -30.714796 -122.7933 -200 45 -200 45
26235000000 -200 45 -30.529482 -25.588335 -200 45 -200 45
26290000000 -200 45 -29.977133 68.211647 -200 45 -200 45
26345000000 -200 45 -30.221411 161.87253 -200 45 -200 45
26400000000 -200 45 -30.430357 -101.95971 -200 45 -200 45
26455000000 -200 45 -30.479729 -5.3515644 -200 45 -200 45
26510000000 -200 45 -30.301306 90.317146 -200 45 -200 45
26565000000 -200 45 -30.15061 -173.32074 -200 45 -200 45
26620000000 -200 45 -30.080009 -78.112358 -200 45 -200 45
26675000000 -200 45 -30.101318 15.578648 -200 45 -200 45
26730000000 -200 45 -30.194296 111.74004 -200 45 -200 45
26785000000 -200 45 -30.123901 -151.97292 -200 45 -200 45
26840000000 -200 45 -30.000002 -56.371246 -200 45 -200 45
26895000000 -200 45 -30.121222 39.270107 -200 45 -200 45
26950000000 -200 45 -29.972248 133.4752 -200 45 -200 45
27005000000 -200 45 -30.184462 -130.56346 -200 45 -200 45
27060000000 -200 45 -30.22695 -33.672199 -200 45 -200 45
27115000000 -200 45 -30.022852 63.112057 -200 45 -200 45
27170000000 -200 45 -29.699905 157.69031 -200 45 -200 45
27225000000 -200 45 -29.661358 -109.15839 -200 45 -200 45
27280000000 -200 45 -29.769293 -13.2744 -200 45 -200 45
27335000000 -200 45 -30.026016 82.359329 -200 45 -200 45
27390000000 -200 45 -29.879854 179.2401 -200 45 -200 45
27445000000 -200 45 -29.913326 -85.40667 -200 45 -200 45
27500000000 -200 45 -29.645269 9.7545233 -200 45 -200 45
27555000000 -200 45 -29.89679 104.6013 -200 45 -200 45
27610000000 -200 45 -29.928411 -158.51994 -200 45 -200 45
27665000000 -200 45 -29.902374 -63.103157 -200 45 -200 45
27720000000 -200 45 -29.593679 32.663185 -200 45 -200 45
27775000000 -200 45 -29.743422 126.54691 -200 45 -200 45
27830000000 -200 45 -29.816862 -137.98201 -200 45 -200 45
27885000000 -200 45 -29.893499 -42.728767 -200 45 -200 45
27940000000 -200 45 -29.916056 54.688152 -200 45 -200 45
27995000000 -200 45 -29.942049 149.03885 -200 45 -200 45
28050000000 -200 45 -29.809919 -113.36983 -200 45 -200 45
28105000000 -200 45 -29.980289 -18.637321 -200 45 -200 45
28160000000 -200 45 -29.763506 77.871216 -200 45 -200 45
28215000000 -200 45 -29.585012 170.63121 -200 45 -200 45
28270000000 -200 45 -30.076191 -93.799347 -200 45 -200 45
28325000000 -200 45 -30.312729 3.1937249 -200 45 -200 45
28380000000 -200 45 -30.170708 101.23232 -200 45 -200 45
28435000000 -200 45 -29.705858 -163.46521 -200 45 -200 45
28490000000 -200 45 -29.89097 -70.738068 -200 45 -200 45
28545000000 -200 45 -29.99305 25.032049 -200 45 -200 45
28600000000 -200 45 -30.384089 121.141 -200 45 -200 45
28655000000 -200 45 -30.248018 -142.50922 -200 45 -200 45
28710000000 -200 45 -30.274073 -45.551483 -200 45 -200 45
28765000000 -200 45 -30.144724 50.851738 -200 45 -200 45
28820000000 -200 45 -30.040541 144.16714 -200 45 -200 45
28875000000 -200 45 -30.186285 -120.26975 -200 45 -200 45
28930000000 -200 45 -30.204214 -23.23679 -200 45 -200 45
28985000000 -200 45 -30.240511 74.02346 -200 45 -200 45
29040000000 -200 45 -30.13316 169.36212 -200 45 -200 45
29095000000 -200 45 -29.975809 -95.242302 -200 45 -200 45
29150000000 -200 45 -29.905745 0.12825873 -200 45 -200 45
29205000000 -200 45 -30.060301 96.20076 -200 45 -200 45
29260000000 -200 45 -30.14193 -166.77301 -200 45 -200 45
29315000000 -200 45 -30.11368 -70.586006 -200 45 -200 45
29370000000 -200 45 -29.723816 25.866629 -200 45 -200 45
29425000000 -200 45 -29.700506 120.98634 -200 45 -200 45
29480000000 -200 45 -29.918562 -142.1571 -200 45 -200 45
29535000000 -200 45 -29.849352 -47.109314 -200 45 -200 45
29590000000 -200 45 -29.93191 48.78458 -200 45 -200 45
29645000000 -200 45 -29.608194 147.68713 -200 45 -200 45
29700000000 -200 45 -29.57361 -117.19174 -200 45 -200 45
29755000000 -200 45 -29.30699 -22.50729 -200 45 -200 45
29810000000 -200 45 -29.384893 72.565338 -200 45 -200 45
29865000000 -200 45 -29.201401 168.13837 -200 45 -200 45
29920000000 -200 45 -29.339533 -96.193344 -200 45 -200 45
29975000000 -200 45 -29.459564 -1.5052127 -200 45 -200 45
30030000000 -200 45 -29.522341 96.322464 -200 45 -200 45
30085000000 -200 45 -29.080046 -168.25749 -200 45 -200 45
30140000000 -200 45 -29.223616 -73.756554 -200 45 -200 45
30195000000 -200 45 -29.436863 21.686937 -200 45 -200 45
30250000000 -200 45 -29.466459 117.04711 -200 45 -200 45
30305000000 -200 45 -29.147064 -144.50336 -200 45 -200 45
30360000000 -200 45 -29.036108 -50.230091 -200 45 -200 45
30415000000 -200 45 -28.991396 43.836243 -200 45 -200 45
30470000000 -200 45 -29.138058 138.22475 -200 45 -200 45
30525000000 -200 45 -29.074881 -125.53758 -200 45 -200 45
30580000000 -200 45 -29.476612 -28.680223 -200 45 -200 45
30635000000 -200 45 -29.234974 67.896713 -200 45 -200 45
30690000000 -200 45 -29.063284 162.79005 -200 45 -200 45
30745000000 -200 45 -28.933495 -101.96048 -200 45 -200 45
30800000000 -200 45 -29.243155 -9.0936346 -200 45 -200 45
30855000000 -200 45 -29.684355 89.648933 -200 45 -200 45
30910000000 -200 45 -29.564831 -173.662 -200 45 -200 45
30965000000 -200 45 -29.341038 -76.650894 -200 45 -200 45
31020000000 -200 45 -29.276861 19.716106 -200 45 -200 45
31075000000 -200 45 -29.250492 112.18433 -200 45 -200 45
31130000000 -200 45 -29.338276 -152.44676 -200 45 -200 45
31185000000 -200 45 -29.56395 -55.628468 -200 45 -200 45
31240000000 -200 45 -29.789034 41.346619 -200 45 -200 45
31295000000 -200 45 -29.499144 138.69563 -200 45 -200 45
31350000000 -200 45 -29.188208 -128.27417 -200 45 -200 45
31405000000 -200 45 -29.308571 -32.76582 -200 45 -200 45
31460000000 -200 45 -29.658152 62.504337 -200 45 -200 45
31515000000 -200 45 -30.255291 160.37254 -200 45 -200 45
31570000000 -200 45 -30.069298 -100.88602 -200 45 -200 45
31625000000 -200 45 -29.588942 -6.4479957 -200 45 -200 45
31680000000 -200 45 -29.601778 91.233192 -200 45 -200 45
31735000000 -200 45 -29.639416 -175.35399 -200 45 -200 45
31790000000 -200 45 -29.854809 -79.323624 -200 45 -200 45
31845000000 -200 45 -29.895678 18.835516 -200 45 -200 45
31900000000 -200 45 -29.725039 115.82633 -200 45 -200 45
31955000000 -200 45 -29.528128 -145.71175 -200 45 -200 45
32010000000 -200 45 -29.406574 -54.052002 -200 45 -200 45
32065000000 -200 45 -29.437487 39.731552 -200 45 -200 45
32120000000 -200 45 -30.047892 138.19713 -200 45 -200 45
32175000000 -200 45 -29.9405 -123.189 -200 45 -200 45
32230000000 -200 45 -29.472742 -26.301468 -200 45 -200 45
32285000000 -200 45 -29.124331 67.194336 -200 45 -200 45
32340000000 -200 45 -29.097834 160.42331 -200 45 -200 45
32395000000 -200 45 -29.330822 -102.63129 -200 45 -200 45
32450000000 -200 45 -29.758982 -6.7080703 -200 45 -200 45
32505000000 -200 45 -29.540791 93.359398 -200 45 -200 45
32560000000 -200 45 -29.016638 -171.94606 -200 45 -200 45
32615000000 -200 45 -28.85165 -77.554634 -200 45 -200 45
32670000000 -200 45 -29.193598 14.079102 -200 45 -200 45
32725000000 -200 45 -29.760836 109.67751 -200 45 -200 45
32780000000 -200 45 -29.707241 -148.54446 -200 45 -200 45
32835000000 -200 45 -29.423264 -53.176399 -200 45 -200 45
32890000000 -200 45 -29.069927 43.670506 -200 45 -200 45
32945000000 -200 45 -29.158556 136.27267 -200 45 -200 45
33000000000 -200 45 -29.462086 -129.74498 -200 45 -200 45
