!CSV A.01.01
!Keysight Technologies,N5224B,MY57181201,A.12.70.07
!Date: Thursday, July 14, 2022 17:29:13
!Source: Standard

BEGIN CH1_DATA
Freq(Hz),S12(DB),S12(DEG)
29000000000,-24.176023,-48.068043
29020000000,-24.279099,-63.211086
29040000000,-24.254528,-81.561646
29060000000,-24.101887,-96.483047
29080000000,-24.190426,-114.65507
29100000000,-24.281017,-131.69099
29120000000,-24.357121,-147.17041
29140000000,-24.082357,-164.14568
29160000000,-24.042549,179.08998
29180000000,-23.694939,161.27931
29200000000,-23.804993,142.87297
29220000000,-23.893064,124.99957
29240000000,-23.82317,108.61387
29260000000,-23.926844,91.302277
29280000000,-23.755722,75.232887
29300000000,-23.874121,57.400597
29320000000,-23.878578,39.647221
29340000000,-23.886206,22.856911
29360000000,-23.806614,5.0877366
29380000000,-24.069302,-12.107469
29400000000,-23.978449,-29.35014
29420000000,-24.261368,-45.192936
29440000000,-23.93638,-61.620388
29460000000,-23.902147,-79.576874
29480000000,-23.933714,-98.205154
29500000000,-24.075947,-113.64825
29520000000,-24.050741,-130.4213
29540000000,-24.176453,-146.64481
29560000000,-24.048834,-161.5006
29580000000,-23.760469,-178.55589
29600000000,-23.689079,162.30022
29620000000,-23.547415,146.2037
29640000000,-23.625837,126.78265
29660000000,-23.748381,110.36763
29680000000,-23.545797,94.080872
29700000000,-23.296427,75.461014
29720000000,-23.131247,57.660896
29740000000,-23.3489,39.288761
29760000000,-23.449776,20.747597
29780000000,-23.477837,5.0084391
29800000000,-23.700943,-12.802754
29820000000,-23.76569,-29.316719
29840000000,-23.754551,-45.816605
29860000000,-23.881079,-62.557198
29880000000,-23.704346,-80.883774
29900000000,-23.920719,-99.076912
29920000000,-24.217422,-115.65459
29940000000,-24.132799,-131.00696
29960000000,-24.13879,-147.67049
29980000000,-23.913406,-163.9465
30000000000,-23.832672,-179.5809
30020000000,-23.636883,162.46445
30040000000,-23.639673,144.98259
30060000000,-23.72945,129.0583
30080000000,-23.653614,112.23063
30100000000,-23.486813,96.346062
30120000000,-23.060196,77.897476
30140000000,-23.054148,57.998703
30160000000,-23.149784,40.127953
30180000000,-23.131622,22.531067
30200000000,-23.314539,3.7190239
30220000000,-23.455875,-11.447596
30240000000,-23.335615,-29.829376
30260000000,-23.274166,-46.294197
30280000000,-23.424078,-65.712074
30300000000,-23.658901,-82.099831
30320000000,-23.779558,-98.463615
30340000000,-23.755264,-116.27753
30360000000,-24.23543,-132.31975
30380000000,-23.921278,-147.15309
30400000000,-24.037582,-166.70667
30420000000,-23.90366,178.34425
30440000000,-24.098497,160.86389
30460000000,-23.900623,143.38095
30480000000,-24.184277,129.13045
30500000000,-23.806841,112.52566
30520000000,-23.535107,96.628227
30540000000,-23.286091,77.865891
30560000000,-23.439751,60.288551
30580000000,-23.329987,42.352665
30600000000,-23.44363,26.828506
30620000000,-23.189095,7.7640843
30640000000,-23.19632,-8.6765623
30660000000,-23.415323,-27.247164
30680000000,-22.866299,-44.415085
30700000000,-23.236702,-65.578629
30720000000,-23.604294,-82.162689
30740000000,-23.590742,-98.036171
30760000000,-23.623257,-114.46767
30780000000,-23.522264,-132.92061
30800000000,-23.72081,-148.97417
30820000000,-23.853693,-165.64366
30840000000,-23.68778,175.23279
30860000000,-24.125801,162.75212
30880000000,-23.984444,143.59258
30900000000,-24.042124,127.75291
30920000000,-24.303419,112.43926
30940000000,-23.852856,95.314606
30960000000,-23.76063,77.838608
30980000000,-23.790184,60.955772
31000000000,-23.919315,42.902134
31020000000,-23.820471,28.314222
31040000000,-23.696941,12.79581
31060000000,-23.047361,-7.4372931
31080000000,-23.341009,-24.199532
31100000000,-23.283842,-42.563038
31120000000,-23.189388,-58.69627
31140000000,-23.266108,-78.571213
31160000000,-23.554449,-94.266899
31180000000,-23.217613,-111.73018
31200000000,-23.456219,-129.84344
31220000000,-23.518913,-148.11055
31240000000,-23.553743,-164.62956
31260000000,-23.744259,178.02802
31280000000,-23.692722,161.04556
31300000000,-24.018852,145.40358
31320000000,-23.663372,128.30049
31340000000,-23.696949,111.51669
31360000000,-23.741243,94.703056
31380000000,-23.824039,78.621506
31400000000,-23.777302,61.633129
31420000000,-23.768475,44.30455
31440000000,-23.901897,27.766619
31460000000,-23.748877,12.134098
31480000000,-23.81205,-5.1990061
31500000000,-23.607937,-22.357166
31520000000,-23.683165,-39.259178
31540000000,-23.312414,-57.24226
31560000000,-23.672796,-74.691223
31580000000,-23.536238,-90.548103
31600000000,-23.241682,-107.16935
31620000000,-22.941628,-126.04075
31640000000,-23.30534,-145.87411
31660000000,-23.501564,-159.69418
31680000000,-23.092327,-177.57025
31700000000,-23.240786,164.50508
31720000000,-23.446571,147.56197
31740000000,-23.566833,131.0085
31760000000,-23.410515,115.07418
31780000000,-23.33391,96.943199
31800000000,-23.473923,79.167366
31820000000,-23.500433,62.140781
31840000000,-23.577152,45.294792
31860000000,-23.48181,28.721092
31880000000,-23.422478,12.03327
31900000000,-23.366165,-6.1817403
31920000000,-23.480066,-22.278748
31940000000,-23.55456,-39.411343
31960000000,-23.623039,-54.598118
31980000000,-23.216314,-72.327324
32000000000,-23.463123,-90.784126
32020000000,-23.619389,-104.48164
32040000000,-23.168531,-122.42014
32060000000,-23.138496,-141.6572
32080000000,-23.246611,-158.63547
32100000000,-23.452089,-175.82874
32120000000,-23.078392,167.41054
32140000000,-23.11179,149.80594
32160000000,-23.182079,132.82593
32180000000,-23.067921,114.96502
32200000000,-23.271858,98.557312
32220000000,-23.173676,81.788635
32240000000,-23.099739,64.450928
32260000000,-23.159834,46.163094
32280000000,-23.29899,29.502613
32300000000,-23.365463,12.068432
32320000000,-23.388918,-3.4859886
32340000000,-23.142593,-21.73502
32360000000,-23.334545,-39.924431
32380000000,-23.480227,-55.832428
32400000000,-23.298616,-71.886742
32420000000,-23.253969,-89.768883
32440000000,-23.19363,-106.28709
32460000000,-23.413414,-122.69218
32480000000,-23.125582,-138.85701
32500000000,-23.282127,-157.86255
32520000000,-23.25104,-173.39946
32540000000,-23.281221,168.38861
32560000000,-23.230192,152.0601
32580000000,-23.335398,134.37726
32600000000,-22.998329,117.47528
32620000000,-23.260839,99.977585
32640000000,-23.091959,82.280334
32660000000,-23.245356,66.036781
32680000000,-23.32366,48.499287
32700000000,-23.15617,32.576878
32720000000,-23.277948,14.686652
32740000000,-23.22698,-0.78584695
32760000000,-23.197836,-18.997488
32780000000,-23.180075,-33.83609
32800000000,-23.049644,-52.85104
32820000000,-23.140585,-69.122292
32840000000,-23.331448,-86.094398
32860000000,-23.127813,-102.98087
32880000000,-23.030172,-118.97859
32900000000,-22.841074,-138.76375
32920000000,-22.932909,-156.63342
32940000000,-23.202473,-173.38954
32960000000,-23.050659,171.64771
32980000000,-22.792336,152.67947
33000000000,-22.994556,135.70634
END

