!Keysight Technologies,N5224B,MY57181201,A.12.70.07
!Date: Thursday, July 14, 2022 17:11:49
!Correction: S11(Response(S21)) 
!S21(Response(S21)) 
!S12(Response(S21)) 
!S22(Response(S21)) 
!S2P File: Measurements: S11, S21, S12, S22:
# Hz S  MA   R 50
30000000000 0.85401082 139.01654 0.85401082 139.01654 0.85401082 139.01654 0.85401082 139.01654
30015000000 0.85382152 39.490238 0.85382152 39.490238 0.85382152 39.490238 0.85382152 39.490238
30030000000 0.85507143 -56.379154 0.85507143 -56.379154 0.85507143 -56.379154 0.85507143 -56.379154
30045000000 0.88282967 -153.4512 0.88282967 -153.4512 0.88282967 -153.4512 0.88282967 -153.4512
30060000000 0.88686174 107.19789 0.88686174 107.19789 0.88686174 107.19789 0.88686174 107.19789
30075000000 0.89770812 8.6150084 0.89770812 8.6150084 0.89770812 8.6150084 0.89770812 8.6150084
30090000000 0.90889657 -89.909164 0.90889657 -89.909164 0.90889657 -89.909164 0.90889657 -89.909164
30105000000 0.93100393 170.20805 0.93100393 170.20805 0.93100393 170.20805 0.93100393 170.20805
30120000000 0.91068417 70.464531 0.91068417 70.464531 0.91068417 70.464531 0.91068417 70.464531
30135000000 0.9007321 -25.42165 0.9007321 -25.42165 0.9007321 -25.42165 0.9007321 -25.42165
30150000000 0.93944079 -124.29644 0.93944079 -124.29644 0.93944079 -124.29644 0.93944079 -124.29644
30165000000 0.93437672 135.68292 0.93437672 135.68292 0.93437672 135.68292 0.93437672 135.68292
30180000000 0.9224149 37.782562 0.9224149 37.782562 0.9224149 37.782562 0.9224149 37.782562
30195000000 0.90562147 -58.619274 0.90562147 -58.619274 0.90562147 -58.619274 0.90562147 -58.619274
30210000000 0.95201898 -157.4827 0.95201898 -157.4827 0.95201898 -157.4827 0.95201898 -157.4827
30225000000 0.93930274 102.87535 0.93930274 102.87535 0.93930274 102.87535 0.93930274 102.87535
30240000000 0.93304545 5.1191425 0.93304545 5.1191425 0.93304545 5.1191425 0.93304545 5.1191425
30255000000 0.9213258 -93.295212 0.9213258 -93.295212 0.9213258 -93.295212 0.9213258 -93.295212
30270000000 0.91510737 166.55104 0.91510737 166.55104 0.91510737 166.55104 0.91510737 166.55104
30285000000 0.88781583 69.890495 0.88781583 69.890495 0.88781583 69.890495 0.88781583 69.890495
30300000000 0.92331272 -29.330393 0.92331272 -29.330393 0.92331272 -29.330393 0.92331272 -29.330393
30315000000 0.91701269 -130.19868 0.91701269 -130.19868 0.91701269 -130.19868 0.91701269 -130.19868
30330000000 0.89317828 131.15189 0.89317828 131.15189 0.89317828 131.15189 0.89317828 131.15189
30345000000 0.85126972 34.911999 0.85126972 34.911999 0.85126972 34.911999 0.85126972 34.911999
30360000000 0.88456547 -61.684948 0.88456547 -61.684948 0.88456547 -61.684948 0.88456547 -61.684948
30375000000 0.88393211 -162.36316 0.88393211 -162.36316 0.88393211 -162.36316 0.88393211 -162.36316
30390000000 0.8472119 101.47047 0.8472119 101.47047 0.8472119 101.47047 0.8472119 101.47047
30405000000 0.85412627 4.488481 0.85412627 4.488481 0.85412627 4.488481 0.85412627 4.488481
30420000000 0.85977846 -93.642761 0.85977846 -93.642761 0.85977846 -93.642761 0.85977846 -93.642761
30435000000 0.83739603 167.60995 0.83739603 167.60995 0.83739603 167.60995 0.83739603 167.60995
30450000000 0.84025234 71.98452 0.84025234 71.98452 0.84025234 71.98452 0.84025234 71.98452
30465000000 0.85428983 -26.123608 0.85428983 -26.123608 0.85428983 -26.123608 0.85428983 -26.123608
30480000000 0.85131019 -124.43494 0.85131019 -124.43494 0.85131019 -124.43494 0.85131019 -124.43494
30495000000 0.83840531 137.52577 0.83840531 137.52577 0.83840531 137.52577 0.83840531 137.52577
30510000000 0.85671365 41.670666 0.85671365 41.670666 0.85671365 41.670666 0.85671365 41.670666
30525000000 0.89553142 -58.207802 0.89553142 -58.207802 0.89553142 -58.207802 0.89553142 -58.207802
30540000000 0.86702269 -157.15231 0.86702269 -157.15231 0.86702269 -157.15231 0.86702269 -157.15231
30555000000 0.87349778 104.71497 0.87349778 104.71497 0.87349778 104.71497 0.87349778 104.71497
30570000000 0.89710432 7.5870953 0.89710432 7.5870953 0.89710432 7.5870953 0.89710432 7.5870953
30585000000 0.91471535 -90.77169 0.91471535 -90.77169 0.91471535 -90.77169 0.91471535 -90.77169
30600000000 0.9212482 170.65155 0.9212482 170.65155 0.9212482 170.65155 0.9212482 170.65155
30615000000 0.9381007 72.47773 0.9381007 72.47773 0.9381007 72.47773 0.9381007 72.47773
30630000000 0.9303776 -26.908478 0.9303776 -26.908478 0.9303776 -26.908478 0.9303776 -26.908478
30645000000 0.92548597 -124.84338 0.92548597 -124.84338 0.92548597 -124.84338 0.92548597 -124.84338
30660000000 0.96007216 136.95827 0.96007216 136.95827 0.96007216 136.95827 0.96007216 136.95827
30675000000 0.94816142 37.027668 0.94816142 37.027668 0.94816142 37.027668 0.94816142 37.027668
30690000000 0.92289138 -62.472912 0.92289138 -62.472912 0.92289138 -62.472912 0.92289138 -62.472912
30705000000 0.91741127 -159.3316 0.91741127 -159.3316 0.91741127 -159.3316 0.91741127 -159.3316
30720000000 0.91324025 101.94101 0.91324025 101.94101 0.91324025 101.94101 0.91324025 101.94101
30735000000 0.9141379 2.3583033 0.9141379 2.3583033 0.9141379 2.3583033 0.9141379 2.3583033
30750000000 0.8954953 -96.153816 0.8954953 -96.153816 0.8954953 -96.153816 0.8954953 -96.153816
30765000000 0.91750771 166.65434 0.91750771 166.65434 0.91750771 166.65434 0.91750771 166.65434
30780000000 0.90459263 67.201836 0.90459263 67.201836 0.90459263 67.201836 0.90459263 67.201836
30795000000 0.87275428 -30.469557 0.87275428 -30.469557 0.87275428 -30.469557 0.87275428 -30.469557
30810000000 0.8597011 -127.73022 0.8597011 -127.73022 0.8597011 -127.73022 0.8597011 -127.73022
30825000000 0.85853285 133.71307 0.85853285 133.71307 0.85853285 133.71307 0.85853285 133.71307
30840000000 0.8513906 35.32494 0.8513906 35.32494 0.8513906 35.32494 0.8513906 35.32494
30855000000 0.85299307 -61.624809 0.85299307 -61.624809 0.85299307 -61.624809 0.85299307 -61.624809
30870000000 0.87009674 -157.60414 0.87009674 -157.60414 0.87009674 -157.60414 0.87009674 -157.60414
30885000000 0.86963624 103.10156 0.86963624 103.10156 0.86963624 103.10156 0.86963624 103.10156
30900000000 0.86936933 5.3885984 0.86936933 5.3885984 0.86936933 5.3885984 0.86936933 5.3885984
30915000000 0.87829977 -92.374634 0.87829977 -92.374634 0.87829977 -92.374634 0.87829977 -92.374634
30930000000 0.87353057 169.31857 0.87353057 169.31857 0.87353057 169.31857 0.87353057 169.31857
30945000000 0.87283021 70.424438 0.87283021 70.424438 0.87283021 70.424438 0.87283021 70.424438
30960000000 0.87795269 -26.003675 0.87795269 -26.003675 0.87795269 -26.003675 0.87795269 -26.003675
30975000000 0.90014052 -125.80891 0.90014052 -125.80891 0.90014052 -125.80891 0.90014052 -125.80891
30990000000 0.86993825 133.92273 0.86993825 133.92273 0.86993825 133.92273 0.86993825 133.92273
31005000000 0.86545867 38.420235 0.86545867 38.420235 0.86545867 38.420235 0.86545867 38.420235
31020000000 0.89012522 -58.715038 0.89012522 -58.715038 0.89012522 -58.715038 0.89012522 -58.715038
31035000000 0.92515188 -158.26151 0.92515188 -158.26151 0.92515188 -158.26151 0.92515188 -158.26151
31050000000 0.92818809 102.07723 0.92818809 102.07723 0.92818809 102.07723 0.92818809 102.07723
31065000000 0.90052229 6.0880365 0.90052229 6.0880365 0.90052229 6.0880365 0.90052229 6.0880365
31080000000 0.90763873 -91.806396 0.90763873 -91.806396 0.90763873 -91.806396 0.90763873 -91.806396
31095000000 0.94105661 168.89262 0.94105661 168.89262 0.94105661 168.89262 0.94105661 168.89262
31110000000 0.91532844 69.982903 0.91532844 69.982903 0.91532844 69.982903 0.91532844 69.982903
31125000000 0.92763048 -26.991722 0.92763048 -26.991722 0.92763048 -26.991722 0.92763048 -26.991722
31140000000 0.94459438 -128.75352 0.94459438 -128.75352 0.94459438 -128.75352 0.94459438 -128.75352
31155000000 0.91889608 134.23148 0.91889608 134.23148 0.91889608 134.23148 0.91889608 134.23148
31170000000 0.91234225 35.603783 0.91234225 35.603783 0.91234225 35.603783 0.91234225 35.603783
31185000000 0.91454291 -63.542316 0.91454291 -63.542316 0.91454291 -63.542316 0.91454291 -63.542316
31200000000 0.91059768 -163.00441 0.91059768 -163.00441 0.91059768 -163.00441 0.91059768 -163.00441
31215000000 0.88335145 99.424133 0.88335145 99.424133 0.88335145 99.424133 0.88335145 99.424133
31230000000 0.88771451 1.2346491 0.88771451 1.2346491 0.88771451 1.2346491 0.88771451 1.2346491
31245000000 0.89696968 -96.965996 0.89696968 -96.965996 0.89696968 -96.965996 0.89696968 -96.965996
31260000000 0.85473478 165.3996 0.85473478 165.3996 0.85473478 165.3996 0.85473478 165.3996
31275000000 0.85265893 68.724838 0.85265893 68.724838 0.85265893 68.724838 0.85265893 68.724838
31290000000 0.87832111 -31.443579 0.87832111 -31.443579 0.87832111 -31.443579 0.87832111 -31.443579
31305000000 0.84055465 -127.87055 0.84055465 -127.87055 0.84055465 -127.87055 0.84055465 -127.87055
31320000000 0.85516137 135.85205 0.85516137 135.85205 0.85516137 135.85205 0.85516137 135.85205
31335000000 0.86271614 37.517448 0.86271614 37.517448 0.86271614 37.517448 0.86271614 37.517448
31350000000 0.87969309 -60.502842 0.87969309 -60.502842 0.87969309 -60.502842 0.87969309 -60.502842
31365000000 0.840707 -158.69502 0.840707 -158.69502 0.840707 -158.69502 0.840707 -158.69502
31380000000 0.86352831 104.98719 0.86352831 104.98719 0.86352831 104.98719 0.86352831 104.98719
31395000000 0.90068954 6.4457073 0.90068954 6.4457073 0.90068954 6.4457073 0.90068954 6.4457073
31410000000 0.9168238 -92.294083 0.9168238 -92.294083 0.9168238 -92.294083 0.9168238 -92.294083
31425000000 0.89347869 168.40417 0.89347869 168.40417 0.89347869 168.40417 0.89347869 168.40417
31440000000 0.91859663 71.094643 0.91859663 71.094643 0.91859663 71.094643 0.91859663 71.094643
31455000000 0.91711062 -27.696571 0.91711062 -27.696571 0.91711062 -27.696571 0.91711062 -27.696571
31470000000 0.93486321 -127.16838 0.93486321 -127.16838 0.93486321 -127.16838 0.93486321 -127.16838
31485000000 0.92108065 132.51308 0.92108065 132.51308 0.92108065 132.51308 0.92108065 132.51308
31500000000 0.9172858 35.066566 0.9172858 35.066566 0.9172858 35.066566 0.9172858 35.066566
31515000000 0.91188419 -62.243412 0.91188419 -62.243412 0.91188419 -62.243412 0.91188419 -62.243412
31530000000 0.94198948 -160.05885 0.94198948 -160.05885 0.94198948 -160.05885 0.94198948 -160.05885
31545000000 0.92170805 99.924919 0.92170805 99.924919 0.92170805 99.924919 0.92170805 99.924919
31560000000 0.90193218 3.5464382 0.90193218 3.5464382 0.90193218 3.5464382 0.90193218 3.5464382
31575000000 0.91407174 -94.764397 0.91407174 -94.764397 0.91407174 -94.764397 0.91407174 -94.764397
31590000000 0.91175687 167.63358 0.91175687 167.63358 0.91175687 167.63358 0.91175687 167.63358
31605000000 0.92427546 69.016098 0.92427546 69.016098 0.92427546 69.016098 0.92427546 69.016098
31620000000 0.89493567 -30.20447 0.89493567 -30.20447 0.89493567 -30.20447 0.89493567 -30.20447
31635000000 0.91471207 -127.91214 0.91471207 -127.91214 0.91471207 -127.91214 0.91471207 -127.91214
31650000000 0.90462619 131.51109 0.90462619 131.51109 0.90462619 131.51109 0.90462619 131.51109
31665000000 0.87269741 33.12608 0.87269741 33.12608 0.87269741 33.12608 0.87269741 33.12608
31680000000 0.90666389 -62.680187 0.90666389 -62.680187 0.90666389 -62.680187 0.90666389 -62.680187
31695000000 0.94241703 -161.94551 0.94241703 -161.94551 0.94241703 -161.94551 0.94241703 -161.94551
31710000000 0.91103953 98.456512 0.91103953 98.456512 0.91103953 98.456512 0.91103953 98.456512
31725000000 0.897214 0.55167991 0.897214 0.55167991 0.897214 0.55167991 0.897214 0.55167991
31740000000 0.87114173 -95.438705 0.87114173 -95.438705 0.87114173 -95.438705 0.87114173 -95.438705
31755000000 0.88926941 166.29756 0.88926941 166.29756 0.88926941 166.29756 0.88926941 166.29756
31770000000 0.87200856 67.77877 0.87200856 67.77877 0.87200856 67.77877 0.87200856 67.77877
31785000000 0.87852025 -29.415522 0.87852025 -29.415522 0.87852025 -29.415522 0.87852025 -29.415522
31800000000 0.86181116 -127.42789 0.86181116 -127.42789 0.86181116 -127.42789 0.86181116 -127.42789
31815000000 0.8489216 134.483 0.8489216 134.483 0.8489216 134.483 0.8489216 134.483
31830000000 0.87641644 38.765266 0.87641644 38.765266 0.87641644 38.765266 0.87641644 38.765266
31845000000 0.88179892 -61.158756 0.88179892 -61.158756 0.88179892 -61.158756 0.88179892 -61.158756
31860000000 0.85843617 -158.69751 0.85843617 -158.69751 0.85843617 -158.69751 0.85843617 -158.69751
31875000000 0.89631426 104.17307 0.89631426 104.17307 0.89631426 104.17307 0.89631426 104.17307
31890000000 0.89403743 6.1967444 0.89403743 6.1967444 0.89403743 6.1967444 0.89403743 6.1967444
31905000000 0.92271852 -92.47905 0.92271852 -92.47905 0.92271852 -92.47905 0.92271852 -92.47905
31920000000 0.9050945 165.5549 0.9050945 165.5549 0.9050945 165.5549 0.9050945 165.5549
31935000000 0.89731544 69.881233 0.89731544 69.881233 0.89731544 69.881233 0.89731544 69.881233
31950000000 0.93529278 -29.142675 0.93529278 -29.142675 0.93529278 -29.142675 0.93529278 -29.142675
31965000000 0.94856375 -128.1546 0.94856375 -128.1546 0.94856375 -128.1546 0.94856375 -128.1546
31980000000 0.97272044 132.30524 0.97272044 132.30524 0.97272044 132.30524 0.97272044 132.30524
31995000000 0.94116515 34.265244 0.94116515 34.265244 0.94116515 34.265244 0.94116515 34.265244
32010000000 0.92278618 -63.860474 0.92278618 -63.860474 0.92278618 -63.860474 0.92278618 -63.860474
32025000000 0.91983682 -160.91478 0.91983682 -160.91478 0.91983682 -160.91478 0.91983682 -160.91478
32040000000 0.90928209 101.91418 0.90928209 101.91418 0.90928209 101.91418 0.90928209 101.91418
32055000000 0.92048264 2.5676761 0.92048264 2.5676761 0.92048264 2.5676761 0.92048264 2.5676761
32070000000 0.89667422 -99.088364 0.89667422 -99.088364 0.89667422 -99.088364 0.89667422 -99.088364
32085000000 0.87696278 164.9534 0.87696278 164.9534 0.87696278 164.9534 0.87696278 164.9534
32100000000 0.8831591 66.079956 0.8831591 66.079956 0.8831591 66.079956 0.8831591 66.079956
32115000000 0.8823064 -31.720352 0.8823064 -31.720352 0.8823064 -31.720352 0.8823064 -31.720352
32130000000 0.89900535 -127.81094 0.89900535 -127.81094 0.89900535 -127.81094 0.89900535 -127.81094
32145000000 0.90730315 132.082 0.90730315 132.082 0.90730315 132.082 0.90730315 132.082
32160000000 0.88065642 34.563038 0.88065642 34.563038 0.88065642 34.563038 0.88065642 34.563038
32175000000 0.90233755 -62.495468 0.90233755 -62.495468 0.90233755 -62.495468 0.90233755 -62.495468
32190000000 0.88561726 -160.82477 0.88561726 -160.82477 0.88561726 -160.82477 0.88561726 -160.82477
32205000000 0.89593369 101.84158 0.89593369 101.84158 0.89593369 101.84158 0.89593369 101.84158
32220000000 0.89847571 2.0621819 0.89847571 2.0621819 0.89847571 2.0621819 0.89847571 2.0621819
32235000000 0.89680123 -93.995018 0.89680123 -93.995018 0.89680123 -93.995018 0.89680123 -93.995018
32250000000 0.92288935 167.29848 0.92288935 167.29848 0.92288935 167.29848 0.92288935 167.29848
32265000000 0.90836012 67.927483 0.90836012 67.927483 0.90836012 67.927483 0.90836012 67.927483
32280000000 0.91232395 -29.683853 0.91232395 -29.683853 0.91232395 -29.683853 0.91232395 -29.683853
32295000000 0.8908326 -127.34422 0.8908326 -127.34422 0.8908326 -127.34422 0.8908326 -127.34422
32310000000 0.91458613 134.83215 0.91458613 134.83215 0.91458613 134.83215 0.91458613 134.83215
32325000000 0.91996366 35.992371 0.91996366 35.992371 0.91996366 35.992371 0.91996366 35.992371
32340000000 0.90185428 -62.66711 0.90185428 -62.66711 0.90185428 -62.66711 0.90185428 -62.66711
32355000000 0.89115965 -160.96307 0.89115965 -160.96307 0.89115965 -160.96307 0.89115965 -160.96307
32370000000 0.90714473 100.49809 0.90714473 100.49809 0.90714473 100.49809 0.90714473 100.49809
32385000000 0.89657772 2.3998823 0.89657772 2.3998823 0.89657772 2.3998823 0.89657772 2.3998823
32400000000 0.92454755 -94.920197 0.92454755 -94.920197 0.92454755 -94.920197 0.92454755 -94.920197
32415000000 0.91821146 164.16299 0.91821146 164.16299 0.91821146 164.16299 0.91821146 164.16299
32430000000 0.92001665 67.718353 0.92001665 67.718353 0.92001665 67.718353 0.92001665 67.718353
32445000000 0.93894166 -31.030575 0.93894166 -31.030575 0.93894166 -31.030575 0.93894166 -31.030575
32460000000 0.9178856 -128.8838 0.9178856 -128.8838 0.9178856 -128.8838 0.9178856 -128.8838
32475000000 0.92615771 132.38741 0.92615771 132.38741 0.92615771 132.38741 0.92615771 132.38741
32490000000 0.90849078 34.422165 0.90849078 34.422165 0.90849078 34.422165 0.90849078 34.422165
32505000000 0.93052709 -64.289879 0.93052709 -64.289879 0.93052709 -64.289879 0.93052709 -64.289879
32520000000 0.93097919 -162.80661 0.93097919 -162.80661 0.93097919 -162.80661 0.93097919 -162.80661
32535000000 0.92602021 98.347458 0.92602021 98.347458 0.92602021 98.347458 0.92602021 98.347458
32550000000 0.90205353 1.8583649 0.90205353 1.8583649 0.90205353 1.8583649 0.90205353 1.8583649
32565000000 0.9333933 -97.989563 0.9333933 -97.989563 0.9333933 -97.989563 0.9333933 -97.989563
32580000000 0.91524506 161.11571 0.91524506 161.11571 0.91524506 161.11571 0.91524506 161.11571
32595000000 0.88092911 65.166328 0.88092911 65.166328 0.88092911 65.166328 0.88092911 65.166328
32610000000 0.87311172 -33.237568 0.87311172 -33.237568 0.87311172 -33.237568 0.87311172 -33.237568
32625000000 0.9011026 -130.24525 0.9011026 -130.24525 0.9011026 -130.24525 0.9011026 -130.24525
32640000000 0.90992862 130.67731 0.90992862 130.67731 0.90992862 130.67731 0.90992862 130.67731
32655000000 0.85858023 33.344555 0.85858023 33.344555 0.85858023 33.344555 0.85858023 33.344555
32670000000 0.87867594 -63.286484 0.87867594 -63.286484 0.87867594 -63.286484 0.87867594 -63.286484
32685000000 0.87995869 -161.11345 0.87995869 -161.11345 0.87995869 -161.11345 0.87995869 -161.11345
32700000000 0.87743682 101.95638 0.87743682 101.95638 0.87743682 101.95638 0.87743682 101.95638
32715000000 0.89464027 2.9960251 0.89464027 2.9960251 0.89464027 2.9960251 0.89464027 2.9960251
32730000000 0.89905483 -96.166634 0.89905483 -96.166634 0.89905483 -96.166634 0.89905483 -96.166634
32745000000 0.86419201 167.0601 0.86419201 167.0601 0.86419201 167.0601 0.86419201 167.0601
32760000000 0.88568771 68.431854 0.88568771 68.431854 0.88568771 68.431854 0.88568771 68.431854
32775000000 0.91015112 -30.042858 0.91015112 -30.042858 0.91015112 -30.042858 0.91015112 -30.042858
32790000000 0.94024611 -129.35406 0.94024611 -129.35406 0.94024611 -129.35406 0.94024611 -129.35406
32805000000 0.90150136 130.71783 0.90150136 130.71783 0.90150136 130.71783 0.90150136 130.71783
32820000000 0.9141863 35.114948 0.9141863 35.114948 0.9141863 35.114948 0.9141863 35.114948
32835000000 0.93475473 -64.871529 0.93475473 -64.871529 0.93475473 -64.871529 0.93475473 -64.871529
32850000000 0.88598776 -163.99733 0.88598776 -163.99733 0.88598776 -163.99733 0.88598776 -163.99733
32865000000 0.87198567 98.880775 0.87198567 98.880775 0.87198567 98.880775 0.87198567 98.880775
32880000000 0.91838533 1.5137314 0.91838533 1.5137314 0.91838533 1.5137314 0.91838533 1.5137314
32895000000 0.92569214 -98.401085 0.92569214 -98.401085 0.92569214 -98.401085 0.92569214 -98.401085
32910000000 0.91081655 162.99982 0.91081655 162.99982 0.91081655 162.99982 0.91081655 162.99982
32925000000 0.9218986 65.19648 0.9218986 65.19648 0.9218986 65.19648 0.9218986 65.19648
32940000000 0.92040831 -30.863228 0.92040831 -30.863228 0.92040831 -30.863228 0.92040831 -30.863228
32955000000 0.92579705 -131.59026 0.92579705 -131.59026 0.92579705 -131.59026 0.92579705 -131.59026
32970000000 0.91801608 130.82576 0.91801608 130.82576 0.91801608 130.82576 0.91801608 130.82576
32985000000 0.93001997 33.478561 0.93001997 33.478561 0.93001997 33.478561 0.93001997 33.478561
33000000000 0.91376251 -65.594612 0.91376251 -65.594612 0.91376251 -65.594612 0.91376251 -65.594612
