!Keysight Technologies,N5224B,MY57181201,A.12.70.07
!Date: Thursday, July 14, 2022 13:00:52
!Correction: S11(Off) 
!S21(Off) 
!S12(Off) 
!S22(Off) 
!S2P File: Measurements: S11, S21, S12, S22:
# Hz S  dB   R 50
22000000000 -200 45 -200 45 -29.95265 74.278084 -200 45
22055000000 -200 45 -200 45 -29.804562 166.98244 -200 45
22110000000 -200 45 -200 45 -30.256031 -98.395882 -200 45
22165000000 -200 45 -200 45 -30.009207 -1.7495677 -200 45
22220000000 -200 45 -200 45 -29.867914 91.688873 -200 45
22275000000 -200 45 -200 45 -30.014397 -175.58693 -200 45
22330000000 -200 45 -200 45 -30.086138 -79.166664 -200 45
22385000000 -200 45 -200 45 -29.766085 16.808315 -200 45
22440000000 -200 45 -200 45 -29.632025 108.6812 -200 45
22495000000 -200 45 -200 45 -29.87669 -155.76579 -200 45
22550000000 -200 45 -200 45 -29.897501 -62.279778 -200 45
22605000000 -200 45 -200 45 -29.760468 32.984966 -200 45
22660000000 -200 45 -200 45 -29.802893 126.28714 -200 45
22715000000 -200 45 -200 45 -29.861549 -138.79173 -200 45
22770000000 -200 45 -200 45 -29.726984 -43.839367 -200 45
22825000000 -200 45 -200 45 -29.835291 51.085476 -200 45
22880000000 -200 45 -200 45 -29.721235 143.67688 -200 45
22935000000 -200 45 -200 45 -29.955564 -118.57046 -200 45
22990000000 -200 45 -200 45 -29.625166 -25.107592 -200 45
23045000000 -200 45 -200 45 -29.596216 69.324951 -200 45
23100000000 -200 45 -200 45 -29.903042 163.75302 -200 45
23155000000 -200 45 -200 45 -29.9974 -101.14178 -200 45
23210000000 -200 45 -200 45 -29.807688 -5.6128459 -200 45
23265000000 -200 45 -200 45 -29.904278 89.755707 -200 45
23320000000 -200 45 -200 45 -29.567022 -176.19093 -200 45
23375000000 -200 45 -200 45 -29.815437 -81.983871 -200 45
23430000000 -200 45 -200 45 -29.757578 12.083832 -200 45
23485000000 -200 45 -200 45 -29.964596 107.08165 -200 45
23540000000 -200 45 -200 45 -29.867165 -157.32378 -200 45
23595000000 -200 45 -200 45 -30.023367 -62.5793 -200 45
23650000000 -200 45 -200 45 -30.044165 33.126518 -200 45
23705000000 -200 45 -200 45 -30.11874 128.90182 -200 45
23760000000 -200 45 -200 45 -30.004162 -135.80241 -200 45
23815000000 -200 45 -200 45 -30.161865 -41.657787 -200 45
23870000000 -200 45 -200 45 -30.114738 54.758816 -200 45
23925000000 -200 45 -200 45 -30.033068 149.07039 -200 45
23980000000 -200 45 -200 45 -30.17951 -117.58963 -200 45
24035000000 -200 45 -200 45 -30.495508 -21.779503 -200 45
24090000000 -200 45 -200 45 -30.600611 76.354401 -200 45
24145000000 -200 45 -200 45 -30.203186 171.94252 -200 45
24200000000 -200 45 -200 45 -30.277946 -94.652161 -200 45
24255000000 -200 45 -200 45 -30.555811 1.146737 -200 45
24310000000 -200 45 -200 45 -30.492004 97.458 -200 45
24365000000 -200 45 -200 45 -30.402477 -167.63287 -200 45
24420000000 -200 45 -200 45 -30.557919 -72.79187 -200 45
24475000000 -200 45 -200 45 -30.640635 23.68926 -200 45
24530000000 -200 45 -200 45 -30.598396 120.62751 -200 45
24585000000 -200 45 -200 45 -30.457752 -143.75926 -200 45
24640000000 -200 45 -200 45 -30.481926 -48.482559 -200 45
24695000000 -200 45 -200 45 -30.532442 47.302029 -200 45
24750000000 -200 45 -200 45 -30.445604 140.85577 -200 45
24805000000 -200 45 -200 45 -30.453297 -123.11767 -200 45
24860000000 -200 45 -200 45 -30.78281 -27.365465 -200 45
24915000000 -200 45 -200 45 -30.555664 70.333076 -200 45
24970000000 -200 45 -200 45 -30.341732 164.97806 -200 45
25025000000 -200 45 -200 45 -30.329262 -101.81935 -200 45
25080000000 -200 45 -200 45 -30.610695 -4.8147025 -200 45
25135000000 -200 45 -200 45 -30.627159 92.607864 -200 45
25190000000 -200 45 -200 45 -30.430445 -173.78993 -200 45
25245000000 -200 45 -200 45 -30.5697 -76.614937 -200 45
25300000000 -200 45 -200 45 -30.39892 19.653524 -200 45
25355000000 -200 45 -200 45 -30.212814 114.65075 -200 45
25410000000 -200 45 -200 45 -30.308708 -151.39346 -200 45
25465000000 -200 45 -200 45 -30.394093 -54.641819 -200 45
25520000000 -200 45 -200 45 -30.30562 42.374481 -200 45
25575000000 -200 45 -200 45 -30.223511 136.99361 -200 45
25630000000 -200 45 -200 45 -30.393055 -127.4194 -200 45
25685000000 -200 45 -200 45 -30.394352 -30.671457 -200 45
25740000000 -200 45 -200 45 -30.34383 65.705917 -200 45
25795000000 -200 45 -200 45 -30.321638 161.01886 -200 45
25850000000 -200 45 -200 45 -30.15666 -103.78907 -200 45
25905000000 -200 45 -200 45 -30.313616 -8.587822 -200 45
25960000000 -200 45 -200 45 -30.427084 88.273773 -200 45
26015000000 -200 45 -200 45 -30.352356 -174.42249 -200 45
26070000000 -200 45 -200 45 -30.104687 -78.417297 -200 45
26125000000 -200 45 -200 45 -30.092106 15.399826 -200 45
26180000000 -200 45 -200 45 -30.419777 111.16511 -200 45
26235000000 -200 45 -200 45 -30.490913 -150.87604 -200 45
26290000000 -200 45 -200 45 -30.251522 -54.282658 -200 45
26345000000 -200 45 -200 45 -30.033331 41.323978 -200 45
26400000000 -200 45 -200 45 -30.327688 134.93718 -200 45
26455000000 -200 45 -200 45 -30.691555 -126.7203 -200 45
26510000000 -200 45 -200 45 -30.466513 -30.022091 -200 45
26565000000 -200 45 -200 45 -30.223438 66.494125 -200 45
26620000000 -200 45 -200 45 -30.534063 160.91055 -200 45
26675000000 -200 45 -200 45 -30.464758 -100.71672 -200 45
26730000000 -200 45 -200 45 -30.229837 -6.6707582 -200 45
26785000000 -200 45 -200 45 -30.28685 88.042747 -200 45
26840000000 -200 45 -200 45 -30.521177 -174.74524 -200 45
26895000000 -200 45 -200 45 -30.237478 -75.963524 -200 45
26950000000 -200 45 -200 45 -29.95751 17.966265 -200 45
27005000000 -200 45 -200 45 -30.157793 113.55174 -200 45
27060000000 -200 45 -200 45 -30.044611 -150.30363 -200 45
27115000000 -200 45 -200 45 -29.960037 -52.715435 -200 45
27170000000 -200 45 -200 45 -29.972893 41.373802 -200 45
27225000000 -200 45 -200 45 -29.946079 137.99614 -200 45
27280000000 -200 45 -200 45 -29.907818 -126.27909 -200 45
27335000000 -200 45 -200 45 -30.06978 -29.959021 -200 45
27390000000 -200 45 -200 45 -29.939322 66.691238 -200 45
27445000000 -200 45 -200 45 -29.860388 163.47374 -200 45
27500000000 -200 45 -200 45 -29.674402 -102.855 -200 45
27555000000 -200 45 -200 45 -30.071562 -6.4658647 -200 45
27610000000 -200 45 -200 45 -30.142673 91.729782 -200 45
27665000000 -200 45 -200 45 -29.830339 -171.33405 -200 45
27720000000 -200 45 -200 45 -29.461365 -77.290398 -200 45
27775000000 -200 45 -200 45 -29.682404 15.94638 -200 45
27830000000 -200 45 -200 45 -30.102827 112.1501 -200 45
27885000000 -200 45 -200 45 -30.131716 -148.06828 -200 45
27940000000 -200 45 -200 45 -29.768648 -51.869663 -200 45
27995000000 -200 45 -200 45 -29.584484 42.021221 -200 45
28050000000 -200 45 -200 45 -29.922441 138.34378 -200 45
28105000000 -200 45 -200 45 -30.043037 -124.15052 -200 45
28160000000 -200 45 -200 45 -29.796759 -28.352596 -200 45
28215000000 -200 45 -200 45 -29.670061 66.583191 -200 45
28270000000 -200 45 -200 45 -29.802668 161.64479 -200 45
28325000000 -200 45 -200 45 -30.015165 -100.91354 -200 45
28380000000 -200 45 -200 45 -30.093842 -4.4564619 -200 45
28435000000 -200 45 -200 45 -29.844494 92.722282 -200 45
28490000000 -200 45 -200 45 -29.830614 -172.47775 -200 45
28545000000 -200 45 -200 45 -29.984474 -76.682854 -200 45
28600000000 -200 45 -200 45 -30.178593 19.796608 -200 45
28655000000 -200 45 -200 45 -29.992409 116.00384 -200 45
28710000000 -200 45 -200 45 -30.078421 -147.3167 -200 45
28765000000 -200 45 -200 45 -30.12191 -50.584011 -200 45
28820000000 -200 45 -200 45 -30.020294 44.993198 -200 45
28875000000 -200 45 -200 45 -29.982128 140.25137 -200 45
28930000000 -200 45 -200 45 -30.130716 -122.90443 -200 45
28985000000 -200 45 -200 45 -30.241486 -25.362621 -200 45
29040000000 -200 45 -200 45 -30.140543 71.694359 -200 45
29095000000 -200 45 -200 45 -30.00069 166.36806 -200 45
29150000000 -200 45 -200 45 -29.896536 -96.85099 -200 45
29205000000 -200 45 -200 45 -30.02997 -0.28838253 -200 45
29260000000 -200 45 -200 45 -29.962158 97.175346 -200 45
29315000000 -200 45 -200 45 -29.797585 -167.30048 -200 45
29370000000 -200 45 -200 45 -29.620993 -72.002312 -200 45
29425000000 -200 45 -200 45 -29.88571 24.198856 -200 45
29480000000 -200 45 -200 45 -30.013304 123.39497 -200 45
29535000000 -200 45 -200 45 -29.674814 -141.22014 -200 45
29590000000 -200 45 -200 45 -29.508863 -45.96294 -200 45
29645000000 -200 45 -200 45 -29.534468 50.566238 -200 45
29700000000 -200 45 -200 45 -29.634541 146.86273 -200 45
29755000000 -200 45 -200 45 -29.633747 -116.78194 -200 45
29810000000 -200 45 -200 45 -29.547163 -19.351728 -200 45
29865000000 -200 45 -200 45 -29.166054 76.385193 -200 45
29920000000 -200 45 -200 45 -29.418262 171.70233 -200 45
29975000000 -200 45 -200 45 -29.781994 -92.445412 -200 45
30030000000 -200 45 -200 45 -29.595003 6.4298644 -200 45
30085000000 -200 45 -200 45 -29.259703 102.10812 -200 45
30140000000 -200 45 -200 45 -29.271011 -163.20653 -200 45
30195000000 -200 45 -200 45 -29.601599 -66.754356 -200 45
30250000000 -200 45 -200 45 -29.459013 30.62207 -200 45
30305000000 -200 45 -200 45 -29.162817 126.10949 -200 45
30360000000 -200 45 -200 45 -29.405008 -138.30087 -200 45
30415000000 -200 45 -200 45 -29.404257 -42.31036 -200 45
30470000000 -200 45 -200 45 -29.448385 54.618965 -200 45
30525000000 -200 45 -200 45 -29.357359 150.18484 -200 45
30580000000 -200 45 -200 45 -29.39872 -112.93173 -200 45
30635000000 -200 45 -200 45 -29.399332 -17.450195 -200 45
30690000000 -200 45 -200 45 -29.25742 78.692352 -200 45
30745000000 -200 45 -200 45 -29.44894 174.84731 -200 45
30800000000 -200 45 -200 45 -29.643414 -87.885216 -200 45
30855000000 -200 45 -200 45 -29.544184 8.804431 -200 45
30910000000 -200 45 -200 45 -29.665768 105.12289 -200 45
30965000000 -200 45 -200 45 -29.429771 -158.44141 -200 45
31020000000 -200 45 -200 45 -29.629147 -61.633434 -200 45
31075000000 -200 45 -200 45 -29.689676 34.136509 -200 45
31130000000 -200 45 -200 45 -29.433472 131.61916 -200 45
31185000000 -200 45 -200 45 -29.323845 -133.27008 -200 45
31240000000 -200 45 -200 45 -29.483978 -36.671818 -200 45
31295000000 -200 45 -200 45 -29.861443 59.601681 -200 45
31350000000 -200 45 -200 45 -29.828758 157.46678 -200 45
31405000000 -200 45 -200 45 -29.350657 -105.14904 -200 45
31460000000 -200 45 -200 45 -29.378229 -10.371864 -200 45
31515000000 -200 45 -200 45 -29.553835 85.290146 -200 45
31570000000 -200 45 -200 45 -29.709419 -177.10713 -200 45
31625000000 -200 45 -200 45 -29.430836 -81.862267 -200 45
31680000000 -200 45 -200 45 -29.336201 18.148542 -200 45
31735000000 -200 45 -200 45 -29.55155 111.59827 -200 45
31790000000 -200 45 -200 45 -29.453592 -151.68724 -200 45
31845000000 -200 45 -200 45 -29.416885 -54.35738 -200 45
31900000000 -200 45 -200 45 -29.362795 40.864582 -200 45
31955000000 -200 45 -200 45 -29.509727 137.5437 -200 45
32010000000 -200 45 -200 45 -29.857401 -126.07277 -200 45
32065000000 -200 45 -200 45 -29.437717 -28.724768 -200 45
32120000000 -200 45 -200 45 -29.305883 70.246178 -200 45
32175000000 -200 45 -200 45 -29.304369 164.19359 -200 45
32230000000 -200 45 -200 45 -29.458784 -99.349136 -200 45
32285000000 -200 45 -200 45 -29.421822 -2.9831383 -200 45
32340000000 -200 45 -200 45 -29.428598 94.019814 -200 45
32395000000 -200 45 -200 45 -29.2377 -170.05412 -200 45
32450000000 -200 45 -200 45 -29.518885 -73.826141 -200 45
32505000000 -200 45 -200 45 -29.596046 21.876921 -200 45
32560000000 -200 45 -200 45 -29.413734 119.09287 -200 45
32615000000 -200 45 -200 45 -29.560379 -144.13266 -200 45
32670000000 -200 45 -200 45 -29.783421 -48.365677 -200 45
32725000000 -200 45 -200 45 -29.581018 49.314354 -200 45
32780000000 -200 45 -200 45 -29.641125 147.0126 -200 45
32835000000 -200 45 -200 45 -29.305431 -118.45725 -200 45
32890000000 -200 45 -200 45 -29.60593 -21.807007 -200 45
32945000000 -200 45 -200 45 -29.875156 75.104019 -200 45
33000000000 -200 45 -200 45 -29.373941 172.43938 -200 45
