!CSV A.01.01
!Keysight Technologies,N5224B,MY57181201,A.12.70.07
!Date: Wednesday, July 20, 2022 16:37:36
!Source: Standard

BEGIN CH1_DATA
Freq(Hz),S11(DB),S11(DEG)
22000000000,-17.892778,80.614845
22055000000,-20.516521,-107.1909
22110000000,-19.00256,82.226112
22165000000,-16.03657,-114.67445
22220000000,-16.079166,53.120468
22275000000,-21.066395,-142.1422
22330000000,-17.763193,42.84
22385000000,-22.506838,-138.18726
22440000000,-15.465234,38.057041
22495000000,-22.071507,-154.75981
22550000000,-14.65636,35.534092
22605000000,-16.792435,160.51602
22660000000,-16.138023,11.837765
22715000000,-17.980524,139.03632
22770000000,-20.733122,-3.9451473
22825000000,-18.894611,136.0847
22880000000,-20.523823,-9.455369
22935000000,-20.757452,111.192
22990000000,-19.706005,-16.748249
23045000000,-17.546045,92.966454
23100000000,-23.688276,-90.247147
23155000000,-20.479385,73.872902
23210000000,-23.527225,-116.99178
23265000000,-19.475344,43.669052
23320000000,-29.03838,-179.47655
23375000000,-23.440344,38.561409
23430000000,-42.568974,152.41911
23485000000,-20.269711,44.001717
23540000000,-23.565498,129.31433
23595000000,-22.065151,41.389057
23650000000,-17.010767,135.74712
23705000000,-27.883533,-167.30417
23760000000,-22.42588,98.484093
23815000000,-58.638744,-37.248425
23870000000,-26.040451,50.25174
23925000000,-24.193506,65.410912
23980000000,-27.963572,110.04819
24035000000,-26.024601,31.880295
24090000000,-23.762585,91.747131
24145000000,-27.111464,63.410458
24200000000,-28.361696,73.028725
24255000000,-30.523088,9.8068686
24310000000,-36.943714,-89.544365
24365000000,-20.821001,47.68367
24420000000,-21.735428,139.1817
24475000000,-22.270557,-2.5455012
24530000000,-20.740269,103.16406
24585000000,-28.665771,9.089674
24640000000,-17.718996,108.41987
24695000000,-29.640005,135.35179
24750000000,-16.322268,153.2482
24805000000,-25.625666,7.169291
24860000000,-20.048101,113.15076
24915000000,-23.549465,-61.939167
24970000000,-19.69206,82.757309
25025000000,-32.970467,-175.45346
25080000000,-20.613186,75.018066
25135000000,-25.658928,141.37814
25190000000,-21.811512,131.96086
25245000000,-31.96253,61.102749
25300000000,-21.318878,101.8568
25355000000,-29.501949,-148.23923
25410000000,-21.550455,77.242432
25465000000,-26.32946,118.72166
25520000000,-27.138084,77.055099
25575000000,-24.838341,44.397003
25630000000,-22.088594,127.08237
25685000000,-29.801281,7.9196062
25740000000,-20.763199,128.58069
25795000000,-23.307899,-61.160862
25850000000,-20.811068,85.893684
25905000000,-44.949379,102.08201
25960000000,-21.040407,121.59576
26015000000,-25.836477,-44.789635
26070000000,-16.450527,112.24042
26125000000,-24.248461,-79.416573
26180000000,-15.120094,94.170631
26235000000,-22.841198,-120.13409
26290000000,-16.705544,77.630547
26345000000,-21.613195,-171.22685
26400000000,-17.896002,87.663086
26455000000,-21.304197,-167.90016
26510000000,-16.042759,79.847786
26565000000,-18.078081,-152.17021
26620000000,-17.599442,66.109222
26675000000,-15.675965,-172.96732
26730000000,-23.563599,39.200562
26785000000,-16.800627,161.98787
26840000000,-43.163944,114.91155
26895000000,-17.856457,-155.29102
26950000000,-25.704817,-64.230904
27005000000,-19.428213,162.33124
27060000000,-22.236416,37.790356
27115000000,-19.134073,141.66458
27170000000,-33.313583,-14.888778
27225000000,-21.597338,119.90483
27280000000,-26.155212,-118.41726
27335000000,-28.873127,-5.7617888
27390000000,-29.608402,64.045044
27445000000,-23.534672,171.75375
27500000000,-27.312105,135.06242
27555000000,-23.632839,142.49716
27610000000,-25.038507,151.20602
27665000000,-29.632536,97.126053
27720000000,-18.300606,142.87691
27775000000,-24.899666,-136.80791
27830000000,-20.676218,129.4976
27885000000,-19.37146,-150.05173
27940000000,-35.752197,146.42168
27995000000,-21.642658,-111.68047
28050000000,-28.130213,-23.553053
28105000000,-39.34034,-165.8364
28160000000,-20.446556,104.64862
28215000000,-23.545782,-142.68195
28270000000,-19.477846,90.767502
28325000000,-17.779652,-155.66122
28380000000,-32.666767,-122.44099
28435000000,-19.439896,-114.99998
28490000000,-24.770325,-55.696217
28545000000,-27.963308,-137.60091
28600000000,-20.007359,104.51949
28655000000,-22.268497,-149.2355
28710000000,-19.543262,83.53968
28765000000,-16.712143,-161.74738
28820000000,-30.369213,126.46873
28875000000,-17.961636,-132.39505
28930000000,-30.801229,-76.88694
28985000000,-19.997667,-135.64017
29040000000,-19.604429,87.591194
29095000000,-16.931114,-152.05627
29150000000,-19.041714,56.658058
29205000000,-16.422499,-175.4832
29260000000,-24.476727,30.022968
29315000000,-18.650593,-178.18239
29370000000,-24.851044,72.364273
29425000000,-19.280367,-149.02191
29480000000,-19.016176,30.992548
29535000000,-17.046852,-178.03502
29590000000,-21.632418,13.951279
29645000000,-16.780714,162.52881
29700000000,-22.73918,-14.202272
29755000000,-20.126505,146.66934
29810000000,-38.656719,116.76546
29865000000,-18.183388,-167.19801
29920000000,-27.368567,-66.784134
29975000000,-18.003214,-151.73888
30030000000,-28.000916,-26.422144
30085000000,-18.317554,161.59567
30140000000,-26.07324,-104.33178
30195000000,-24.461599,172.67979
30250000000,-26.561604,126.17841
30305000000,-18.797003,-155.95639
30360000000,-27.920696,32.497688
30415000000,-16.395626,-157.01123
30470000000,-25.659435,3.5156629
30525000000,-20.453125,172.02344
30580000000,-26.300444,24.82279
30635000000,-20.981054,-165.65248
30690000000,-22.105701,49.162151
30745000000,-15.505457,-157.30569
30800000000,-18.756516,5.8249807
30855000000,-13.85162,177.36916
30910000000,-18.300646,-15.118634
30965000000,-15.798642,165.25833
31020000000,-19.645111,-10.504242
31075000000,-16.432621,170.73991
31130000000,-19.362625,-7.2191505
31185000000,-14.27114,168.44415
31240000000,-15.715126,-23.412951
31295000000,-12.990205,151.91823
31350000000,-15.223893,-54.525776
31405000000,-14.079288,139.93251
31460000000,-17.992426,-76.185455
31515000000,-16.948566,142.26787
31570000000,-17.263378,-51.390144
31625000000,-15.112079,149.06735
31680000000,-13.104077,-51.861816
31735000000,-14.596997,110.18958
31790000000,-14.864848,-80.570923
31845000000,-17.150894,107.88466
31900000000,-17.170414,-86.005699
31955000000,-19.851337,121.14899
32010000000,-19.922754,-82.594131
32065000000,-16.108421,124.76563
32120000000,-15.919661,-87.28672
32175000000,-15.809942,108.91174
32230000000,-14.816131,-94.245125
32285000000,-17.235153,80.113602
32340000000,-16.942327,-81.816734
32395000000,-20.274197,65.590729
32450000000,-17.294268,-75.725281
32505000000,-20.033659,120.09397
32560000000,-13.970479,-87.324097
32615000000,-15.266376,90.676872
32670000000,-14.274018,-112.54195
32725000000,-19.435999,69.919937
32780000000,-18.067856,-117.9907
32835000000,-21.759014,79.477142
32890000000,-18.476408,-99.365845
32945000000,-15.283135,78.043617
33000000000,-16.254108,-108.42767
END

