!CSV A.01.01
!Keysight Technologies,N5224B,MY57181201,A.12.70.07
!Date: Wednesday, July 20, 2022 17:13:00
!Source: Standard

BEGIN CH1_DATA
Freq(Hz),S22(DB),S22(DEG)
22000000000,-16.789566,76.236488
22055000000,-27.647358,84.415962
22110000000,-12.442675,70.414551
22165000000,-39.893459,-76.304245
22220000000,-18.159506,75.182884
22275000000,-17.354601,-175.03706
22330000000,-17.799074,95.821228
22385000000,-18.101629,-157.46333
22440000000,-18.371286,22.55064
22495000000,-19.50293,-141.36671
22550000000,-22.124807,5.6530924
22605000000,-22.223415,157.4158
22660000000,-17.39115,16.407362
22715000000,-22.303083,128.43344
22770000000,-25.721144,-46.881527
22825000000,-17.457392,161.47473
22880000000,-24.128868,-3.1826582
22935000000,-17.107374,70.276779
22990000000,-20.621637,-21.35779
23045000000,-18.516739,60.134537
23100000000,-29.636717,167.47572
23155000000,-14.91091,67.952248
23210000000,-22.837812,110.92558
23265000000,-17.721464,42.397545
23320000000,-18.143564,-178.97655
23375000000,-31.043777,153.91534
23430000000,-16.556566,162.83871
23485000000,-19.777885,-31.669466
23540000000,-25.603577,158.68317
23595000000,-18.843706,-72.470787
23650000000,-19.058573,147.4229
23705000000,-26.809786,-13.551595
23760000000,-23.754416,84.118103
23815000000,-17.985706,-55.564102
23870000000,-29.80365,44.724312
23925000000,-31.518263,-28.196657
23980000000,-18.561998,81.956444
24035000000,-22.936024,16.143305
24090000000,-20.729168,62.669765
24145000000,-29.845961,30.164837
24200000000,-18.264065,102.3246
24255000000,-21.249382,64.876488
24310000000,-16.885483,92.433273
24365000000,-27.532366,13.30653
24420000000,-18.783083,139.28357
24475000000,-25.942612,-159.84949
24530000000,-15.963042,119.52128
24585000000,-28.319567,-30.936007
24640000000,-25.248995,104.03336
24695000000,-18.081333,-95.404671
24750000000,-19.093767,106.82466
24805000000,-30.329647,-96.902039
24860000000,-16.4673,70.80558
24915000000,-21.324673,-108.56575
24970000000,-20.124506,107.43833
25025000000,-25.788677,-154.81873
25080000000,-15.595999,66.391464
25135000000,-40.179764,-40.826797
25190000000,-17.733461,48.150574
25245000000,-23.904966,172.53178
25300000000,-16.630434,81.799477
25355000000,-19.151567,136.77603
25410000000,-18.555548,87.565285
25465000000,-23.519299,167.5247
25520000000,-26.130163,138.59834
25575000000,-20.402739,-176.24768
25630000000,-21.357525,98.557541
25685000000,-31.092936,152.91341
25740000000,-30.394152,29.976038
25795000000,-21.8799,-118.31959
25850000000,-21.781693,108.89105
25905000000,-29.977913,177.3302
25960000000,-23.776188,74.742363
26015000000,-17.506304,-106.55629
26070000000,-36.602089,91.104362
26125000000,-24.502041,-171.98366
26180000000,-16.217354,61.909847
26235000000,-25.388611,-85.717819
26290000000,-18.424843,54.952423
26345000000,-19.634193,178.62688
26400000000,-14.891504,68.00679
26455000000,-19.713476,149.35806
26510000000,-17.099808,51.812939
26565000000,-15.62958,-176.97202
26620000000,-26.964695,9.9809399
26675000000,-17.058577,-178.22206
26730000000,-18.428326,9.5989838
26785000000,-17.461924,158.91302
26840000000,-20.351034,-32.620682
26895000000,-18.692198,165.15271
26950000000,-30.479246,-24.968056
27005000000,-16.656635,129.49983
27060000000,-24.997625,-59.6493
27115000000,-21.092144,160.47551
27170000000,-18.088049,-113.50115
27225000000,-18.523951,114.75044
27280000000,-34.183716,-131.9131
27335000000,-21.226078,78.44635
27390000000,-26.508854,-175.70117
27445000000,-20.531847,108.52345
27500000000,-19.567793,136.23215
27555000000,-19.052797,79.54985
27610000000,-21.349363,143.1483
27665000000,-22.349621,172.19731
27720000000,-15.414278,177.07484
27775000000,-19.801159,-133.06094
27830000000,-22.463848,-136.45427
27885000000,-30.263411,-122.20729
27940000000,-23.554428,157.10239
27995000000,-25.550991,-132.63127
28050000000,-19.432337,130.74956
28105000000,-26.913919,-143.40038
28160000000,-25.886644,158.53271
28215000000,-18.017445,-110.44129
28270000000,-24.343058,-164.32234
28325000000,-25.51952,-173.64714
28380000000,-18.72208,108.5027
28435000000,-37.735283,-155.82648
28490000000,-20.255354,116.17973
28545000000,-19.613773,-159.15778
28600000000,-15.944775,121.74741
28655000000,-23.807655,-169.49057
28710000000,-19.376877,110.45728
28765000000,-16.002737,-132.30751
28820000000,-26.02091,120.62661
28875000000,-18.604172,-105.60191
28930000000,-17.82567,49.969666
28985000000,-17.082443,-130.43585
29040000000,-24.234011,82.428337
29095000000,-15.934091,-148.02443
29150000000,-20.062458,79.791695
29205000000,-15.787035,-145.3869
29260000000,-31.081938,16.55806
29315000000,-13.599111,-138.92035
29370000000,-22.646601,53.196362
29425000000,-15.825522,-152.13458
29480000000,-19.360048,7.7299333
29535000000,-24.773878,-135.03802
29590000000,-24.815975,33.056103
29645000000,-14.436412,175.71327
29700000000,-21.865494,67.689438
29755000000,-16.626583,167.36726
29810000000,-30.055986,-2.4876101
29865000000,-13.334977,-156.64505
29920000000,-21.101276,-106.90992
29975000000,-17.269123,-136.06377
30030000000,-28.889183,-5.5112181
30085000000,-18.95705,-128.49681
30140000000,-18.807905,-55.023754
30195000000,-18.284828,-134.83208
30250000000,-27.198097,45.897057
30305000000,-19.275589,-173.44484
30360000000,-24.130741,11.933817
30415000000,-17.349791,-151.91125
30470000000,-25.34074,31.559797
30525000000,-15.464005,-170.43149
30580000000,-22.137394,29.381378
30635000000,-15.291474,-172.93271
30690000000,-20.86232,-1.5500913
30745000000,-12.474308,-172.79291
30800000000,-24.128166,15.981855
30855000000,-13.047758,176.9227
30910000000,-16.383741,-24.083033
30965000000,-12.330863,-161.37526
31020000000,-14.042117,-46.831867
31075000000,-17.098413,-177.06425
31130000000,-14.821877,-32.04121
31185000000,-14.644606,168.00131
31240000000,-12.898828,-48.200409
31295000000,-13.346518,162.0565
31350000000,-14.827465,-41.078648
31405000000,-15.410217,138.46582
31460000000,-11.767091,-57.036518
31515000000,-14.676751,149.26563
31570000000,-15.328258,-55.139133
31625000000,-14.25047,116.05917
31680000000,-14.482043,-61.87793
31735000000,-14.997351,123.24794
31790000000,-14.201715,-76.916008
31845000000,-14.694678,128.77248
31900000000,-16.167982,-84.388718
31955000000,-15.694382,115.09687
32010000000,-14.382499,-88.616692
32065000000,-17.837545,129.93085
32120000000,-12.954057,-88.423477
32175000000,-19.055168,111.19614
32230000000,-15.016563,-82.690208
32285000000,-19.211269,80.99292
32340000000,-13.781934,-78.368134
32395000000,-18.187702,86.093628
32450000000,-16.083839,-92.099167
32505000000,-16.310923,79.490997
32560000000,-13.966381,-87.868073
32615000000,-19.257885,82.832336
32670000000,-16.054199,-103.58862
32725000000,-15.875724,79.525841
32780000000,-15.827209,-101.18562
32835000000,-18.908806,62.549397
32890000000,-15.486217,-109.08131
32945000000,-18.231009,65.064743
33000000000,-15.743457,-116.66144
END

