!Keysight Technologies,N5224B,MY57181201,A.12.70.07
!Date: Friday, July 15, 2022 16:14:30
!Correction: S11(Full 2 Port(1,2)) 
!S21(Full 2 Port(1,2)) 
!S12(Full 2 Port(1,2)) 
!S22(Full 2 Port(1,2)) 
!S2P File: Measurements: S11, S21, S12, S22:
# Hz S  dB   R 50
22000000000 -21.541651 132.92792 -24.592829 115.21194 -24.630156 115.17085 -23.746426 126.29426
22013750000 -18.000986 62.064125 -24.674347 13.282844 -24.646019 13.900736 -20.901539 71.87677
22027500000 -18.593573 -5.8900867 -24.676725 -89.055176 -24.570694 -88.522644 -22.989656 4.1277394
22041250000 -22.876354 -95.611206 -24.555183 168.1497 -24.492596 168.75305 -29.250624 -104.73385
22055000000 -20.949726 135.11774 -24.57354 65.744904 -24.558046 65.559334 -23.024132 129.41643
22068750000 -17.201807 51.953247 -24.52408 -35.873276 -24.628412 -36.272263 -20.198965 52.264301
22082500000 -16.046734 -20.561005 -24.393549 -138.3311 -24.604427 -138.94368 -20.273186 -17.962769
22096250000 -16.848217 -91.849281 -24.330318 119.72054 -24.692045 119.09448 -22.542797 -108.22513
22110000000 -19.856997 129.37201 -24.618538 16.448132 -24.601053 16.247663 -21.975521 128.85049
22123750000 -17.163477 55.658966 -24.601475 -85.317795 -24.643986 -85.086678 -18.352613 42.791084
22137500000 -18.09042 -16.568829 -24.44434 172.69124 -24.376818 173.2507 -16.458273 -31.936518
22151250000 -22.124651 -110.12261 -24.365765 69.336975 -24.20594 70.167641 -15.315453 -107.9091
22165000000 -19.84915 126.54031 -24.492695 -33.475128 -24.471851 -33.666073 -21.678627 127.20274
22178750000 -16.620462 48.673195 -24.577988 -135.3584 -24.470545 -135.86235 -17.977604 48.224541
22192500000 -15.906653 -18.291496 -24.388866 123.82153 -24.338829 122.92856 -17.202085 -21.980562
22206250000 -17.618942 -90.315254 -24.347387 20.442078 -24.271723 19.899189 -17.618975 -92.807228
22220000000 -19.210985 127.29104 -24.577602 -83.114815 -24.555019 -83.238205 -21.103119 119.59528
22233750000 -16.72978 45.992489 -24.735359 175.84277 -24.63608 176.13907 -19.34901 51.288967
22247500000 -15.745452 -32.522846 -24.600729 73.552261 -24.527887 73.746246 -21.668152 -28.65107
22261250000 -16.072714 -110.85462 -24.562222 -29.67625 -24.561661 -29.252041 -23.908522 -131.1234
22275000000 -18.155251 121.05473 -24.502714 -131.56342 -24.486971 -131.66243 -20.344233 118.72178
22288750000 -16.332254 46.233814 -24.570278 126.67147 -24.658468 126.06577 -18.044554 48.741699
22302500000 -17.371689 -27.192692 -24.365459 25.400101 -24.675749 24.287268 -19.311855 -26.374443
22316250000 -20.989878 -123.35517 -24.10771 -77.265633 -24.463009 -78.458786 -22.894096 -121.55501
22330000000 -18.206179 115.70319 -24.45886 179.05692 -24.449577 178.99962 -20.010359 117.02595
22343750000 -15.921839 38.396648 -24.502392 77.493408 -24.397875 77.789261 -18.574398 51.434891
22357500000 -15.742359 -32.417103 -24.341505 -25.283504 -24.19528 -25.174578 -20.929506 -29.381786
22371250000 -18.023336 -109.11807 -24.373882 -128.51695 -24.047438 -128.22499 -24.456768 -143.73924
22385000000 -17.856234 111.82526 -24.440758 129.72993 -24.451096 129.2621 -19.273663 107.22342
22398750000 -15.803669 36.320591 -24.420439 28.364748 -24.381685 27.703485 -18.974178 39.607548
22412500000 -15.813771 -38.003181 -24.104059 -72.770264 -24.196268 -74.101601 -21.683537 -43.042706
22426250000 -18.235518 -122.48209 -24.083389 -176.80499 -24.29361 -178.2563 -22.745052 -164.41219
22440000000 -17.35676 108.66493 -24.464979 80.005882 -24.435362 80.068153 -18.691031 103.602
22453750000 -15.472271 36.417881 -24.435368 -22.122124 -24.527519 -21.16119 -17.527887 33.714722
22467500000 -16.946262 -37.238163 -24.564564 -124.48046 -24.537302 -123.24792 -19.725607 -40.204559
22481250000 -21.034464 -134.13776 -24.476776 133.36154 -24.316179 133.65649 -23.327482 -148.57787
22495000000 -17.177296 102.65251 -24.372873 30.575636 -24.382427 30.329359 -19.033415 101.56841
22508750000 -15.818426 23.704113 -24.420513 -69.204002 -24.381735 -69.521851 -18.038225 39.418781
22522500000 -15.536214 -54.832352 -24.254478 -171.12402 -24.161776 -172.13824 -22.028908 -32.105022
22536250000 -16.468655 -134.16588 -23.937498 84.393318 -23.964125 83.691849 -26.066896 -165.0414
22550000000 -17.045677 99.754814 -24.436171 -18.568684 -24.392569 -18.863005 -19.003098 93.359932
22563750000 -16.063322 29.745827 -24.539545 -120.21875 -24.495716 -120.14863 -19.406158 30.633492
22577500000 -18.789257 -48.85482 -24.413872 137.33949 -24.323149 137.90773 -24.14562 -65.569588
22591250000 -21.479141 -165.14861 -24.476044 34.577896 -24.2925 34.503628 -22.301121 164.98346
22605000000 -16.597544 92.38958 -24.463419 -67.617165 -24.483496 -67.659615 -17.852688 86.757767
22618750000 -15.302958 19.874773 -24.369101 -168.28218 -24.374634 -168.71425 -17.378441 18.959305
22632500000 -16.538342 -53.077454 -24.069422 88.720482 -24.091515 88.870918 -20.173189 -64.982216
22646250000 -20.964622 -132.23724 -24.132807 -13.739597 -24.239733 -13.56065 -22.611158 175.16042
22660000000 -16.677315 87.975433 -24.401785 -116.93717 -24.380825 -117.17551 -18.03021 83.902451
22673750000 -16.000631 11.847498 -24.248766 142.0508 -24.411682 142.05521 -18.343626 23.992544
22687500000 -16.554863 -65.323067 -24.028078 39.817722 -24.200481 39.831005 -24.466784 -54.838215
22701250000 -18.141062 -146.99519 -23.909615 -64.208099 -24.297548 -64.251915 -24.807507 148.60219
22715000000 -16.515352 84.152573 -24.392912 -165.20624 -24.409418 -165.36507 -18.516264 75.372414
22728750000 -16.477404 14.504827 -24.298244 93.732651 -24.174038 93.305717 -19.347441 16.001215
22742500000 -19.964682 -67.590096 -24.099073 -8.7005911 -24.056938 -9.3928986 -26.429909 -50.034443
22756250000 -22.81522 169.41344 -24.037374 -111.68267 -24.087366 -111.64314 -29.454794 97.724472
22770000000 -16.290251 75.51548 -24.273634 145.97447 -24.300611 145.79984 -17.884424 68.142975
22783750000 -16.15686 1.7887563 -24.216324 44.104378 -24.252747 44.236279 -19.394028 -3.5732913
22797500000 -17.769756 -70.332695 -24.176327 -59.914715 -24.181471 -59.41827 -22.711386 -99.492599
22811250000 -22.619905 -154.53297 -24.348049 -162.53149 -24.185696 -161.94475 -21.298704 146.39001
22825000000 -16.765118 71.56842 -24.255987 96.228706 -24.271044 96.231018 -17.599161 65.508232
22838750000 -17.1227 3.4490292 -24.293997 -5.3411674 -24.221745 -5.8451953 -19.873575 -0.55280292
22852500000 -20.570961 -72.575836 -24.103836 -107.09731 -24.095695 -107.80277 -25.400627 -97.953522
22866250000 -25.058525 172.31779 -23.925299 150.02522 -24.072227 149.28751 -22.085802 128.89766
22880000000 -16.600559 66.965591 -24.307022 47.347172 -24.365549 46.925797 -18.095341 57.702606
22893750000 -17.351583 -0.92085838 -24.017324 -54.789833 -24.142691 -54.335804 -20.114046 -25.024284
22907500000 -21.166355 -77.335373 -24.006239 -157.57764 -24.020317 -157.10452 -21.964132 -125.12675
22921250000 -27.8395 148.31987 -24.322218 99.894966 -24.204847 99.818176 -20.673508 131.88382
22935000000 -16.751072 59.973858 -24.154398 -1.4389107 -24.142399 -1.5062656 -18.440561 46.887928
22948750000 -17.51277 -12.201455 -24.160921 -102.90987 -23.928108 -102.61884 -21.767805 -32.628063
22962500000 -20.820107 -85.041481 -24.206148 153.31331 -23.744699 153.54111 -22.604975 -149.19261
22976250000 -27.990685 166.33638 -24.23518 50.417484 -23.743137 50.482567 -19.389833 114.70074
22990000000 -17.224869 53.213799 -24.129482 -51.079502 -24.118929 -50.972691 -18.338575 44.306606
23003750000 -19.411346 -8.7344494 -23.965927 -153.02037 -24.120836 -153.08592 -21.680248 -24.50309
23017500000 -26.575277 -100.43253 -23.886492 104.12293 -24.09045 104.19784 -26.38464 -145.53708
23031250000 -23.823389 105.44442 -23.926849 1.5773798 -24.170074 1.1174273 -21.294312 105.58617
23045000000 -17.395334 50.620369 -24.287226 -99.469955 -24.240572 -99.403023 -18.659893 39.333508
23058750000 -18.979815 -16.733034 -24.032408 158.53584 -24.011253 158.44292 -25.157587 -39.510677
23072500000 -24.531551 -88.580551 -23.938311 55.682201 -23.895618 55.098118 -24.130787 172.01686
23086250000 -32.80452 76.477608 -24.001585 -46.782734 -24.166079 -47.17458 -19.106977 88.953026
23100000000 -17.906952 43.399216 -24.058567 -148.32657 -24.056396 -148.55231 -18.816294 30.713589
23113750000 -20.799332 -26.010349 -23.91271 108.70413 -24.008638 108.58629 -24.239199 -74.277237
23127500000 -29.54907 -130.87656 -23.996954 5.8440652 -24.040638 5.2670345 -20.690084 164.79991
23141250000 -24.942884 75.078407 -24.183798 -96.238327 -24.232517 -96.774483 -17.970264 91.082527
23155000000 -18.369909 37.551037 -24.018465 162.31506 -24.045916 162.18225 -18.814192 24.058912
23168750000 -22.763098 -25.245863 -24.07922 59.423222 -23.915354 59.358429 -24.582565 -65.025864
23182500000 -35.544182 -166.38936 -24.286108 -43.177914 -24.009378 -42.994827 -24.736168 162.45029
23196250000 -22.255447 58.905254 -24.324461 -144.5242 -23.947289 -144.56483 -20.091444 78.690254
23210000000 -18.762938 33.585979 -24.085012 113.04761 -24.071594 112.75505 -19.980297 17.28418
23223750000 -21.392187 -46.371536 -23.907848 10.605276 -24.020752 10.094544 -29.618834 -48.884838
23237500000 -26.477133 -140.61806 -23.936882 -92.156029 -24.191319 -93.254265 -25.722284 96.319008
23251250000 -29.507278 85.405396 -24.072701 166.22115 -24.395842 165.37482 -18.922699 32.854027
23265000000 -19.767651 25.712114 -24.058601 64.808357 -24.057302 64.46875 -20.314936 9.7224674
23278750000 -27.140152 -56.789417 -23.992235 -38.933655 -23.913496 -38.665428 -25.318802 -126.17606
23292500000 -25.296223 140.66251 -24.068945 -140.80466 -23.968256 -140.43341 -18.630409 140.68744
23306250000 -20.455153 65.136551 -24.115028 117.58093 -23.928303 118.40668 -16.990555 74.847298
23320000000 -20.425714 23.440201 -24.012913 15.567104 -24.027641 15.510356 -20.565941 4.9285183
23333750000 -26.296412 -43.195023 -23.874216 -87.111618 -23.964022 -87.322037 -24.562164 -97.496521
23347500000 -35.358959 112.25141 -23.852837 169.90018 -24.052881 169.69812 -22.719055 147.46826
23361250000 -22.226942 30.21966 -23.966436 67.841248 -24.093794 67.916946 -20.857513 65.170326
23375000000 -20.951763 21.050461 -24.064146 -33.827324 -24.027588 -33.831589 -21.366146 -1.8886591
23388750000 -27.479858 -53.475235 -24.074467 -136.2718 -23.973711 -135.944 -26.020502 -111.866
23402500000 -31.312561 103.05829 -24.18362 121.12573 -24.05904 121.87218 -25.22802 139.22168
23416250000 -22.659891 25.560942 -24.114508 18.657028 -24.012575 19.573542 -23.756842 48.902008
23430000000 -21.933573 11.434245 -24.032476 -82.254288 -24.086575 -82.20546 -22.527269 -9.6718769
23443750000 -37.963196 -78.770142 -23.865725 174.43616 -24.009636 174.09784 -24.142305 -136.13972
23457500000 -24.961594 92.63311 -24.008896 72.016136 -24.23324 71.716087 -21.660297 127.19551
23471250000 -20.424082 29.522512 -23.950951 -28.81233 -24.300327 -28.982456 -20.594038 55.319901
23485000000 -23.931339 10.514892 -24.004984 -131.62209 -23.98107 -131.79007 -23.535965 -12.874349
23498750000 -38.112148 -25.593359 -24.025505 125.65409 -23.918749 126.13555 -24.706667 -143.58517
23512500000 -26.992241 43.817402 -24.266333 22.549782 -23.982998 23.573442 -21.853254 122.88035
23526250000 -21.065941 -7.1967201 -24.329899 -78.422615 -23.861622 -77.855629 -20.960081 52.817802
23540000000 -25.226019 10.696085 -24.006771 179.56738 -24.019602 179.33441 -25.078348 -18.556795
23553750000 -39.894115 108.10112 -24.051302 77.108635 -23.979139 76.455345 -28.677662 -166.17696
23567500000 -23.122149 74.45562 -24.118605 -24.547686 -24.115501 -25.594183 -21.928751 95.695366
23581250000 -20.322056 21.27557 -24.032389 -125.88274 -23.995192 -126.08079 -21.290766 30.684237
23595000000 -26.241495 6.7220688 -24.019707 131.43803 -23.977558 131.31909 -25.716291 -33.475533
23608750000 -33.413265 102.7506 -24.002518 28.099709 -23.923292 28.359697 -21.963463 155.83008
23622500000 -22.218821 58.475231 -24.215145 -73.912354 -24.168463 -74.517731 -17.222584 92.186234
23636250000 -18.591333 2.8643527 -23.977972 -174.49992 -24.164198 -175.37941 -18.132174 35.797134
23650000000 -28.932199 12.087684 -23.885946 82.13736 -23.906805 82.014618 -26.869375 -36.247501
23663750000 -37.083019 83.356415 -23.83823 -20.732674 -23.988714 -21.479151 -23.047907 179.76398
23677500000 -25.602518 41.287827 -23.898998 -122.78264 -24.155155 -123.59456 -19.638763 111.69918
23691250000 -21.527056 -17.828585 -23.906033 135.62613 -24.149803 135.03571 -21.637827 49.610405
23705000000 -30.748516 19.411282 -24.023645 33.330284 -24.013172 33.253475 -30.033314 -34.692921
23718750000 -29.733103 107.84673 -24.074883 -69.653336 -24.008699 -69.043488 -28.009558 148.32083
23732500000 -22.410229 68.321732 -24.217642 -171.42973 -24.013954 -171.26341 -23.062784 81.972069
23746250000 -21.37026 17.697329 -24.263575 87.12085 -23.946844 87.113083 -23.271877 17.813475
23760000000 -31.978016 37.392567 -24.030924 -15.310702 -24.013443 -15.385822 -32.689987 -39.976898
23773750000 -28.815699 70.087624 -23.991358 -117.22578 -23.983437 -117.69793 -23.594994 124.91948
23787500000 -23.170292 32.889645 -24.011055 140.97826 -24.050013 139.78683 -18.561747 65.111481
23801250000 -20.967443 -19.398603 -23.893335 39.025234 -24.071178 37.663811 -18.286791 8.5045147
23815000000 -30.379593 58.12439 -24.019955 -63.976707 -24.013765 -64.041161 -32.676556 -30.421598
23828750000 -29.26325 95.193161 -24.133024 -166.67477 -24.148411 -166.36574 -23.534445 143.61934
23842500000 -26.031757 73.596352 -24.170984 91.469345 -24.222082 92.255096 -18.981241 80.829224
23856250000 -26.738232 46.737995 -24.163733 -10.152723 -24.055527 -9.7322903 -18.303457 27.165911
23870000000 -29.519056 58.102768 -23.851231 -112.48412 -23.882441 -112.47418 -37.346966 5.7464476
23883750000 -26.751003 65.810966 -23.899645 144.60133 -23.904608 144.3728 -28.402632 131.65694
23897500000 -21.816792 33.993675 -23.970652 42.729675 -23.955074 42.73838 -23.561926 71.264137
23911250000 -20.076363 -14.55801 -24.017767 -59.446861 -23.97884 -59.467663 -26.159367 21.873602
23925000000 -30.065739 67.993362 -23.940939 -161.7662 -23.93745 -161.95459 -46.776733 36.690205
23938750000 -27.706894 54.408791 -23.941435 95.739128 -23.973907 95.824562 -27.456413 129.27493
23952500000 -24.970278 7.5352468 -24.056149 -6.2790351 -24.084669 -5.7640882 -23.701561 75.357529
23966250000 -23.602747 -48.100536 -24.068745 -108.13274 -24.078646 -107.34337 -26.251156 22.569544
23980000000 -26.382704 73.483673 -23.94272 150.06108 -23.974138 149.87933 -38.641853 5.5231924
23993750000 -27.705774 71.966431 -23.919834 47.930935 -24.125856 47.527523 -26.705318 97.833763
24007500000 -26.457497 60.887592 -23.757206 -53.854294 -24.18092 -54.516434 -20.584454 44.773239
24021250000 -25.495689 49.270031 -23.671518 -155.9713 -24.255621 -155.77364 -17.89213 -13.504826
24035000000 -25.893702 62.201496 -24.036243 101.8218 -23.998161 101.76218 -33.018856 29.740221
24048750000 -26.941618 24.455076 -23.906893 -0.30095845 -23.984848 -0.55363888 -29.952398 135.84579
24062500000 -26.814987 -4.760592 -23.871014 -102.45044 -24.044777 -102.73184 -25.526356 95.412521
24076250000 -25.081041 -49.678516 -23.774591 155.65416 -23.962294 155.22783 -26.24645 53.005627
24090000000 -25.626528 64.380493 -23.888809 53.080719 -23.91724 52.899792 -32.280384 49.765377
24103750000 -28.332582 61.173626 -23.959888 -49.460632 -23.871363 -49.391304 -26.62895 111.10506
24117500000 -27.950567 53.138134 -23.925583 -151.44286 -23.701578 -151.25465 -23.133734 76.865463
24131250000 -25.809845 39.932362 -23.999439 106.15496 -23.641949 106.09303 -23.964651 37.060242
24145000000 -24.68292 62.107906 -24.010841 3.697119 -24.024239 3.5536461 -33.121544 40.442123
24158750000 -29.936827 51.579411 -23.959427 -98.738846 -23.938789 -98.926613 -29.489275 151.6646
24172500000 -28.097328 83.678673 -24.103115 159.14522 -23.963053 159.06059 -24.677708 103.392
24186250000 -24.82477 73.061775 -24.278152 57.494244 -24.114874 57.238598 -24.279129 55.708138
24200000000 -24.368809 51.796673 -23.995245 -44.026173 -24.040039 -44.186226 -30.096373 28.591759
24213750000 -33.844894 -16.008421 -23.899862 -146.37378 -24.03167 -146.4234 -29.433598 169.65146
24227500000 -33.069839 170.18509 -23.882561 111.45267 -24.020603 111.05199 -22.980251 118.78008
24241250000 -27.193993 99.636734 -23.836712 9.426465 -24.053671 9.2146759 -22.53697 69.899178
24255000000 -24.353994 56.193779 -23.925028 -92.7752 -23.926207 -92.771439 -28.829351 28.631847
24268750000 -36.435829 74.142426 -23.840681 165.41861 -23.886845 164.88075 -32.3507 141.33411
24282500000 -26.245607 115.88039 -23.816977 62.4879 -23.862593 61.730129 -23.635611 95.787796
24296250000 -21.7651 80.066673 -23.80192 -39.729191 -23.970711 -40.269775 -22.894358 52.584389
24310000000 -23.892376 46.362144 -23.933409 -140.9207 -23.926571 -140.98592 -29.647837 21.453434
24323750000 -28.008646 0.54758155 -23.815903 115.91308 -23.800673 116.00063 -26.09104 151.4919
24337500000 -31.551891 41.963966 -23.839788 14.090186 -23.831917 13.673186 -19.518074 102.56065
24351250000 -22.633745 -0.450703 -23.809288 -87.920555 -23.755064 -87.950172 -20.155682 54.164471
24365000000 -24.040445 35.607647 -23.966875 169.9575 -23.996861 169.75102 -27.950483 7.3924742
24378750000 -40.118412 49.254906 -23.967512 67.238899 -23.882088 67.016777 -24.843601 -175.41133
24392500000 -25.924416 84.48925 -24.108942 -34.421768 -23.994698 -34.775879 -19.426105 120.42031
24406250000 -21.016275 34.181129 -24.193956 -136.49406 -24.025555 -136.70915 -19.494345 65.581718
24420000000 -24.759861 39.406055 -23.958281 122.35921 -23.938757 122.07712 -26.794985 2.6547468
24433750000 -35.137249 28.596994 -23.938129 19.611559 -23.935873 19.455469 -30.293674 -166.97385
24447500000 -25.402433 75.991302 -24.056776 -82.576668 -23.997763 -82.930962 -23.72509 115.31122
24461250000 -20.846306 30.281422 -24.039312 175.7336 -24.025761 175.27664 -23.026325 51.724815
24475000000 -24.023077 32.337757 -23.877239 73.676231 -23.88319 73.649483 -27.290329 0.85244894
24488750000 -37.066666 -2.9155092 -23.962822 -28.443192 -23.941061 -28.987415 -36.39188 158.6152
24502500000 -27.24332 84.43985 -24.009865 -130.49246 -24.072628 -131.51501 -24.671206 51.461868
24516250000 -20.776205 17.962809 -23.941256 128.06961 -24.109983 127.5428 -19.843224 -19.341862
24530000000 -24.314558 26.041145 -23.856171 24.93807 -23.86141 24.832703 -27.785233 -13.249542
24543750000 -32.35207 -176.91414 -23.880123 -78.259773 -23.921177 -78.214638 -27.334021 164.20033
24557500000 -21.86861 111.44392 -23.970011 -179.42583 -24.00948 -179.88666 -19.741302 78.647392
24571250000 -20.505152 62.656994 -23.97682 79.56192 -24.145039 78.245834 -16.550182 8.7920561
24585000000 -25.433422 18.929234 -23.828115 -23.61491 -23.87929 -23.771183 -27.337872 -17.050913
24598750000 -41.28476 71.245865 -23.756248 -125.81347 -23.765738 -126.22194 -24.360435 -157.7473
24612500000 -22.753971 65.822044 -23.798958 132.73474 -23.86031 132.35898 -21.417173 117.72546
24626250000 -18.271759 5.1685333 -23.68247 30.664593 -23.751266 30.343239 -21.704182 49.553772
24640000000 -25.695684 14.77945 -23.788912 -71.854591 -23.809635 -72.051643 -27.742231 -33.78109
24653750000 -31.427341 146.45461 -23.755529 -174.82582 -23.800648 -174.8564 -24.589685 173.49358
24667500000 -21.279274 78.514107 -23.922611 83.347046 -24.017862 83.349731 -19.863434 97.870094
24681250000 -17.753202 17.44384 -23.909027 -17.796709 -23.900959 -17.872864 -20.471668 33.204464
24695000000 -27.834078 13.156009 -23.825247 -120.46667 -23.852581 -120.5807 -27.778984 -41.999012
24708750000 -32.533867 152.65894 -23.956495 136.39709 -23.846283 136.80075 -22.159647 179.32098
24722500000 -21.645811 78.118469 -24.273544 34.698006 -23.985907 35.046925 -19.221323 105.60205
24736250000 -18.232618 17.162161 -24.176388 -66.167976 -23.930771 -65.775284 -20.722576 39.54351
24750000000 -27.599974 9.0681448 -23.938616 -168.20586 -23.972761 -168.19505 -28.123476 -47.543724
