!Keysight Technologies,N5224B,MY57181201,A.12.70.07
!Date: Friday, July 15, 2022 16:12:59
!Correction: S11(Full 2 Port(1,2)) 
!S21(Full 2 Port(1,2)) 
!S12(Full 2 Port(1,2)) 
!S22(Full 2 Port(1,2)) 
!S2P File: Measurements: S11, S21, S12, S22:
# Hz S  dB   R 50
22000000000 -19.712296 165.53397 -53.70697 -167.65268 -53.885353 -166.63432 -20.711214 149.25346
22013750000 -15.884322 79.424194 -54.107269 88.714531 -55.00536 90.447388 -17.805256 76.273384
22027500000 -15.280847 1.8782341 -55.703274 -31.432213 -58.644958 -39.216801 -19.070658 -1.6614656
22041250000 -18.019697 -91.729309 -56.275173 -103.71577 -57.348125 -108.12161 -22.246984 -113.49986
22055000000 -17.220009 149.85912 -56.152653 145.01833 -56.38348 145.21124 -19.034294 131.88225
22068750000 -14.556091 57.51416 -53.391811 45.216393 -54.889557 45.43819 -17.21213 48.513107
22082500000 -13.501917 -21.450565 -54.391273 -54.510216 -55.889069 -54.549171 -17.793587 -32.886162
22096250000 -14.488138 -102.68583 -56.178761 -172.52284 -55.983036 -176.6615 -19.712845 -131.35606
22110000000 -16.352627 130.01332 -52.877476 91.033798 -52.889671 88.800262 -18.915579 112.69579
22123750000 -14.428807 49.15564 -55.325745 -2.6414208 -55.942505 -4.2081084 -16.885878 29.621431
22137500000 -15.888997 -32.222534 -53.439636 -104.27198 -52.68346 -100.39481 -15.794065 -48.009609
22151250000 -18.55162 -134.53006 -52.830353 126.53497 -54.213783 131.50108 -16.073551 -122.40703
22165000000 -16.455835 112.32504 -54.559151 9.4681282 -54.338833 7.4398017 -20.734135 96.986969
22178750000 -14.797377 32.952942 -53.620586 -64.215919 -52.982773 -65.542465 -19.391058 29.146746
22192500000 -15.592325 -40.617699 -54.958263 -179.27635 -55.654816 -177.8647 -19.24733 -31.63064
22206250000 -19.578136 -118.42694 -55.346951 96.074013 -55.623947 91.148827 -21.226608 -93.042549
22220000000 -17.84042 97.391083 -56.63599 -19.052927 -56.323406 -27.139994 -24.022911 93.264755
22233750000 -17.373072 20.26483 -54.435261 -121.48198 -54.972031 -127.1712 -23.499874 46.651749
22247500000 -17.903496 -53.245827 -55.134659 132.70737 -56.159336 132.41158 -26.667522 -10.940042
22261250000 -20.094753 -123.94556 -55.545139 29.792084 -54.760616 28.895485 -30.583584 -109.55942
22275000000 -21.015514 92.772842 -56.65247 -76.925034 -57.824432 -79.96093 -24.903173 121.78733
22288750000 -20.085146 35.15094 -53.268604 -172.17159 -53.426399 -175.05476 -20.199556 65.479088
22302500000 -22.344782 -18.370588 -52.851257 82.709488 -53.209068 75.988663 -19.785128 -5.9754806
22316250000 -28.198378 -93.237404 -55.635387 -51.764084 -57.695015 -51.785648 -22.915279 -88.842224
22330000000 -23.255383 114.05934 -54.457363 -113.60017 -54.873066 -114.92242 -21.09223 141.07172
22343750000 -19.202694 48.717003 -53.346245 132.84521 -53.536137 130.27132 -18.304247 68.160873
22357500000 -17.58285 -13.668451 -53.359062 24.736671 -53.513672 27.010571 -18.682922 -7.6678925
22371250000 -18.101786 -82.079834 -53.142361 -67.447639 -51.911827 -72.103828 -21.60099 -117.37161
22385000000 -20.798998 134.49265 -56.746597 164.98849 -56.407509 158.96158 -18.769258 126.55033
22398750000 -16.782812 56.533661 -54.21917 72.957466 -53.777237 71.968628 -16.680141 51.884136
22412500000 -15.392685 -19.441895 -55.497978 -33.242302 -54.438602 -25.49954 -18.75042 -34.514076
22426250000 -16.524746 -99.703323 -54.995834 -133.12775 -56.123749 -139.17618 -19.53857 -145.25807
22440000000 -17.173752 133.24672 -56.634834 137.10455 -56.433094 135.41464 -16.317219 111.24075
22453750000 -14.272774 52.057198 -54.502945 8.2006445 -53.865929 8.5873928 -15.342515 35.544506
22467500000 -14.472011 -24.388702 -57.602909 -77.407616 -56.870682 -80.574783 -16.822874 -47.149326
22481250000 -17.041454 -118.96494 -55.50285 172.66354 -55.191315 179.424 -19.453753 -156.06462
22495000000 -15.128551 119.24997 -58.395992 71.624519 -60.318775 62.333454 -16.225622 99.285751
22508750000 -13.428289 33.429371 -57.183876 -10.374601 -57.726051 -22.97588 -16.256744 26.462555
22522500000 -12.938422 -51.239819 -53.475971 -123.98056 -52.702564 -125.3952 -20.414108 -57.147812
22536250000 -13.548107 -137.49164 -58.743572 119.28187 -58.65715 125.11449 -21.143604 170.05533
22550000000 -14.072269 103.22737 -54.158432 25.407579 -53.432247 23.397278 -16.961111 77.73925
22563750000 -13.460432 25.518332 -55.15176 -87.438446 -55.795322 -91.261658 -19.097815 6.7497864
22577500000 -15.800858 -62.206161 -57.084816 160.82721 -57.373455 170.14438 -23.622614 -106.8962
22591250000 -17.251175 -175.77829 -55.411213 71.59713 -55.885204 67.521416 -20.567039 139.92693
22605000000 -14.04623 86.754417 -58.638378 -27.158674 -57.303112 -26.746611 -17.647739 66.67659
22618750000 -13.454709 7.7089229 -54.760895 -131.44312 -54.9217 -128.96613 -19.754808 -0.18450436
22632500000 -15.541272 -73.363052 -58.606354 138.31755 -58.767708 135.45694 -25.313652 -76.704681
22646250000 -20.279589 -166.24362 -57.629902 21.150072 -57.324924 24.143852 -26.193644 144.60573
22660000000 -14.814362 71.154839 -57.173893 -66.995285 -56.96674 -68.742004 -21.026691 70.922897
22673750000 -15.236669 -9.3708239 -55.163857 -172.70311 -55.188145 -171.92685 -22.031481 33.026371
22687500000 -17.375265 -89.925789 -55.904331 67.401985 -56.778072 69.973198 -27.586966 -4.2506933
22701250000 -20.984331 -176.30719 -55.381889 -22.107656 -56.440384 -24.44537 -35.575951 134.66383
22715000000 -16.894453 59.649826 -55.56847 -132.37822 -56.713345 -134.72804 -21.680098 82.344337
22728750000 -19.450699 -5.6069288 -56.560444 127.6855 -57.651455 128.28421 -20.513044 40.356136
22742500000 -27.378368 -91.956863 -56.909428 29.354568 -56.719803 33.020676 -23.239317 -15.752655
22756250000 -26.912897 112.48086 -58.277195 -67.208 -58.07243 -65.828659 -41.569366 -17.952473
22770000000 -19.455963 59.761738 -53.844276 174.24875 -54.312481 176.47981 -18.892172 85.2052
22783750000 -20.393229 2.1183772 -56.403168 73.042145 -56.140804 70.324051 -18.877485 15.67566
22797500000 -21.528778 -52.181946 -56.949116 -22.053421 -55.92046 -10.998208 -21.171848 -72.784454
22811250000 -25.678211 -106.59288 -55.397331 -138.89835 -55.55748 -129.73933 -20.64378 168.57707
22825000000 -20.752611 78.387543 -54.542191 136.59846 -54.360756 139.53114 -16.879745 79.022385
22838750000 -19.547346 24.759825 -56.559715 5.6436987 -56.645557 12.103141 -17.480236 10.861824
22852500000 -20.637075 -38.660477 -54.529259 -95.245674 -53.714439 -99.143951 -21.339729 -85.200531
22866250000 -26.360918 -125.86063 -58.503643 -166.46175 -58.333897 -167.13486 -20.173693 149.60185
22880000000 -18.564497 87.877075 -55.362049 61.047707 -54.666763 67.976746 -16.018467 66.311127
22893750000 -16.889658 22.941422 -59.071598 -39.160934 -57.108978 -40.440449 -17.250044 -19.684978
22907500000 -18.439157 -49.795662 -57.443676 -140.33458 -56.717979 -132.18279 -18.114765 -121.38319
22921250000 -24.484413 -148.89661 -56.647873 122.59291 -56.257351 115.6405 -17.693069 135.77682
22935000000 -16.203558 82.657776 -56.090195 11.632538 -57.34866 15.858282 -15.805472 47.278446
22948750000 -15.205717 6.4975729 -56.457775 -94.04155 -56.252296 -96.289436 -18.082018 -42.841644
22962500000 -16.7416 -74.068657 -59.312469 170.05421 -57.462158 177.9698 -18.731609 -155.33897
22976250000 -20.592901 -171.45911 -59.352962 81.998283 -60.471569 75.89019 -16.704077 109.05861
22990000000 -14.841421 68.542099 -57.307991 -31.107738 -57.496353 -39.491917 -16.224428 31.6182
23003750000 -15.519212 -5.9711685 -56.097961 -144.50987 -56.803162 -138.58908 -20.234697 -53.961933
23017500000 -19.475426 -102.4626 -59.227654 126.93436 -58.922554 121.82845 -22.362492 179.82036
23031250000 -19.235714 129.73164 -60.518642 15.408544 -61.007706 10.242102 -18.962078 83.409485
23045000000 -14.346884 52.065495 -65.536865 -55.916172 -62.846424 -76.111755 -18.591448 18.560741
23058750000 -15.526233 -26.900156 -56.175217 -172.47432 -56.940094 -168.58917 -26.041742 -95.981003
23072500000 -20.040462 -117.99014 -57.739094 64.281792 -57.758839 68.692406 -21.607944 133.92224
23086250000 -22.681328 102.03201 -59.006111 14.578735 -58.179718 9.4901428 -19.439318 66.313919
23100000000 -14.822916 33.869732 -56.923538 -104.26489 -55.841911 -113.11431 -21.731033 13.330105
23113750000 -17.98959 -49.757019 -55.67981 123.74138 -55.589733 123.73884 -28.81114 -125.42519
23127500000 -21.92905 -169.76657 -55.193298 29.419868 -55.785984 33.443607 -22.885029 134.92247
23141250000 -18.732332 70.858269 -55.120243 -85.045502 -54.874332 -81.039673 -21.319412 81.284981
23155000000 -16.390465 16.140024 -56.121647 -172.83299 -56.971695 -169.23755 -23.012249 31.466661
23168750000 -22.255184 -75.852554 -56.546047 82.449585 -55.767929 96.362335 -30.30657 -21.456808
23182500000 -23.626677 133.34875 -58.267277 -36.110268 -56.512447 -27.646038 -36.356174 153.83981
23196250000 -17.616594 42.769585 -55.732967 -135.36009 -56.018845 -145.17506 -24.72312 92.593407
23210000000 -19.795996 -0.74353909 -57.828686 133.34846 -55.751423 131.04033 -20.910275 40.629211
23223750000 -25.633902 -92.258995 -54.440151 17.936424 -55.059559 23.838951 -25.430445 -1.2527837
23237500000 -30.196564 123.03767 -60.353153 -64.35685 -60.02293 -65.088753 -35.881641 54.383701
23251250000 -25.399317 2.0836265 -55.928555 -179.78961 -56.08765 171.08617 -22.053802 43.401398
23265000000 -25.250832 1.0393076 -55.491241 64.521545 -55.953381 64.291489 -18.908749 31.367392
23278750000 -35.934021 130.28268 -58.674206 -21.982395 -61.313374 -33.968418 -25.082975 -86.914879
23292500000 -25.107948 78.602684 -58.113804 -107.97424 -57.926861 -111.50955 -18.978928 158.36714
23306250000 -23.852356 34.237263 -56.593357 158.9904 -55.642483 151.91449 -15.904547 88.884964
23320000000 -27.109146 47.388996 -55.323303 25.424931 -55.933002 27.249397 -18.082216 15.495639
23333750000 -26.151995 26.650694 -54.899067 -80.347435 -54.277256 -80.843132 -20.582724 -83.924789
23347500000 -26.700209 -4.1616545 -56.528076 175.45605 -57.08498 176.77811 -19.957737 163.92241
23361250000 -28.031057 -13.041063 -54.180119 76.37883 -55.729317 72.809334 -18.198652 75.303864
23375000000 -22.312298 58.355274 -55.401642 -45.304333 -54.527012 -43.368443 -18.140779 -2.2032647
23388750000 -22.946772 2.3976877 -55.92054 -135.63905 -56.478725 -135.44756 -20.835922 -108.48187
23402500000 -29.543083 -57.508766 -56.119068 116.70336 -55.725002 110.35437 -20.420448 144.6824
23416250000 -33.468555 49.982395 -58.534279 16.256124 -60.204163 35.80722 -19.473709 48.813332
23430000000 -19.733835 46.281361 -59.116837 -75.274246 -58.76775 -70.529739 -19.141241 -25.140839
23443750000 -23.603811 -21.205345 -58.627235 141.6817 -59.37595 139.31471 -19.670494 -143.52341
23457500000 -34.017277 169.47815 -60.668262 86.606239 -60.930336 81.534042 -18.010958 117.64494
23471250000 -21.565554 69.122757 -55.783779 -14.818097 -55.58316 -10.967559 -18.044666 37.669094
23485000000 -18.606695 26.813507 -55.937241 -117.32921 -55.340992 -121.63125 -21.98888 -50.668301
23498750000 -23.053585 -48.147919 -59.986588 152.15616 -60.155556 136.15692 -21.439741 -174.0547
23512500000 -31.322124 157.4362 -54.109856 28.078455 -53.661392 30.860014 -19.410891 97.893333
23526250000 -21.229273 30.042229 -60.05751 -92.752945 -61.620834 -89.892685 -21.623383 16.743851
23540000000 -18.741096 5.362361 -56.172733 -172.78772 -57.67606 -166.1763 -30.28001 -72.766518
23553750000 -26.127254 -112.98013 -57.223698 72.215141 -57.733643 87.384476 -24.829655 134.8824
23567500000 -20.526218 111.86923 -58.715405 -14.492287 -58.222576 -11.985477 -22.320101 61.321548
23581250000 -16.606213 34.08691 -56.489742 -113.12363 -54.986942 -114.4613 -24.67317 1.4320563
23595000000 -20.235518 -20.887836 -55.450577 132.83629 -55.255962 133.67284 -42.60144 32.721615
23608750000 -24.781885 -168.19862 -57.29686 36.622162 -57.896664 33.21286 -23.482327 125.48038
23622500000 -18.422413 80.856102 -55.265968 -57.46043 -55.130634 -65.555634 -19.729557 81.689835
23636250000 -15.008166 6.1754875 -53.469151 -175.12964 -54.368694 -175.01996 -21.302267 45.93066
23650000000 -23.939598 -55.777412 -55.565006 78.878685 -54.951664 72.193581 -27.899374 23.91943
23663750000 -23.570913 154.00909 -55.711384 -42.817291 -55.903332 -45.75386 -29.796686 -163.72011
23677500000 -19.097694 53.564697 -55.203629 -110.46542 -55.266827 -112.54449 -21.859566 131.79297
23691250000 -16.805796 -25.128082 -55.732849 123.18127 -56.546612 127.37769 -21.227135 76.010551
23705000000 -28.990185 -126.75602 -55.264679 14.178843 -55.037521 17.233795 -24.628309 13.901155
23718750000 -20.591417 114.97146 -56.013977 -83.866035 -54.878983 -79.150368 -32.685287 -136.68953
23732500000 -18.195854 45.508667 -57.084087 160.83318 -56.695221 165.85597 -24.019497 113.05667
23746250000 -20.682428 -21.010462 -55.599037 85.12162 -55.731468 79.446976 -21.266579 47.253086
23760000000 -26.773092 149.42633 -54.115669 -35.841778 -57.27417 -38.810406 -24.417583 -20.669455
23773750000 -20.671177 71.126778 -57.583565 -145.43068 -56.332294 -137.17288 -25.687651 162.86595
23787500000 -19.222288 6.1673908 -56.903389 147.33333 -57.436062 141.67262 -17.676414 82.680008
23801250000 -21.101749 -57.073132 -55.314102 40.225216 -55.731098 32.497849 -16.3901 18.157932
23815000000 -22.717293 106.84918 -57.497314 -95.475693 -55.87278 -94.153946 -23.740072 -46.479477
23828750000 -22.533154 50.582966 -56.014515 -149.69835 -55.307774 -156.29388 -20.758066 163.78983
23842500000 -29.756258 -1.6126324 -53.054901 86.479149 -54.515629 87.98925 -16.506674 87.277794
23856250000 -28.623922 138.10413 -55.265678 -26.847662 -55.1157 -19.7507 -15.786414 21.037436
23870000000 -20.928812 73.789574 -53.988003 -130.91212 -55.986988 -122.08154 -27.405773 -83.906235
23883750000 -21.829222 20.632925 -51.979515 114.99467 -52.215443 115.69573 -22.050369 141.68501
23897500000 -27.888874 -11.760077 -54.769272 8.8423872 -54.383762 5.5380888 -19.496086 65.392548
23911250000 -26.247524 14.658262 -56.574276 -88.956078 -55.553276 -84.667908 -22.281889 -11.368645
23925000000 -20.521608 48.370544 -57.063988 164.70573 -55.720524 152.22359 -27.572714 -152.44452
23938750000 -25.232597 -24.358971 -57.107239 57.663696 -56.954266 62.908543 -21.019068 114.56565
23952500000 -40.060402 -105.36421 -54.936581 -8.4896784 -55.748051 -2.1031795 -21.393751 45.301388
23966250000 -26.944687 25.146816 -55.694408 -140.19508 -56.281979 -142.68596 -26.371622 -35.39806
23980000000 -22.013271 22.910585 -58.233311 121.81571 -58.508537 128.02654 -27.341282 139.29173
23993750000 -35.58786 -126.96198 -59.091679 32.837959 -60.931904 42.938698 -21.755314 73.815346
24007500000 -22.047775 111.47141 -55.706512 -62.524796 -56.284729 -56.841171 -20.094952 15.181703
24021250000 -18.975561 45.577187 -53.697311 -172.61026 -54.058769 -173.20256 -20.642004 -28.465828
24035000000 -25.398582 -2.1306531 -56.293011 85.68132 -54.638313 84.764008 -24.952148 80.831238
24048750000 -37.385773 -159.47574 -52.658104 -28.202442 -53.931427 -22.901203 -30.820875 28.630306
24062500000 -24.439037 54.999836 -53.764091 -145.09001 -54.012939 -141.10728 -31.691532 141.51971
24076250000 -19.783705 -21.358532 -53.930218 145.56342 -53.778786 139.88815 -24.714447 98.506264
24090000000 -35.470798 -46.071148 -53.39735 25.613668 -53.20702 18.28101 -23.45027 48.046623
24103750000 -24.131617 122.26237 -54.729176 -74.124039 -54.640873 -76.274803 -38.372105 53.264633
24117500000 -19.884462 57.524754 -54.067192 172.28922 -53.809498 174.05679 -24.811022 112.82584
24131250000 -21.383842 -5.6038499 -52.697643 69.118744 -52.339081 70.312454 -21.190763 60.181496
24145000000 -31.380911 142.47137 -54.044113 -39.735291 -54.298615 -43.179703 -24.629135 17.186502
24158750000 -21.508499 93.690559 -54.675819 -158.80292 -54.910275 -158.14536 -26.439976 -145.19594
24172500000 -21.666037 38.78717 -54.42635 106.87744 -53.356544 109.29585 -20.939407 121.01873
24186250000 -34.40826 -24.335125 -57.356522 -4.6643715 -58.116146 -6.6339517 -20.139765 56.269901
24200000000 -23.110231 112.81065 -54.809998 -79.234352 -55.462708 -77.504784 -24.761913 -16.385071
24213750000 -23.568996 45.451691 -58.325108 147.14053 -58.320789 141.57217 -23.219658 -168.10246
24227500000 -27.599321 -50.524643 -56.478653 64.599403 -57.481274 66.778511 -18.820688 114.3631
24241250000 -25.184509 176.68431 -56.001038 -27.2586 -56.039173 -34.319565 -20.317616 47.711678
24255000000 -19.77124 86.345604 -56.390881 -154.96715 -56.585869 -148.46648 -28.346689 -36.235455
24268750000 -23.384745 27.116955 -55.732197 136.17216 -57.776203 130.63306 -23.36227 152.14249
24282500000 -33.633862 -138.04202 -52.464855 20.267727 -52.271259 21.21701 -19.969807 81.92321
24296250000 -20.85111 116.65375 -54.280396 -94.918495 -54.988487 -94.68148 -21.756014 20.401756
24310000000 -18.398943 60.208748 -54.457684 -178.07774 -54.449276 173.56412 -37.704388 -113.43816
24323750000 -20.574657 -13.858377 -53.153088 54.23595 -52.714081 55.120075 -20.8993 133.56238
24337500000 -28.674513 -107.23058 -57.314293 -28.923157 -55.869938 -29.664291 -19.259268 77.826515
24351250000 -24.659964 58.615067 -55.502209 -144.53464 -54.08297 -149.50655 -23.550602 33.991669
24365000000 -18.305988 34.660706 -55.12191 129.5296 -55.71962 126.60321 -34.635681 109.32087
24378750000 -24.479788 -60.215271 -53.178219 16.268 -52.874062 19.537411 -26.236879 128.17741
24392500000 -22.700401 143.13321 -53.576145 -106.47467 -53.859856 -99.913651 -24.398716 111.23659
24406250000 -17.422873 57.103809 -56.7612 159.35454 -56.648785 150.49905 -22.564047 86.161461
24420000000 -19.066332 8.2168436 -53.302544 65.742821 -53.176945 66.60334 -24.898363 59.29372
24433750000 -26.530069 -112.08005 -55.191517 -42.988037 -55.217346 -39.33086 -33.223553 -17.713007
24447500000 -20.368574 112.05228 -56.657978 -143.27222 -58.763947 -134.57292 -27.766603 160.96883
24461250000 -16.154699 32.461357 -54.120609 124.3859 -53.832813 120.84551 -22.186962 87.133217
24475000000 -21.711231 -16.285456 -54.113014 -8.6631613 -54.881618 -3.8877945 -22.434048 26.992327
24488750000 -26.311796 -161.00432 -53.762444 -71.772697 -53.924099 -69.743935 -29.311729 -60.49334
24502500000 -19.593966 87.089737 -54.36935 161.23198 -54.800541 164.35997 -30.845264 100.99588
24516250000 -16.657402 8.199481 -55.712105 59.090134 -56.742413 60.727962 -21.039989 3.6849589
24530000000 -26.597433 -43.421383 -52.672993 -25.693556 -52.255299 -24.476585 -22.160282 -6.8750978
24543750000 -21.937693 156.07747 -53.023983 -152.38504 -53.083626 -156.10301 -25.100782 -147.82278
24557500000 -18.389881 85.647598 -53.38271 119.2009 -53.845867 121.72626 -18.605967 96.950523
24571250000 -21.186905 23.973976 -52.642185 0.41738367 -52.58569 3.5120919 -15.113776 18.233807
24585000000 -41.528374 -127.55334 -55.770573 -111.11208 -56.017864 -116.93557 -21.611641 -31.586678
24598750000 -23.426836 102.87808 -55.068157 169.82393 -55.81863 172.23138 -20.4139 -153.08345
24612500000 -18.740961 36.476238 -52.844509 49.709709 -53.934467 49.279789 -17.745584 117.5471
24626250000 -18.191265 -24.510227 -54.282661 -61.513832 -54.893379 -58.877712 -18.633749 34.290825
24640000000 -28.917784 105.51517 -56.474434 -155.6642 -55.352837 -157.60654 -23.167814 -60.280571
24653750000 -23.703983 77.432114 -56.894497 100.37941 -58.186531 104.16392 -19.654667 170.53542
24667500000 -22.60445 35.883167 -57.834415 -2.0171227 -57.333828 0.55712533 -17.335434 87.395241
24681250000 -22.826786 1.1326869 -54.0131 -86.381958 -54.889996 -88.969055 -18.719648 13.920321
24695000000 -23.338623 73.87635 -55.208508 145.21443 -56.586426 155.07753 -25.36537 -95.271599
24708750000 -27.212564 31.685247 -55.239925 50.429001 -56.198383 49.641766 -19.798012 158.86424
24722500000 -30.84103 50.208679 -55.772617 -39.02507 -55.277935 -45.365513 -18.599857 84.338661
24736250000 -22.359402 38.183079 -55.815315 -171.55797 -54.83382 -168.12737 -22.752296 12.722997
24750000000 -21.224667 44.845993 -57.014645 105.60738 -56.502003 101.85892 -31.387108 -122.81755
