!Keysight Technologies,N5224B,MY57181201,A.12.70.07
!Date: Friday, July 15, 2022 16:06:06
!Correction: S11(Full 2 Port(1,2)) 
!S21(Full 2 Port(1,2)) 
!S12(Full 2 Port(1,2)) 
!S22(Full 2 Port(1,2)) 
!S2P File: Measurements: S11, S21, S12, S22:
# Hz S  dB   R 50
22000000000 -21.060558 122.66331 -24.463343 69.851791 -24.470665 69.800888 -26.348379 125.07513
22013750000 -18.272659 54.880791 -24.416161 -33.785587 -24.417181 -33.116253 -21.794737 79.962723
22027500000 -19.651546 -11.28818 -24.601398 -136.83591 -24.556662 -136.1118 -23.086414 17.705841
22041250000 -24.978939 -100.84004 -24.667624 121.57298 -24.620892 121.75794 -28.495489 -80.67141
22055000000 -21.94417 126.31809 -24.370781 19.632675 -24.438196 19.36664 -24.060417 138.47537
22068750000 -18.320997 48.040035 -24.581112 -83.743652 -24.699799 -84.089821 -20.361732 63.86647
22082500000 -16.999533 -19.094774 -24.479393 175.15518 -24.707512 174.94002 -19.313978 -11.124338
22096250000 -17.722057 -88.598495 -24.331558 71.201118 -24.701439 71.126205 -21.529259 -102.02519
22110000000 -21.651354 129.43486 -24.92625 -29.946558 -24.964319 -30.120813 -21.494392 137.49231
22123750000 -18.113237 59.481098 -24.726467 -131.88158 -24.726694 -131.65865 -17.909023 49.011814
22137500000 -18.688261 -8.2693138 -24.661591 125.84361 -24.63361 126.52477 -15.579741 -28.817207
22151250000 -22.204893 -97.153679 -24.560755 23.58279 -24.440937 24.346846 -14.618645 -107.77819
22165000000 -20.740211 133.40811 -24.584675 -79.592979 -24.607529 -79.470924 -20.183605 130.15695
22178750000 -16.855064 56.099476 -24.740004 179.55432 -24.633512 179.20714 -17.309631 48.999817
22192500000 -15.421229 -13.253237 -24.380894 78.240578 -24.345026 77.433777 -16.24819 -22.695189
22206250000 -16.81381 -86.899956 -24.306719 -25.922064 -24.212337 -26.386822 -16.944551 -97.834442
22220000000 -18.787062 134.98842 -24.49111 -128.57573 -24.493464 -128.92842 -19.496918 119.6489
22233750000 -16.244377 49.92205 -24.561884 129.22351 -24.502625 129.37715 -18.50597 45.490547
22247500000 -15.162871 -29.19574 -24.523869 26.630674 -24.41231 26.654245 -20.754555 -33.393162
22261250000 -15.148589 -110.96339 -24.486629 -76.228554 -24.541424 -76.156937 -22.238466 -141.18764
22275000000 -17.534388 123.43779 -24.268284 -179.41615 -24.265419 -179.30719 -19.186859 112.3103
22288750000 -15.5751 47.803719 -24.556578 78.402901 -24.647884 77.416489 -17.657261 40.198742
22302500000 -16.619637 -29.302406 -24.44467 -22.092989 -24.764336 -23.297319 -19.830416 -34.164524
22316250000 -19.99621 -125.15255 -24.008492 -126.17189 -24.416777 -127.04858 -23.165079 -134.25597
22330000000 -17.310026 115.22682 -24.613501 130.7662 -24.631964 130.68709 -19.920788 106.01995
22343750000 -15.387712 37.407524 -24.555063 29.577339 -24.444036 29.900772 -19.406004 42.545189
22357500000 -15.285216 -35.706833 -24.55864 -74.487892 -24.402306 -73.852104 -23.153965 -33.614803
22371250000 -17.80204 -115.07697 -24.744329 -175.98196 -24.43181 -175.54361 -26.268997 -153.40591
22385000000 -17.233553 109.3163 -24.518631 82.281059 -24.507845 82.032814 -20.355764 98.553459
22398750000 -15.374597 32.371094 -24.69364 -19.408007 -24.608053 -20.340927 -20.597101 39.6492
22412500000 -15.757672 -44.687126 -24.289152 -120.59107 -24.356705 -121.87309 -24.058371 -38.83046
22426250000 -18.536991 -128.92232 -24.240662 135.60371 -24.451029 133.96194 -25.577736 -159.37553
22440000000 -17.13026 101.64288 -24.718882 32.424751 -24.677507 32.303101 -19.999319 105.72288
22453750000 -15.835975 30.447529 -24.573326 -69.254189 -24.659849 -68.397766 -18.417324 40.724323
22467500000 -17.805628 -41.983044 -24.621922 -172.45207 -24.584892 -171.14449 -19.806347 -29.478954
22481250000 -23.100914 -139.81973 -24.821232 85.187019 -24.654358 85.596794 -23.454308 -130.4115
22495000000 -17.964439 97.073402 -24.572386 -16.240654 -24.570894 -16.320782 -19.181892 110.53958
22508750000 -16.662577 21.058363 -24.573742 -117.54221 -24.493502 -118.21558 -17.758286 46.891735
22522500000 -16.609941 -53.733639 -24.458715 141.36543 -24.400579 140.46889 -20.247993 -23.394094
22536250000 -17.37529 -130.11276 -24.192612 36.655514 -24.242401 35.791924 -24.153919 -148.10922
22550000000 -17.865667 100.58839 -24.729088 -66.601791 -24.729645 -66.725143 -18.192444 101.31948
22563750000 -16.883581 33.881393 -24.753399 -165.97314 -24.692839 -165.81238 -18.282541 32.844852
22577500000 -19.340656 -41.324055 -24.411201 88.790298 -24.326513 89.32206 -22.42466 -58.753822
22591250000 -22.647297 -156.15025 -24.774349 -13.69789 -24.575525 -13.704618 -20.972851 176.20599
22605000000 -17.24264 98.293671 -24.549837 -114.41267 -24.558159 -114.55547 -16.726496 90.071762
22618750000 -15.607985 24.092342 -24.524422 143.19247 -24.525076 142.65012 -16.336878 16.925184
22632500000 -16.334547 -46.07621 -24.314634 41.879715 -24.345686 41.634415 -19.358608 -67.766159
22646250000 -19.702051 -123.52931 -24.158642 -61.324718 -24.299324 -61.100006 -20.943033 178.97906
22660000000 -16.627661 93.728485 -24.576521 -164.57895 -24.597002 -164.60573 -16.776325 82.861893
22673750000 -15.611789 16.843893 -24.28684 94.17141 -24.439758 94.746483 -17.694344 18.262781
22687500000 -15.79535 -60.638111 -24.198881 -9.0351105 -24.420193 -8.5749388 -23.564709 -66.033401
22701250000 -17.222837 -144.23276 -24.080624 -111.64525 -24.427742 -111.42386 -22.81883 147.19551
22715000000 -15.818784 88.754387 -24.28488 147.18523 -24.289421 146.95158 -17.407738 70.869049
22728750000 -15.70429 16.372623 -24.272926 44.724369 -24.186155 44.339489 -19.143826 6.8291707
22742500000 -18.733633 -65.86631 -24.237974 -57.960903 -24.120243 -58.923935 -27.310118 -68.408173
22756250000 -20.673498 172.44667 -24.252954 -160.83391 -24.275507 -161.20277 -25.825436 96.449295
22770000000 -15.518064 76.732956 -24.420141 96.210304 -24.463404 96.13237 -17.614464 60.454502
22783750000 -15.244044 1.2118189 -24.298353 -5.4570227 -24.360901 -5.0459895 -19.911472 -13.428774
22797500000 -16.875687 -76.537445 -24.333611 -109.94748 -24.336197 -109.73204 -23.684824 -113.32445
22811250000 -21.567722 -165.15057 -24.683264 147.0224 -24.560236 147.80894 -21.747801 134.0027
22825000000 -15.956656 67.655045 -24.53191 47.455143 -24.500586 47.418777 -18.53643 58.4338
22838750000 -16.675529 -3.2526925 -24.469738 -55.295612 -24.410677 -55.753788 -21.591621 -2.3333342
22852500000 -20.283451 -82.081688 -24.378359 -157.7207 -24.394863 -158.62067 -29.765961 -104.92272
22866250000 -24.341122 152.66759 -24.286749 99.603142 -24.529314 99.107712 -24.551355 118.21574
22880000000 -16.443949 60.296677 -24.756311 -3.0646625 -24.761641 -3.1290789 -19.656385 58.590778
22893750000 -17.541698 -7.2587924 -24.465233 -104.704 -24.565451 -104.01152 -22.000248 -18.321836
22907500000 -22.770967 -86.89167 -24.499517 152.42793 -24.47986 152.91449 -24.129261 -115.9879
22921250000 -27.57963 122.8031 -24.893427 50.603447 -24.733452 50.769897 -23.312414 139.40524
22935000000 -17.261591 52.83865 -24.563753 -50.413811 -24.568895 -50.724716 -19.391174 59.232323
22948750000 -18.786774 -15.552117 -24.69318 -152.21439 -24.444731 -152.09775 -21.88818 -18.029253
22962500000 -22.781561 -87.046738 -24.664593 104.80505 -24.237356 105.25777 -23.892546 -134.56197
22976250000 -34.506348 161.20587 -24.685225 1.8567537 -24.177151 2.1134534 -20.341902 127.5747
22990000000 -18.767487 52.074596 -24.618715 -99.552063 -24.612877 -99.739685 -17.796299 56.457409
23003750000 -20.803486 -4.4903135 -24.436983 157.99901 -24.580347 157.77386 -19.985195 -16.722034
23017500000 -29.554304 -78.613113 -24.275284 56.36248 -24.500216 56.297688 -24.470688 -125.55153
23031250000 -27.180956 102.00647 -24.321354 -46.729153 -24.555099 -47.161564 -20.446424 117.43604
23045000000 -18.438879 55.103695 -24.475708 -148.30424 -24.462719 -148.45285 -17.430445 45.82486
23058750000 -19.17181 -6.9492397 -24.391655 108.70572 -24.330534 108.51274 -22.009428 -37.374611
23072500000 -23.763367 -73.133682 -24.498894 6.3578677 -24.388147 5.7175646 -22.476212 -177.81075
23086250000 -48.842918 77.89299 -24.269661 -95.55574 -24.465216 -96.118492 -18.150272 95.503632
23100000000 -17.874668 51.808167 -24.487782 162.09201 -24.520483 162.05095 -17.433876 30.83255
23113750000 -20.252687 -16.844347 -24.391327 59.403603 -24.469101 59.219837 -21.954414 -73.913589
23127500000 -27.905874 -106.57975 -24.505154 -43.876987 -24.540854 -44.255123 -19.344372 168.55844
23141250000 -25.988758 91.650078 -24.718834 -144.43866 -24.789646 -144.95079 -16.805159 90.721146
23155000000 -17.990646 44.480038 -24.481514 113.1915 -24.488251 113.3512 -17.959799 18.571573
23168750000 -21.014925 -20.252077 -24.460894 10.580376 -24.281399 11.111661 -22.970882 -72.716858
23182500000 -31.542448 -134.92242 -24.684942 -91.921089 -24.353264 -91.577454 -22.26178 157.98882
23196250000 -22.941807 70.861809 -24.760559 165.94656 -24.365252 165.94597 -19.157831 72.523026
23210000000 -17.573347 37.364681 -24.382263 64.604904 -24.394989 64.358093 -19.606157 9.4571457
23223750000 -19.709642 -44.841061 -24.25099 -38.186169 -24.387278 -38.956829 -29.582867 -79.965538
23237500000 -23.372353 -138.89108 -24.323797 -141.40381 -24.599804 -142.472 -23.296297 97.102188
23251250000 -25.806082 95.660736 -24.349659 116.9707 -24.669449 116.05566 -17.835337 27.273891
23265000000 -18.066425 25.501005 -24.443937 14.799617 -24.417553 14.528933 -21.224022 0.72867978
23278750000 -23.743412 -69.135475 -24.305189 -88.423561 -24.217892 -88.37114 -24.611395 -141.40099
23292500000 -22.555626 146.08508 -24.449022 168.73793 -24.347952 169.19164 -18.417223 130.62378
23306250000 -18.603737 66.490669 -24.358507 66.996857 -24.214649 67.616226 -17.877739 67.229973
23320000000 -19.450106 11.266741 -24.478666 -35.475021 -24.488043 -35.453491 -22.756077 2.3621876
23333750000 -26.423513 -70.932899 -24.229517 -138.27892 -24.349096 -138.27974 -27.808428 -106.12883
23347500000 -28.232632 111.50019 -24.414711 118.22743 -24.599302 118.11598 -25.452917 135.11705
23361250000 -20.396555 24.994865 -24.493382 17.099194 -24.656683 16.982779 -23.212708 64.756386
23375000000 -21.528158 7.475101 -24.578415 -85.572113 -24.549175 -85.71032 -24.115805 6.7444949
23388750000 -31.230679 -80.01358 -24.922625 172.26282 -24.836485 172.45926 -30.547533 -83.716782
23402500000 -27.75124 84.714729 -24.91013 70.926079 -24.783644 71.961212 -28.660885 151.26688
23416250000 -21.25169 14.125276 -24.947781 -31.579666 -24.881836 -30.587364 -27.388033 64.231575
23430000000 -24.169767 2.2612982 -24.715046 -132.58559 -24.781034 -132.50885 -22.651371 10.082418
23443750000 -42.451878 143.65225 -24.66831 124.05472 -24.870893 124.21546 -26.330626 -112.43101
23457500000 -23.573406 74.15686 -24.942516 23.006502 -25.140686 22.804905 -22.587914 145.08105
23471250000 -21.366184 17.372959 -24.720356 -77.196991 -25.019794 -77.37616 -20.402458 68.997101
23485000000 -27.14255 19.627497 -24.630337 -179.82854 -24.66721 -179.89752 -21.656149 1.4328516
23498750000 -31.206873 36.013973 -24.541059 76.299637 -24.456425 76.927719 -24.135569 -122.75805
23512500000 -26.140253 19.456163 -24.893812 -26.534943 -24.659718 -25.631538 -20.779097 139.2252
23526250000 -22.412712 -18.647024 -24.857821 -126.33923 -24.399727 -125.74996 -19.586517 59.764954
23540000000 -25.323317 31.881691 -24.451616 130.06227 -24.452154 129.80122 -22.147615 -12.640077
23553750000 -34.132038 40.616734 -24.517391 27.810745 -24.519737 27.402098 -25.427689 -147.13585
23567500000 -25.987173 68.760178 -24.527016 -75.378418 -24.524944 -76.089851 -20.940155 105.85104
23581250000 -21.49828 27.899513 -24.789743 -176.47124 -24.782019 -177.0175 -19.333399 34.267113
23595000000 -24.817087 22.189777 -24.482872 82.120529 -24.46653 81.784035 -23.418808 -38.029251
23608750000 -35.571075 39.720291 -24.660059 -23.319847 -24.569296 -23.358074 -20.639946 166.19568
23622500000 -24.092291 61.731667 -24.891415 -123.46687 -24.876251 -124.4121 -16.127363 92.88295
23636250000 -19.253542 9.540946 -24.680416 135.12904 -24.904175 134.29022 -17.136591 31.085287
23650000000 -25.677593 19.005112 -24.726261 32.954521 -24.737717 32.671204 -25.6306 -52.466858
23663750000 -40.150394 -8.3828058 -24.492046 -70.238022 -24.602705 -70.743195 -21.05459 176.9417
23677500000 -28.08798 55.151138 -24.629631 -172.18419 -24.87466 -173.12631 -18.75585 103.44929
23691250000 -22.219009 -5.4267893 -24.541889 86.518372 -24.863829 85.741531 -21.393721 36.756687
23705000000 -26.327343 11.596468 -24.705404 -15.788602 -24.673815 -15.972701 -31.239571 -75.691803
23718750000 -33.488724 149.2065 -24.671616 -118.76011 -24.641245 -118.34207 -25.571714 137.16124
23732500000 -21.609432 83.930969 -24.850191 138.94524 -24.616171 139.33882 -21.805382 68.300011
23746250000 -19.485676 23.775362 -24.844694 37.859608 -24.468863 38.177071 -24.314388 1.3673586
23760000000 -29.443216 -10.113973 -24.671785 -65.34201 -24.677824 -65.346436 -38.91478 -100.8504
23773750000 -30.688171 118.74147 -24.700132 -166.34595 -24.685909 -167.36557 -22.126045 109.30392
23787500000 -21.299616 47.016544 -24.451777 91.344284 -24.483217 90.121498 -18.852633 55.28133
23801250000 -18.825054 -18.27227 -24.64329 -11.401806 -24.82403 -12.938132 -19.89942 2.2927866
23815000000 -46.92379 22.059776 -24.459251 -113.26279 -24.496559 -113.38258 -37.454918 34.164139
23828750000 -25.269899 112.10173 -24.572609 141.1387 -24.634523 141.61993 -25.166817 120.17371
23842500000 -22.937859 60.766418 -25.227947 41.530701 -25.245518 42.034775 -21.044294 79.857765
23856250000 -27.960213 12.625216 -24.735857 -60.110786 -24.740566 -59.453785 -19.837368 34.733318
23870000000 -31.546345 96.542221 -24.769314 -163.73248 -24.742361 -163.42717 -29.291653 41.697277
23883750000 -23.175344 72.458435 -24.760603 95.858643 -24.779892 95.879837 -34.649323 112.85611
23897500000 -20.272259 22.313391 -24.635275 -7.9330215 -24.63221 -8.3383188 -27.093147 88.196381
23911250000 -20.404634 -25.965267 -25.006792 -108.69382 -24.958147 -108.72687 -25.329315 48.057129
23925000000 -27.183599 95.212112 -24.78096 150.13336 -24.78861 149.91217 -30.807703 22.55221
23938750000 -24.185062 49.116756 -24.608986 46.381214 -24.643085 46.65514 -30.85495 163.36707
23952500000 -23.312531 -9.3654585 -24.770739 -55.371201 -24.826883 -54.735912 -23.793566 95.233582
23966250000 -24.987114 -69.594162 -24.758732 -156.49269 -24.815754 -155.74385 -23.183071 37.91534
23980000000 -23.692266 78.237686 -24.555302 101.04335 -24.561556 100.81989 -30.24032 -20.756615
23993750000 -25.883495 48.270668 -24.554474 -1.1969966 -24.803152 -1.5688704 -28.743265 130.88853
24007500000 -32.651413 61.329834 -24.340891 -102.57967 -24.756493 -102.88016 -19.776087 56.557564
24021250000 -25.368252 69.370453 -24.195276 153.42566 -24.77051 153.83136 -16.592825 -8.2996416
24035000000 -23.073324 56.741432 -24.925632 52.544361 -24.898973 52.721596 -33.43269 -32.633808
24048750000 -25.851994 0.48208004 -24.325605 -49.333397 -24.461617 -49.424103 -26.384209 149.61626
24062500000 -30.05867 -25.413748 -24.47224 -153.98087 -24.656046 -154.10715 -22.428667 88.118958
24076250000 -28.148531 -31.421156 -24.385824 106.49951 -24.671913 106.01714 -25.316036 28.455776
24090000000 -24.272549 46.166607 -24.520256 2.0133133 -24.50416 1.6419491 -47.22641 118.93153
24103750000 -32.780693 43.264648 -24.766558 -99.359543 -24.724842 -99.229454 -23.576946 112.7405
24117500000 -27.363903 83.01786 -24.626545 158.7563 -24.378399 159.14706 -21.444201 64.981194
24131250000 -23.180925 43.121887 -24.762821 55.584503 -24.381094 55.771732 -25.468977 16.668053
24145000000 -24.821831 43.10157 -24.722553 -45.583973 -24.734325 -45.736301 -35.401791 108.02216
24158750000 -34.459713 86.673294 -24.798321 -149.68518 -24.690519 -149.47533 -27.608412 118.90833
24172500000 -25.512543 94.303917 -25.0825 109.36472 -24.901049 109.447 -26.329212 85.807053
24186250000 -22.949642 59.017426 -24.990938 8.818471 -24.845568 8.6917696 -28.887115 57.236012
24200000000 -27.070847 41.020695 -24.81855 -94.297295 -24.830832 -94.246521 -28.295763 68.492691
24213750000 -43.656349 -94.07061 -24.772928 164.09306 -24.819939 164.11226 -34.561466 121.96461
24227500000 -30.859995 120.28629 -24.821558 62.564465 -24.90357 62.249916 -25.934208 127.20274
24241250000 -30.558231 73.233521 -24.729588 -38.890125 -24.908089 -39.257172 -23.471115 88.511429
24255000000 -28.271845 57.566105 -24.657057 -140.3004 -24.662529 -140.70114 -24.817514 50.356247
24268750000 -29.021046 101.52579 -24.431549 117.27207 -24.431042 117.03569 -41.758377 54.218052
24282500000 -26.063589 90.618118 -24.481081 12.863584 -24.574127 12.188972 -26.09861 118.33934
24296250000 -24.693342 68.157234 -24.532764 -87.561584 -24.70476 -88.08606 -21.903318 69.90937
24310000000 -24.570389 69.325272 -24.386883 170.37766 -24.405066 170.08 -24.572042 27.48143
24323750000 -25.975557 26.271748 -24.410137 67.201797 -24.439346 67.008644 -28.533091 -178.94162
24337500000 -26.434935 6.3357401 -24.205189 -34.489914 -24.18401 -34.949692 -19.377979 115.40639
24351250000 -25.701767 -13.790944 -24.221588 -139.34775 -24.203024 -139.13782 -18.202492 61.25539
24365000000 -23.478882 57.578796 -24.67683 119.71453 -24.709322 119.70152 -23.972679 -2.05036
24378750000 -29.263531 24.035147 -24.503651 17.659658 -24.445131 17.479954 -22.576708 -159.43893
24392500000 -30.63751 85.960167 -24.855009 -85.066505 -24.706303 -85.426849 -17.845484 123.9385
24406250000 -23.346989 45.316666 -24.795059 173.88776 -24.68524 173.74626 -17.59848 60.477283
24420000000 -21.850075 46.519901 -24.481886 71.393509 -24.485559 71.332832 -25.171045 -23.384697
24433750000 -30.089964 -6.913105 -24.759466 -31.195526 -24.725594 -31.326817 -25.967951 -164.47665
24447500000 -30.548109 90.216034 -24.809521 -132.17401 -24.785196 -132.62209 -20.983179 107.90701
24461250000 -20.477919 43.158184 -24.681498 126.07979 -24.65399 126.17007 -21.582081 38.117973
24475000000 -21.252752 31.510452 -24.630238 22.31559 -24.681141 22.309561 -28.080139 -39.047508
24488750000 -28.963675 -53.114506 -24.749578 -77.562164 -24.764097 -78.170532 -28.800669 139.38844
24502500000 -25.817572 106.89492 -24.64039 -179.88258 -24.651388 179.1152 -22.238602 49.824703
24516250000 -19.646179 31.403427 -24.741488 77.94294 -24.903126 77.159546 -18.39463 -26.822477
24530000000 -21.881889 9.4943657 -24.405226 -24.456507 -24.445265 -24.447784 -32.55022 -45.416161
24543750000 -27.41556 -160.30191 -24.622843 -129.26671 -24.662167 -129.33723 -25.340887 139.01753
24557500000 -19.555292 116.65989 -24.750149 130.63853 -24.783821 130.01137 -19.58872 65.04744
24571250000 -18.882656 54.647858 -24.520271 29.872932 -24.651888 28.598185 -17.389746 0.91354078
24585000000 -25.659967 -4.4594221 -24.68281 -74.46122 -24.721781 -74.556267 -32.44804 -1.3403609
24598750000 -32.03056 161.56381 -24.54003 -176.14877 -24.543907 -176.69284 -28.648783 -176.68248
24612500000 -20.772272 64.607628 -24.503727 82.304222 -24.507673 81.866508 -24.596117 120.77754
24626250000 -17.211437 2.010951 -24.568783 -19.336807 -24.664455 -19.696527 -24.128334 59.726357
24640000000 -28.814167 -8.8324947 -24.588095 -122.43804 -24.617016 -122.47321 -29.923763 9.8447866
24653750000 -28.435652 136.1447 -24.620108 135.63181 -24.689949 135.7262 -29.205786 174.74338
24667500000 -19.928247 73.273666 -24.736122 33.411659 -24.835325 33.273876 -22.308701 105.53008
24681250000 -17.432966 9.7058887 -24.779488 -67.185852 -24.760197 -66.814827 -21.19364 49.724987
24695000000 -31.021505 6.0178704 -24.689127 -169.76881 -24.692493 -169.81667 -26.292696 -8.6788158
24708750000 -27.520473 130.49785 -24.8955 88.034012 -24.788088 88.194923 -23.714369 -161.28735
24722500000 -20.909824 65.690369 -24.790405 -12.82216 -24.569973 -12.321721 -19.363743 120.09898
24736250000 -18.545 8.3405991 -24.858212 -115.91398 -24.542763 -115.54624 -19.254728 53.157539
24750000000 -33.314789 46.936619 -24.583361 143.59731 -24.595823 143.20505 -24.170132 -29.792377
