!CSV A.01.01
!Keysight Technologies,N5224B,MY57181201,A.12.70.07
!Date: Friday, July 15, 2022 16:06:23
!Source: Standard

BEGIN CH1_DATA
Freq(Hz),S11(DB),S11(DEG)
22000000000,-21.141653,125.42291
22013750000,-18.024597,56.288349
22027500000,-19.306185,-11.602035
22041250000,-24.439489,-103.67439
22055000000,-21.548555,124.34851
22068750000,-18.251099,46.044487
22082500000,-17.167692,-20.705902
22096250000,-18.064545,-88.178101
22110000000,-22.108486,128.82318
22123750000,-18.338842,60.556446
22137500000,-18.663095,-5.8631458
22151250000,-21.933764,-94.664337
22165000000,-20.572405,135.87268
22178750000,-16.558632,56.82346
22192500000,-15.217142,-14.082278
22206250000,-16.705549,-88.539528
22220000000,-18.578783,132.53738
22233750000,-16.291531,48.354984
22247500000,-15.322879,-30.196287
22261250000,-15.427965,-111.06242
22275000000,-17.844273,123.48772
22288750000,-15.75151,48.763344
22302500000,-16.660423,-27.287073
22316250000,-19.764275,-122.76833
22330000000,-17.149143,116.82658
22343750000,-15.138288,38.04261
22357500000,-15.070782,-36.78846
22371250000,-17.780943,-116.89944
22385000000,-17.067066,107.57304
22398750000,-15.422869,30.737658
22412500000,-15.967066,-45.159119
22426250000,-18.872053,-128.77426
22440000000,-17.428745,101.5578
22453750000,-15.99592,31.662954
22467500000,-17.823938,-40.250916
22481250000,-22.818464,-136.55344
22495000000,-17.758503,98.679825
22508750000,-16.483805,21.621389
22522500000,-16.372347,-54.401455
22536250000,-17.290503,-131.97868
22550000000,-17.767513,99.057358
22563750000,-17.029398,32.07024
22577500000,-19.708372,-41.885406
22591250000,-23.166683,-156.16635
22605000000,-17.513315,98.523781
22618750000,-15.705573,25.525871
22632500000,-16.231791,-44.787491
22646250000,-19.408745,-122.4618
22660000000,-16.410957,94.961227
22673750000,-15.405966,16.767479
22687500000,-15.624454,-61.381287
22701250000,-17.104898,-146.48184
22715000000,-15.768591,87.032822
22728750000,-15.825544,15.022209
22742500000,-19.08626,-67.10466
22756250000,-21.134766,171.69751
22770000000,-15.765872,76.898392
22783750000,-15.401324,2.5776176
22797500000,-16.756075,-74.427147
22811250000,-21.222075,-163.51234
22825000000,-15.790723,69.056358
22838750000,-16.387774,-3.382014
22852500000,-20.063936,-84.181595
22866250000,-23.795015,149.5578
22880000000,-16.371479,58.408234
22893750000,-17.770018,-8.9789791
22907500000,-23.30925,-87.615509
22921250000,-28.429667,117.99696
22935000000,-17.608185,53.650452
22948750000,-18.878216,-13.606932
22962500000,-22.530855,-83.66024
22976250000,-33.107449,170.89151
22990000000,-18.500654,53.223679
23003750000,-20.444502,-5.6811614
23017500000,-29.116594,-85.260345
23031250000,-26.450552,99.835869
23045000000,-18.397999,53.136528
23058750000,-19.487911,-8.2167616
23072500000,-24.313898,-71.509659
23086250000,-47.80381,16.139168
23100000000,-18.144693,52.792
23113750000,-20.286041,-14.165722
23127500000,-27.420853,-101.06679
23141250000,-26.180937,97.135605
23155000000,-17.674654,45.423588
23168750000,-20.642927,-21.992153
23182500000,-30.297831,-139.81633
23196250000,-22.30467,70.838501
23210000000,-17.581739,35.205189
23223750000,-19.995289,-46.814655
23237500000,-23.941929,-141.08755
23251250000,-26.589699,93.472168
23265000000,-18.342918,26.28821
23278750000,-24.175198,-65.89312
23292500000,-23.085049,148.38911
23306250000,-18.72121,68.655434
23320000000,-19.174395,12.909125
23333750000,-25.514223,-70.813049
23347500000,-27.493137,117.22421
23361250000,-20.010845,26.098835
23375000000,-21.439394,3.6283314
23388750000,-32.028297,-90.169205
23402500000,-26.922409,79.399895
23416250000,-21.320028,10.355959
23430000000,-24.861126,5.1382322
23443750000,-42.350883,101.51965
23457500000,-24.281122,72.468788
23471250000,-21.700827,20.714872
23485000000,-26.209486,19.947989
23498750000,-32.263985,26.994701
23512500000,-26.592028,25.659813
23526250000,-21.985491,-16.838381
23540000000,-25.814318,27.930017
23553750000,-34.00695,53.476124
23567500000,-25.576069,63.933674
23581250000,-21.778229,25.777443
23595000000,-25.025057,26.561241
23608750000,-33.702999,33.84301
23622500000,-24.653755,61.291473
23636250000,-19.498867,11.45768
23650000000,-24.950871,18.074299
23663750000,-40.388996,-36.151234
23677500000,-27.791098,62.971748
23691250000,-21.634516,-4.705853
23705000000,-26.9118,6.8823357
23718750000,-31.784006,146.53554
23732500000,-21.507137,79.79808
23746250000,-19.850977,22.095865
23760000000,-30.381067,-3.9896271
23773750000,-31.418676,107.28699
23787500000,-21.802996,46.574615
23801250000,-19.097275,-16.466734
23815000000,-40.091145,3.9983244
23828750000,-25.45537,116.70836
23842500000,-22.567003,63.333714
23856250000,-26.92837,10.246974
23870000000,-32.427719,108.50034
23883750000,-22.604475,74.531418
23897500000,-19.906748,20.214849
23911250000,-20.66394,-29.258625
23925000000,-26.213947,95.179352
23938750000,-23.996941,44.260963
23952500000,-23.843231,-13.094938
23966250000,-25.763201,-67.008041
23980000000,-23.887842,73.254982
23993750000,-26.794235,51.082138
24007500000,-30.925991,64.261955
24021250000,-25.473095,64.246162
24035000000,-23.537214,59.581558
24048750000,-25.616631,6.0016127
24062500000,-28.997099,-27.133461
24076250000,-28.884562,-37.115646
24090000000,-23.719786,48.233662
24103750000,-32.955757,32.7799
24117500000,-27.610851,88.567451
24131250000,-22.730047,44.704323
24145000000,-24.909311,38.953308
24158750000,-34.887924,98.77874
24172500000,-24.83758,92.79261
24186250000,-23.102554,55.272541
24200000000,-27.909182,44.229279
24213750000,-53.388222,-49.473064
24227500000,-32.534477,118.91002
24241250000,-30.813457,80.916725
24255000000,-27.259315,59.446373
24268750000,-30.136452,98.985107
24282500000,-25.996309,94.893219
24296250000,-23.987352,68.240303
24310000000,-25.066872,65.809082
24323750000,-26.552511,28.972118
24337500000,-26.076586,10.316348
24351250000,-25.122829,-18.178833
24365000000,-23.62009,60.634193
24378750000,-28.406155,26.931463
24392500000,-31.966433,81.067673
24406250000,-23.531555,48.89975
24420000000,-21.406883,46.828194
24433750000,-29.423153,-14.675776
24447500000,-29.826572,98.438492
24461250000,-20.157703,43.25769
24475000000,-21.393242,28.275763
24488750000,-30.167723,-56.386517
24502500000,-25.639399,103.65148
24516250000,-19.798611,28.962908
24530000000,-22.244297,11.644467
24543750000,-28.063406,-160.98386
24557500000,-19.841827,117.13485
24571250000,-18.894489,56.367966
24585000000,-25.226572,-2.857131
24598750000,-32.754204,166.81656
24612500000,-20.759378,67.191284
24626250000,-17.003784,2.4365401
24640000000,-28.449259,-12.715645
24653750000,-27.442932,137.28815
24667500000,-19.754141,71.736252
24681250000,-17.440145,8.1550817
24695000000,-32.323746,12.532865
24708750000,-27.848667,125.01014
24722500000,-21.26339,65.347343
24736250000,-18.754757,9.4022522
24750000000,-32.179974,41.446381
24763750000,-31.369902,118.36965
24777500000,-22.904892,76.472557
24791250000,-20.07799,21.772144
24805000000,-28.509056,32.788223
24818750000,-33.585609,167.61888
24832500000,-23.961981,121.75014
24846250000,-22.290102,68.921089
24860000000,-26.63282,28.617258
24873750000,-47.24234,88.58812
24887500000,-23.76125,76.010269
24901250000,-18.777283,13.823814
24915000000,-26.397964,4.8124647
24928750000,-30.141909,-177.25456
24942500000,-20.780003,92.048325
24956250000,-17.742409,18.81653
24970000000,-27.959311,-28.659027
24983750000,-23.640591,165.39754
24997500000,-19.141302,89.200829
25011250000,-19.374636,23.73098
25025000000,-33.934044,-76.720932
25038750000,-23.500879,126.70603
25052500000,-18.810354,57.831055
25066250000,-18.366947,-5.1609612
25080000000,-38.588299,-175.61337
25093750000,-23.050257,109.11266
25107500000,-19.620707,46.124901
25121250000,-19.245295,-15.540082
25135000000,-31.604658,137.28856
25148750000,-22.688328,104.20538
25162500000,-20.598791,50.831432
25176250000,-21.796618,5.8410306
25190000000,-28.296951,111.1549
25203750000,-24.506849,72.513145
25217500000,-23.171684,26.177698
25231250000,-23.159626,-13.792519
25245000000,-26.197176,82.647232
25258750000,-28.745693,85.324432
25272500000,-25.744596,88.416801
25286250000,-23.04052,56.358364
25300000000,-26.737022,63.967384
25313750000,-30.316319,93.939667
25327500000,-23.308384,78.677826
25341250000,-20.760908,32.379997
25355000000,-29.444963,54.205715
25368750000,-35.939228,85.317207
25382500000,-27.075588,51.967884
25396250000,-23.308981,-13.391699
25410000000,-34.110855,58.605591
25423750000,-25.794327,131.22461
25437500000,-21.179169,85.634346
25451250000,-21.650702,36.987728
25465000000,-32.142075,107.56718
25478750000,-24.869963,90.720619
25492500000,-21.272669,40.457207
25506250000,-20.900253,-13.710836
25520000000,-26.512312,111.91774
25533750000,-24.215117,78.957565
25547500000,-23.473589,41.266499
25561250000,-24.551926,8.3046341
25575000000,-23.513872,92.776878
25588750000,-26.179316,64.903885
25602500000,-28.819313,75.658943
25616250000,-23.438988,68.290222
25630000000,-21.82563,76.371536
25643750000,-25.829454,19.330275
25657500000,-37.693939,9.4875269
25671250000,-26.446531,46.05439
25685000000,-21.236147,60.051708
25698750000,-34.845615,-15.951482
25712500000,-23.944229,138.20638
25726250000,-18.840351,76.400726
25740000000,-21.481155,43.270691
25753750000,-31.194979,-44.758003
25767500000,-28.55402,113.63129
25781250000,-20.399197,34.055717
25795000000,-23.247894,30.351749
25808750000,-29.879063,-137.54033
25822500000,-20.849701,130.4008
25836250000,-18.981789,70.030609
25850000000,-24.988979,27.059637
25863750000,-34.834114,166.17744
25877500000,-21.663151,101.40888
25891250000,-18.171177,39.664894
25905000000,-27.312765,36.340923
25918750000,-40.301422,139.12704
25932500000,-25.023355,85.038544
25946250000,-20.681068,24.861933
25960000000,-26.338427,51.400997
25973750000,-36.121292,154.96652
25987500000,-22.765327,124.55293
26001250000,-19.939426,74.462372
26015000000,-23.305328,51.771873
26028750000,-35.522118,-19.652824
26042500000,-27.325207,111.45333
26056250000,-19.180374,44.093372
26070000000,-21.554522,37.509075
26083750000,-25.271868,-106.93681
26097500000,-18.399,153.00841
26111250000,-16.86117,87.779297
26125000000,-20.257704,18.780432
26138750000,-25.24468,-114.92629
26152500000,-18.718077,125.69346
26166250000,-15.022758,49.308762
26180000000,-21.109766,0.20378189
26193750000,-22.958838,-129.63432
26207500000,-19.013962,118.35711
26221250000,-16.089844,37.142826
26235000000,-22.150204,-18.038076
26248750000,-20.311409,-154.09477
26262500000,-16.163744,124.11044
26276250000,-16.448246,54.416809
26290000000,-23.856262,-31.939293
26303750000,-22.158476,-176.88809
26317500000,-17.506302,96.611885
26331250000,-15.888918,27.042971
26345000000,-27.494387,-43.210472
26358750000,-24.444712,172.86427
26372500000,-19.878893,85.589615
26386250000,-18.230101,11.391808
26400000000,-30.662142,-31.864185
26413750000,-22.028795,-177.63324
26427500000,-18.890339,125.96358
26441250000,-20.329575,68.339462
26455000000,-29.798933,-8.1129837
26468750000,-23.516737,-146.60739
26482500000,-20.387932,139.49104
26496250000,-21.332006,72.683693
26510000000,-26.375067,-13.224431
26523750000,-23.116613,-173.3947
26537500000,-16.571331,107.95807
26551250000,-14.268132,39.053524
26565000000,-24.331209,-29.602509
26578750000,-20.715891,-169.59436
26592500000,-16.17543,106.50171
26606250000,-14.387089,33.530624
26620000000,-23.279055,-56.487919
26633750000,-18.630669,-177.51846
26647500000,-15.506413,103.22819
26661250000,-15.566151,29.619513
26675000000,-23.168497,-82.237328
26688750000,-17.80838,165.76782
26702500000,-15.130811,90.29657
26716250000,-15.298281,18.988043
26730000000,-23.92359,-109.55914
26743750000,-18.403057,150.28891
26757500000,-15.906119,74.073235
26771250000,-15.7658,4.064992
26785000000,-24.849827,-137.02824
26798750000,-18.43136,143.48434
26812500000,-17.205399,78.86908
26826250000,-19.413488,17.719208
26840000000,-26.723967,-161.5293
26853750000,-20.847174,127.48952
26867500000,-18.669191,64.967476
26881250000,-18.639296,7.5282874
26895000000,-30.639597,174.85983
26908750000,-22.593489,136.19482
26922500000,-19.849537,86.211021
26936250000,-19.545784,32.379688
26950000000,-37.211548,-175.26831
26963750000,-22.336205,159.12177
26977500000,-20.29974,107.49132
26991250000,-23.548378,52.524998
27005000000,-31.654293,-130.34683
27018750000,-21.643993,141.72523
27032500000,-17.866619,73.619202
27046250000,-16.363043,4.7342515
27060000000,-27.639311,-135.02161
27073750000,-19.549978,144.52786
27087500000,-17.526823,79.896759
27101250000,-18.014492,13.814427
27115000000,-24.20982,-156.34547
27128750000,-18.8419,134.17549
27142500000,-18.001156,70.292877
27156250000,-21.270451,5.4133525
27170000000,-22.114199,-176.59209
27183750000,-18.722383,113.73649
27197500000,-18.819645,50.621147
27211250000,-22.099619,-13.755401
27225000000,-21.140337,159.02184
27238750000,-19.93115,103.13024
27252500000,-23.123632,44.447884
27266250000,-36.440487,18.681686
27280000000,-20.854376,138.76695
27293750000,-21.487053,85.586258
27307500000,-24.347219,48.780762
27321250000,-27.353447,49.566448
27335000000,-22.18277,118.03357
27348750000,-26.442032,88.390984
27362500000,-30.397814,121.85175
27376250000,-25.568308,111.62352
27390000000,-24.061401,106.77723
27403750000,-27.046522,98.877579
27417500000,-23.458303,82.012222
27431250000,-20.175581,42.594929
27445000000,-27.961729,111.29353
27458750000,-27.10931,124.17117
27472500000,-22.087421,92.969353
27486250000,-20.475178,45.533985
27500000000,-28.272415,131.7525
27513750000,-25.94952,139.22505
27527500000,-26.895914,114.77704
27541250000,-30.098627,120.90137
27555000000,-24.360325,141.09824
27568750000,-22.448992,102.33282
27582500000,-22.06024,58.839855
27596250000,-23.563816,25.768881
27610000000,-22.347469,134.61266
27623750000,-22.640366,79.90979
27637500000,-26.268072,28.110813
27651250000,-32.388302,27.277439
27665000000,-20.45594,121.01567
27678750000,-25.145292,64.664734
27692500000,-34.789059,-158.39066
27706250000,-21.12426,136.78015
27720000000,-19.60605,101.56015
27733750000,-23.893101,32.64032
27747500000,-39.470638,-171.45006
27761250000,-22.25029,86.938309
27775000000,-20.447762,80.978439
27788750000,-31.470467,-62.920231
27802500000,-20.886742,-179.20558
27816250000,-18.911169,120.55531
27830000000,-23.205395,67.962036
27843750000,-24.246756,-45.342472
27857500000,-23.024656,120.64155
27871250000,-18.155659,55.661587
27885000000,-26.922949,65.024612
27898750000,-34.857086,-173.9814
27912500000,-23.173424,120.36217
27926250000,-19.647949,57.3339
27940000000,-29.416458,90.357559
27953750000,-29.565884,171.82483
27967500000,-22.697088,131.77441
27981250000,-21.905212,91.990112
27995000000,-27.175743,113.53553
28008750000,-28.529121,93.819977
28022500000,-28.164936,73.211922
28036250000,-25.537678,40.698738
28050000000,-23.637606,111.86214
28063750000,-36.180367,76.532303
28077500000,-27.109756,-163.39201
28091250000,-21.193991,143.78873
28105000000,-21.507338,99.932457
28118750000,-28.491962,44.559025
28132500000,-29.693487,157.06265
28146250000,-20.279669,99.521233
28160000000,-20.969172,83.788696
28173750000,-30.645044,1.5374858
28187500000,-26.488859,160.95105
28201250000,-18.926161,82.49987
28215000000,-21.733734,66.860924
28228750000,-30.475992,-89.359322
28242500000,-20.549988,155.56844
28256250000,-17.123158,85.215057
28270000000,-25.234161,48.133217
28283750000,-30.562595,-132.80852
28297500000,-20.694458,129.07841
28311250000,-17.565132,62.281605
28325000000,-30.730211,61.411087
28338750000,-28.485683,-168.63498
28352500000,-21.583849,135.65125
28366250000,-21.080645,83.805801
28380000000,-29.495359,108.60799
28393750000,-29.003368,147.68446
28407500000,-23.345633,119.66501
28421250000,-21.367981,77.802399
28435000000,-25.954405,118.29868
28448750000,-29.801237,93.707291
28462500000,-28.956472,99.420753
28476250000,-24.386894,75.32045
28490000000,-22.470821,110.66425
28503750000,-30.470125,56.054443
28517500000,-28.990944,-175.95387
28531250000,-20.78022,123.70444
28545000000,-20.155031,95.627754
28558750000,-28.410536,13.28167
28572500000,-26.541626,-177.43588
28586250000,-19.011286,105.82385
28600000000,-20.437353,78.995209
28613750000,-28.1464,-44.664658
28627500000,-21.180079,-176.18535
28641250000,-17.762325,111.54758
28655000000,-21.330175,62.162502
28668750000,-29.675171,-81.614159
28682500000,-20.458944,159.38786
28696250000,-16.645531,87.458504
28710000000,-23.857998,56.99522
28723750000,-30.751738,-116.00213
28737500000,-21.118563,139.57767
28751250000,-17.518482,72.502602
28765000000,-27.616198,69.878815
28778750000,-34.523979,-153.90778
28792500000,-23.415277,140.88188
28806250000,-20.393696,80.588127
28820000000,-26.304716,97.056969
28833750000,-40.009483,-152.56836
28847500000,-24.647846,177.06093
28861250000,-20.476355,124.03692
28875000000,-22.508976,99.667427
28888750000,-26.742918,16.932241
28902500000,-33.98341,-113.34017
28916250000,-26.601868,111.54339
28930000000,-20.231216,91.005646
28943750000,-27.649704,-13.57089
28957500000,-21.544531,-160.94612
28971250000,-17.035921,122.95087
28985000000,-18.948771,78.162315
28998750000,-23.941393,-34.879967
29012500000,-20.381477,-162.96222
29026250000,-16.009178,111.95818
29040000000,-18.926317,62.25436
29053750000,-21.363998,-65.93251
29067500000,-16.876205,-166.87132
29081250000,-15.822408,122.99773
29095000000,-19.89962,47.0509
29108750000,-23.946312,-87.724739
29122500000,-17.968851,161.38364
29136250000,-15.0826,85.886864
29150000000,-22.419128,39.389843
29163750000,-25.005396,-102.83877
29177500000,-19.890553,150.54564
29191250000,-17.246542,75.34021
29205000000,-25.346176,41.248699
29218750000,-24.482664,-114.98978
29232500000,-19.308592,172.05064
29246250000,-19.198896,114.21016
29260000000,-25.523703,65.197571
29273750000,-36.795013,-94.957626
29287500000,-24.076843,149.49786
29301250000,-18.698168,81.383224
29315000000,-23.415701,76.835861
29328750000,-29.668793,-58.960709
29342500000,-21.510118,-177.74802
29356250000,-17.34655,108.78521
29370000000,-21.070351,69.154373
29383750000,-23.588909,-63.226379
29397500000,-17.977989,-163.62408
29411250000,-15.77318,122.28542
29425000000,-19.60754,55.404984
29438750000,-22.708633,-59.934021
29452500000,-19.64418,178.95976
29466250000,-16.111151,91.128677
29480000000,-19.855961,38.93256
29493750000,-20.253166,-90.315315
29507500000,-16.157555,177.67175
29521250000,-15.584816,103.07937
29535000000,-21.265759,23.583731
29548750000,-20.847689,-111.4461
29562500000,-16.693157,155.59706
29576250000,-14.938262,80.406425
29590000000,-24.127384,6.4288492
29603750000,-20.405596,-122.92714
29617500000,-17.837502,161.51762
29631250000,-19.850729,97.954987
29645000000,-30.267982,10.767998
29658750000,-24.374807,-152.16661
29672500000,-19.212324,136.11966
29686250000,-17.450905,76.048889
29700000000,-33.332359,65.425034
29713750000,-29.92016,-147.78343
29727500000,-22.396498,144.33582
29741250000,-19.338987,85.866737
29755000000,-27.957235,77.407425
29768750000,-31.017954,-107.37836
29782500000,-21.486763,174.35893
29796250000,-18.973642,113.49277
29810000000,-24.463793,71.169655
29823750000,-30.685432,-81.121101
29837500000,-21.160051,166.85974
29851250000,-17.07432,96.145889
29865000000,-23.018675,53.982376
29878750000,-24.844164,-88.121117
29892500000,-19.244141,172.66034
29906250000,-17.052593,97.159309
29920000000,-23.565001,29.768011
29933750000,-22.625784,-113.92479
29947500000,-17.790123,161.16109
29961250000,-17.142574,89.307686
29975000000,-26.790863,7.1958766
29988750000,-23.854099,-142.36478
