!Keysight Technologies,N5224B,MY57181201,A.12.70.07
!Date: Friday, July 15, 2022 16:15:20
!Correction: S11(Full 2 Port(1,2)) 
!S21(Full 2 Port(1,2)) 
!S12(Full 2 Port(1,2)) 
!S22(Full 2 Port(1,2)) 
!S2P File: Measurements: S11, S21, S12, S22:
# Hz S  dB   R 50
22000000000 -21.624136 133.39883 -24.636358 115.63603 -24.614244 115.39436 -23.741194 126.29678
22013750000 -17.963629 63.318142 -24.659029 13.438587 -24.641136 13.560823 -20.92984 71.906853
22027500000 -18.506647 -5.861403 -24.703983 -88.902138 -24.636642 -88.485374 -23.011089 4.2616439
22041250000 -22.657257 -96.258652 -24.514473 168.46524 -24.426647 168.55185 -29.276949 -104.20821
22055000000 -20.812275 136.00264 -24.600868 65.870674 -24.619677 65.816391 -23.04743 129.44382
22068750000 -17.081446 51.435677 -24.550385 -35.588692 -24.645206 -35.864555 -20.183811 52.318981
22082500000 -16.06599 -21.494965 -24.374123 -138.00429 -24.613592 -138.76881 -20.291107 -17.760838
22096250000 -16.846594 -92.336304 -24.309368 119.46491 -24.72645 119.10275 -22.557095 -108.18739
22110000000 -19.987556 127.88137 -24.567291 16.678511 -24.586781 16.566187 -21.954779 128.90631
22123750000 -17.198812 55.595184 -24.604918 -85.543304 -24.651941 -85.281479 -18.35026 42.915668
22137500000 -18.15778 -16.459852 -24.414772 173.38002 -24.426788 173.62202 -16.478783 -31.918209
22151250000 -22.293121 -108.07206 -24.304865 69.38707 -24.20085 70.076996 -15.326748 -107.83595
22165000000 -19.804905 126.99301 -24.551636 -33.340088 -24.558805 -33.5387 -21.717848 127.17367
22178750000 -16.641109 49.508163 -24.519178 -134.85403 -24.468731 -135.39508 -17.974823 48.286133
22192500000 -15.825344 -17.693762 -24.388771 124.07931 -24.322454 123.27261 -17.193781 -21.993546
22206250000 -17.497686 -91.061859 -24.247046 20.767406 -24.18993 20.414669 -17.605635 -92.78804
22220000000 -19.100296 127.46219 -24.520607 -83.186516 -24.536627 -83.232834 -21.108141 119.86119
22233750000 -16.675692 45.593483 -24.699432 176.022 -24.660566 176.02612 -19.37022 51.317547
22247500000 -15.768029 -33.312614 -24.576548 74.05381 -24.525084 74.077286 -21.665476 -28.711281
22261250000 -16.048481 -111.07943 -24.501461 -29.645449 -24.476837 -29.343039 -23.918785 -130.79128
22275000000 -18.19453 119.92769 -24.475573 -131.40529 -24.495928 -131.5381 -20.340279 118.83674
22288750000 -16.447838 46.120121 -24.46957 126.69735 -24.617304 125.68879 -18.064106 48.603664
22302500000 -17.346884 -26.835638 -24.407393 25.305897 -24.641773 24.08284 -19.351152 -26.306654
22316250000 -21.267361 -122.95029 -24.113371 -77.346413 -24.446199 -78.757446 -22.872913 -121.38474
22330000000 -18.229515 116.32317 -24.443497 179.03868 -24.440308 178.6364 -20.019711 116.99061
22343750000 -15.892464 38.675774 -24.521942 77.079224 -24.449911 77.73455 -18.558733 51.534893
22357500000 -15.742156 -31.667171 -24.368664 -25.412474 -24.188011 -24.796759 -20.941952 -29.279211
22371250000 -17.907236 -109.41917 -24.427959 -128.30911 -24.08733 -128.03523 -24.469448 -143.9458
22385000000 -17.784275 112.07832 -24.471498 129.8779 -24.518648 129.94205 -19.272669 107.28845
22398750000 -15.758379 36.466797 -24.448225 28.600998 -24.392233 27.644993 -18.991194 39.772667
22412500000 -15.734395 -39.17326 -24.146732 -72.865662 -24.201775 -74.242378 -21.685455 -43.248703
22426250000 -18.283587 -123.04664 -24.049664 -176.34984 -24.294893 -177.89037 -22.739994 -164.49561
22440000000 -17.390009 108.00182 -24.460182 80.351494 -24.468443 80.077652 -18.719782 103.54731
22453750000 -15.627772 35.691803 -24.451527 -21.729273 -24.562233 -20.806536 -17.542757 33.691357
22467500000 -16.973799 -36.39257 -24.518568 -124.30572 -24.47966 -123.06107 -19.707401 -40.125492
22481250000 -21.236204 -133.56065 -24.481497 133.18117 -24.36105 133.57721 -23.324724 -148.35431
22495000000 -17.325138 103.32546 -24.350325 30.717512 -24.36923 30.706591 -19.035057 101.51476
22508750000 -15.705768 24.640511 -24.44945 -68.87812 -24.410379 -69.74173 -18.056265 39.544838
22522500000 -15.488146 -54.28289 -24.258242 -171.1485 -24.227495 -172.18468 -22.032694 -31.831879
22536250000 -16.323318 -134.44601 -23.992783 84.658157 -24.030119 84.046776 -26.042212 -165.09384
22550000000 -16.826918 99.339088 -24.388351 -18.272104 -24.383448 -18.221901 -19.026073 93.384056
22563750000 -16.040106 29.021074 -24.517231 -120.02023 -24.485891 -119.89152 -19.412373 30.67079
22577500000 -18.812178 -50.050751 -24.342997 138.07925 -24.233936 138.20009 -24.189478 -65.477905
22591250000 -21.577665 -167.01033 -24.452812 34.705791 -24.282173 34.659264 -22.30674 165.1427
22605000000 -16.765606 92.133499 -24.359596 -67.550842 -24.368145 -67.764343 -17.849745 86.769539
22618750000 -15.426515 19.782774 -24.355515 -168.37555 -24.312227 -168.81984 -17.355412 19.062502
22632500000 -16.60874 -51.951607 -24.012186 89.031509 -24.088692 88.83757 -20.182604 -65.005569
22646250000 -20.753311 -130.47986 -24.098425 -13.690013 -24.215082 -13.905683 -22.59296 175.27881
22660000000 -16.6681 88.706161 -24.374361 -117.14829 -24.338076 -117.15688 -18.029459 83.942001
22673750000 -15.820244 12.472311 -24.310598 141.90857 -24.456247 142.04811 -18.34547 24.017464
22687500000 -16.360941 -66.105324 -24.026657 39.889431 -24.266043 40.056435 -24.43977 -54.779709
22701250000 -18.150208 -148.25999 -23.948948 -64.338829 -24.319786 -64.347855 -24.821579 148.63197
22715000000 -16.419239 83.294464 -24.387037 -164.86232 -24.389902 -164.98201 -18.519268 75.302971
22728750000 -16.568079 13.842917 -24.289274 93.75473 -24.16736 93.407471 -19.342438 16.059557
22742500000 -20.190338 -67.483589 -24.133057 -8.5635843 -24.072731 -9.2150784 -26.430845 -49.807484
22756250000 -22.895721 168.76122 -24.037231 -111.46014 -24.077272 -111.54436 -29.47814 97.885956
22770000000 -16.45499 75.837036 -24.310364 146.0952 -24.28896 145.92488 -17.880907 68.248131
22783750000 -16.179041 2.6725547 -24.188875 43.937752 -24.220243 44.314098 -19.383823 -3.5046251
22797500000 -17.731373 -69.8862 -24.213812 -59.940601 -24.192999 -59.299171 -22.72543 -99.19693
22811250000 -22.318577 -153.28613 -24.334965 -162.2038 -24.230045 -161.65762 -21.319088 146.37781
22825000000 -16.669819 71.652222 -24.274979 96.378021 -24.25263 96.137489 -17.582396 65.617043
22838750000 -17.025875 3.1565127 -24.338373 -4.939755 -24.244293 -5.7225266 -19.879274 -0.58556503
22852500000 -20.371941 -73.459625 -24.116764 -106.65465 -24.112204 -107.43241 -25.4436 -97.857491
22866250000 -25.158861 169.83456 -23.949602 150.26622 -24.122108 149.60583 -22.079865 129.06685
22880000000 -16.584438 66.308632 -24.333796 47.37307 -24.361467 47.471592 -18.095358 57.669704
22893750000 -17.416344 -1.4616498 -24.014172 -54.32576 -24.084278 -53.87426 -20.123663 -24.93862
22907500000 -21.483006 -76.931023 -24.002731 -157.26155 -23.986551 -156.97243 -21.961393 -124.94991
22921250000 -28.182375 148.5031 -24.325108 100.1943 -24.17433 100.10146 -20.705719 131.88939
22935000000 -16.825686 60.397861 -24.104786 -1.2291977 -24.116337 -1.4126681 -18.415716 46.869659
22948750000 -17.50588 -11.00465 -24.133673 -103.29501 -23.904385 -102.75484 -21.760748 -32.720882
22962500000 -20.666677 -85.129097 -24.080734 153.29359 -23.676691 153.67215 -22.607445 -149.16599
22976250000 -27.733686 168.33852 -24.216757 50.217373 -23.708891 50.40099 -19.387569 114.72545
22990000000 -17.100164 53.766102 -24.128645 -51.040508 -24.137909 -51.083626 -18.355923 44.326176
23003750000 -19.352922 -9.8977385 -23.958124 -152.96646 -24.1385 -153.2962 -21.71085 -24.562635
23017500000 -26.357601 -101.97447 -23.849878 104.08938 -24.074072 104.03211 -26.390009 -145.25165
23031250000 -23.635826 104.63535 -23.9303 1.5864297 -24.175301 1.0190333 -21.278538 105.51308
23045000000 -17.387833 49.755177 -24.281763 -99.508614 -24.25281 -99.573006 -18.661142 39.406422
23058750000 -19.078934 -17.276234 -24.022026 158.63702 -23.982458 158.53624 -25.185896 -39.495865
23072500000 -24.887802 -88.457954 -23.931086 55.406353 -23.913912 54.62146 -24.135664 172.21339
23086250000 -33.549774 72.463875 -24.015659 -46.970066 -24.16502 -47.395607 -19.112173 89.011787
23100000000 -18.005171 43.94558 -24.119869 -148.33354 -24.116558 -148.43581 -18.806538 30.727772
23113750000 -20.965034 -24.109251 -24.003019 108.67495 -24.085001 108.21383 -24.275934 -73.935738
23127500000 -29.079958 -125.94202 -24.061686 6.0278926 -24.136904 5.5145731 -20.726364 164.81303
23141250000 -24.9405 77.553459 -24.2498 -96.004974 -24.233883 -96.729301 -17.973085 91.128227
23155000000 -18.218185 38.16824 -24.103556 162.55708 -24.097437 162.39789 -18.829859 24.097193
23168750000 -22.43162 -27.294888 -24.058784 59.744968 -23.930315 59.851658 -24.585527 -64.877663
23182500000 -34.609871 -169.58379 -24.31448 -43.115845 -24.008131 -42.792336 -24.771204 162.53212
23196250000 -21.959251 58.839054 -24.37611 -144.31381 -24.007326 -144.33148 -20.082649 78.667755
23210000000 -18.857021 32.05381 -24.069069 113.15982 -24.069641 113.0332 -19.975248 17.13467
23223750000 -21.661631 -46.57666 -23.932392 11.015977 -24.073597 10.377305 -29.527584 -49.48296
23237500000 -26.818775 -140.963 -23.962139 -91.808662 -24.186039 -92.798279 -25.701309 96.241188
23251250000 -30.142673 83.445251 -24.009993 166.39874 -24.370375 165.6041 -18.936432 32.92321
23265000000 -19.87635 27.029083 -24.076042 64.896362 -24.043133 64.858986 -20.321373 9.9462852
23278750000 -27.212729 -54.598114 -24.043661 -38.516796 -23.944519 -38.522064 -25.308788 -125.86133
23292500000 -25.690931 142.71225 -24.084545 -140.56036 -23.951544 -140.34448 -18.629433 140.69574
23306250000 -20.387964 66.700172 -24.074165 117.98573 -23.920893 118.51321 -17.007303 74.880608
23320000000 -20.316246 23.247786 -24.00404 15.684314 -24.043728 15.596875 -20.601545 4.9513102
23333750000 -25.853071 -44.575924 -23.832497 -86.68383 -23.934433 -87.004547 -24.543854 -97.044495
23347500000 -34.345127 116.99218 -23.855423 170.12857 -24.004196 169.832 -22.745483 147.54213
23361250000 -21.998688 29.721264 -23.905653 67.999229 -24.019939 67.97126 -20.864918 65.282265
23375000000 -20.929291 19.61484 -24.027246 -33.64669 -24.030077 -33.773952 -21.339823 -1.5659541
23388750000 -28.002211 -54.613327 -24.06753 -136.19743 -23.979193 -135.80399 -26.00305 -111.88921
23402500000 -31.170664 98.699913 -24.165022 120.86573 -24.052607 121.70033 -25.228985 139.25679
23416250000 -22.641315 24.168293 -24.162722 18.788052 -24.032925 19.664539 -23.760124 49.045036
23430000000 -22.170797 13.095027 -23.995609 -82.234711 -24.028177 -82.605682 -22.507008 -9.7985497
23443750000 -38.102688 -69.277428 -23.847536 174.28711 -24.028858 174.10309 -24.161026 -136.31717
23457500000 -25.147686 92.59552 -23.972832 72.099548 -24.24695 71.717339 -21.66844 127.15837
23471250000 -20.661612 30.909195 -23.983192 -28.803602 -24.301901 -29.09038 -20.603903 55.426212
23485000000 -23.636103 10.749877 -24.012098 -131.7901 -23.9807 -132.04959 -23.510178 -12.971233
23498750000 -37.252277 -33.968395 -24.02054 125.56381 -23.930002 125.95286 -24.686752 -143.38965
23512500000 -27.152424 46.934677 -24.280518 22.672449 -23.992342 23.711639 -21.812002 123.12128
23526250000 -20.829145 -6.6007566 -24.363667 -78.492989 -23.892689 -77.688332 -20.969814 52.791187
23540000000 -25.208405 8.0891685 -23.967806 179.67543 -23.982349 179.72261 -25.052891 -18.620953
23553750000 -38.323425 116.26932 -24.100351 77.104248 -24.015112 76.414001 -28.752855 -166.15958
23567500000 -22.822977 72.394669 -24.111553 -24.583738 -24.073927 -25.25551 -21.950384 95.681831
23581250000 -20.469515 19.996979 -24.07443 -126.10265 -24.043816 -126.38132 -21.316277 30.791296
23595000000 -26.520014 9.1333065 -23.999611 131.50653 -23.991554 131.47238 -25.749361 -33.20134
23608750000 -32.943871 95.564171 -24.09339 28.031727 -23.954557 28.05064 -21.991741 155.78407
23622500000 -22.543192 57.788681 -24.239153 -73.624245 -24.148981 -74.438164 -17.197264 92.216751
23636250000 -18.812277 4.0613604 -23.973198 -174.46085 -24.17444 -175.49416 -18.130638 35.814102
23650000000 -28.180452 11.835151 -23.941809 82.685349 -24.002203 82.5401 -26.896553 -35.925556
23663750000 -39.512794 89.149231 -23.859619 -20.450468 -23.981808 -20.981136 -23.050406 -179.99084
23677500000 -25.711008 44.121197 -23.917423 -122.22896 -24.088179 -123.33357 -19.625202 111.94782
23691250000 -21.229313 -16.904612 -23.843805 136.1324 -24.14893 135.03494 -21.619986 49.581043
23705000000 -31.302084 12.349954 -24.045525 33.97673 -24.007256 33.534142 -30.098307 -34.279015
23718750000 -28.828541 109.18234 -24.024464 -69.2565 -23.959764 -69.037125 -28.030821 147.90976
23732500000 -22.222092 65.392097 -24.195633 -171.50125 -23.94762 -170.99878 -23.037062 82.241859
23746250000 -21.599676 16.46244 -24.236902 86.982338 -23.920284 87.138611 -23.292387 17.971886
23760000000 -31.554504 43.522491 -24.023863 -15.411709 -23.980812 -15.363951 -32.634998 -39.669758
23773750000 -28.447218 66.306717 -23.993814 -117.3605 -23.965471 -117.74644 -23.625536 125.24532
23787500000 -23.54987 32.106678 -24.013298 141.19949 -24.089308 140.06723 -18.574884 65.152428
23801250000 -21.205853 -17.539154 -23.948729 39.275234 -24.097288 37.550014 -18.32119 8.4991894
23815000000 -30.129435 54.006081 -24.055641 -63.600475 -24.0728 -63.784447 -32.605141 -30.069939
23828750000 -29.784502 99.572563 -24.049726 -166.4267 -24.084476 -165.89383 -23.542944 143.5598
23842500000 -25.728455 76.070793 -24.106464 91.593712 -24.180035 92.273384 -18.986118 80.822144
23856250000 -26.462994 43.256977 -24.068827 -9.9772797 -24.002758 -9.253149 -18.303041 27.12443
23870000000 -30.378828 58.483822 -23.835798 -112.3597 -23.851343 -112.56669 -37.44976 5.0935593
23883750000 -26.252136 68.491684 -23.891853 144.6745 -23.906343 144.39813 -28.385103 131.72174
23897500000 -21.581594 31.787468 -23.961727 42.592072 -23.999315 42.480335 -23.540438 71.202309
23911250000 -20.236736 -15.880253 -24.050287 -59.597733 -23.986414 -59.530121 -26.164869 22.281656
23925000000 -29.216112 70.976151 -23.959797 -162.28241 -23.905853 -162.15628 -46.919987 35.704361
23938750000 -27.444986 49.357616 -24.034704 95.139771 -24.036362 95.445007 -27.449987 129.01492
23952500000 -25.448771 6.70085 -24.10832 -6.4608884 -24.144918 -5.8981915 -23.659914 75.375656
23966250000 -24.006618 -46.609116 -24.124622 -107.67185 -24.130835 -107.0965 -26.293621 22.971317
23980000000 -26.520941 69.507431 -24.024405 150.47656 -24.028395 150.15379 -38.477043 5.4693313
23993750000 -28.20072 76.54747 -23.965801 48.457508 -24.165386 48.049248 -26.721197 98.325844
24007500000 -26.125845 62.577953 -23.821257 -53.430252 -24.246212 -53.746204 -20.584522 44.71003
24021250000 -25.505701 45.01255 -23.622091 -155.34904 -24.186659 -155.02856 -17.878761 -13.444331
24035000000 -26.361958 65.700569 -23.951887 102.03176 -23.970798 102.04343 -32.966438 29.608938
24048750000 -26.622746 26.481218 -23.890732 0.054902527 -23.98502 -0.24891421 -29.943876 135.91724
24062500000 -26.205835 -7.6011853 -23.816784 -102.20181 -23.98258 -102.73268 -25.572697 95.186661
24076250000 -25.331312 -52.946815 -23.69071 155.6488 -23.961969 155.27638 -26.204403 52.862968
24090000000 -25.127695 63.899868 -23.887791 53.088451 -23.908775 52.936142 -32.286617 49.506638
24103750000 -28.371037 56.22237 -23.946838 -49.515076 -23.843624 -49.376766 -26.698235 111.33144
24117500000 -28.508821 58.643787 -23.963373 -151.69783 -23.700844 -151.48062 -23.153553 77.010376
24131250000 -25.197687 41.322498 -24.0541 106.63699 -23.660484 106.71275 -23.958107 37.00304
24145000000 -24.885712 59.558498 -24.008583 3.8924468 -24.01442 3.8301311 -33.174534 39.687325
24158750000 -30.565386 60.163284 -23.979513 -98.236313 -23.923988 -98.341026 -29.545902 151.51979
24172500000 -27.589836 80.429214 -24.084383 159.61244 -23.919819 159.3425 -24.688923 103.22944
24186250000 -25.171314 71.589798 -24.266237 57.646252 -24.05905 57.640091 -24.268126 55.717602
24200000000 -24.757181 55.508053 -23.941029 -43.993881 -23.926327 -44.107792 -30.104584 28.595648
24213750000 -32.610165 -9.3924313 -23.89146 -146.4278 -23.931335 -146.70184 -29.464504 169.62231
24227500000 -33.16877 178.99576 -23.858757 111.45882 -24.030951 111.08197 -22.995461 118.81092
24241250000 -26.910841 103.37849 -23.857822 8.8960285 -24.016846 8.780736 -22.54493 69.977402
24255000000 -23.818172 53.48735 -23.905128 -92.840973 -23.959003 -93.139786 -28.763496 28.91461
24268750000 -38.194778 73.687569 -23.892296 165.18948 -23.941725 164.66377 -32.237251 142.11693
24282500000 -25.844091 117.75172 -23.864525 62.278751 -23.925014 61.628838 -23.612717 95.953842
24296250000 -21.488277 77.020226 -23.867651 -39.666447 -24.008656 -40.238579 -22.919949 52.350391
24310000000 -24.25836 45.582043 -23.96887 -140.83061 -23.96269 -140.83458 -29.647495 21.538412
24323750000 -28.613432 5.1520834 -23.871193 116.17097 -23.869057 116.11596 -26.108183 151.50639
24337500000 -30.287184 37.527931 -23.904011 14.516336 -23.858976 14.488631 -19.525991 102.60644
24351250000 -22.928179 -1.9332274 -23.816406 -87.657463 -23.745598 -87.802879 -20.158388 54.228531
24365000000 -24.12521 38.513344 -23.936176 169.90211 -23.994867 169.7908 -27.882915 7.8032417
24378750000 -37.944382 40.327377 -23.945679 67.322495 -23.824953 67.206383 -24.824825 -175.02719
24392500000 -26.592224 87.39595 -24.180325 -34.318859 -24.027079 -34.663132 -19.431772 120.35316
24406250000 -20.983603 36.160961 -24.204235 -136.19211 -24.00334 -136.35394 -19.469086 65.531868
24420000000 -24.333311 36.137508 -23.944546 122.03293 -23.976566 122.03936 -26.819202 2.8127713
24433750000 -37.591347 21.790567 -23.995178 19.618063 -23.963369 19.592529 -30.309237 -166.65303
24447500000 -24.922764 77.00618 -24.060854 -82.283585 -24.051567 -82.585144 -23.724632 115.06608
24461250000 -20.52787 28.198593 -24.106998 175.93983 -24.058458 175.84891 -23.006218 51.730042
24475000000 -24.713408 32.089432 -23.914398 73.856766 -23.936256 73.937477 -27.277082 0.71801859
24488750000 -36.12645 11.487623 -23.974577 -28.063112 -23.966644 -28.548616 -36.537083 157.69896
24502500000 -27.327465 79.646667 -23.969614 -130.18063 -24.059933 -131.17174 -24.716459 51.451366
24516250000 -21.166882 17.722763 -23.904518 128.61122 -24.064041 127.89662 -19.84071 -19.142675
24530000000 -23.96376 29.126041 -23.848768 25.273569 -23.865145 25.091461 -27.774195 -13.252563
24543750000 -33.480148 -170.46118 -23.803045 -77.892586 -23.843218 -77.956635 -27.370369 164.45648
24557500000 -21.76561 114.92857 -23.931211 -179.69092 -23.991577 179.96107 -19.730352 78.77948
24571250000 -20.15543 63.010674 -23.904449 79.589317 -24.088541 78.433517 -16.559879 8.8460398
24585000000 -25.342533 15.05803 -23.829903 -23.394552 -23.802696 -23.717981 -27.328259 -17.072153
24598750000 -43.512104 100.85727 -23.782495 -125.6146 -23.778296 -125.94187 -24.36693 -157.47878
24612500000 -22.297548 65.558464 -23.763474 132.61021 -23.784286 131.87465 -21.353212 117.73527
24626250000 -18.127161 3.5854027 -23.638477 30.688293 -23.748142 30.299902 -21.692795 49.5821
24640000000 -26.410324 14.789802 -23.814247 -71.780792 -23.817778 -71.874687 -27.734283 -33.625835
24653750000 -31.502123 136.57845 -23.729496 -174.7422 -23.793629 -174.87898 -24.601751 173.77779
24667500000 -21.512737 76.774185 -23.921255 83.624435 -23.999222 83.386818 -19.84922 97.904121
24681250000 -18.001854 17.864651 -23.916189 -17.732758 -23.908779 -17.407278 -20.482124 33.320732
24695000000 -27.005491 17.317734 -23.864464 -120.46223 -23.860188 -120.41454 -27.741913 -41.837612
24708750000 -33.43153 157.34993 -23.966944 136.79898 -23.855518 136.91971 -22.165783 179.25414
24722500000 -21.675903 81.141983 -24.173269 34.56815 -23.951845 34.985577 -19.224676 105.69317
24736250000 -18.006002 18.525707 -24.211729 -66.070526 -23.925039 -65.87619 -20.708529 39.518768
24750000000 -27.386566 3.9557426 -23.907625 -168.27332 -23.952251 -168.23114 -28.130926 -47.086872
24763750000 -29.950886 164.8262 -23.894072 88.866989 -24.036755 88.483749 -22.466547 179.89751
