!CSV A.01.01
!Keysight Technologies,N5224B,MY57181201,A.12.70.07
!Date: Friday, July 15, 2022 16:15:31
!Source: Standard

BEGIN CH1_DATA
Freq(Hz),S12(DB),S12(DEG)
22000000000,-24.586058,115.09158
22013750000,-24.710312,13.660285
22027500000,-24.643282,-88.403091
22041250000,-24.494926,168.55188
22055000000,-24.574844,66.16452
22068750000,-24.602316,-36.115662
22082500000,-24.562643,-138.87221
22096250000,-24.676634,119.11563
22110000000,-24.557625,16.164328
22123750000,-24.651686,-85.438934
22137500000,-24.375166,172.98636
22151250000,-24.331007,69.547363
22165000000,-24.620861,-33.821033
22178750000,-24.547361,-135.44998
22192500000,-24.355373,123.24421
22206250000,-24.268696,20.419025
22220000000,-24.529161,-82.911942
22233750000,-24.655518,176.50084
22247500000,-24.470888,74.112595
22261250000,-24.525103,-29.211824
22275000000,-24.425117,-131.58894
22288750000,-24.615105,125.49381
22302500000,-24.634577,24.394384
22316250000,-24.509682,-78.593834
22330000000,-24.507084,178.89131
22343750000,-24.499193,78.020668
22357500000,-24.183125,-24.483286
22371250000,-24.047688,-127.6061
22385000000,-24.458874,129.87634
22398750000,-24.394072,27.844742
22412500000,-24.066906,-74.171303
22426250000,-24.25869,-178.45688
22440000000,-24.451584,79.799492
22453750000,-24.500372,-21.333755
22467500000,-24.488392,-123.32721
22481250000,-24.359114,133.62276
22495000000,-24.376995,30.277273
22508750000,-24.437206,-69.486664
22522500000,-24.157743,-172.1114
22536250000,-24.028606,83.832878
22550000000,-24.301392,-18.316448
22563750000,-24.46744,-120.50185
22577500000,-24.26684,138.10196
22591250000,-24.265127,33.921398
22605000000,-24.446852,-67.931099
22618750000,-24.383459,-168.82562
22632500000,-24.103785,88.780418
22646250000,-24.325142,-13.476405
22660000000,-24.329245,-116.71444
22673750000,-24.436632,141.94359
22687500000,-24.282499,40.383282
22701250000,-24.321629,-64.156693
22715000000,-24.343197,-164.65598
22728750000,-24.131718,93.257996
22742500000,-24.118244,-9.2397738
22756250000,-24.090727,-111.33518
22770000000,-24.211029,146.04941
22783750000,-24.247562,44.192348
22797500000,-24.233706,-58.803196
22811250000,-24.213404,-161.75862
22825000000,-24.252575,96.405235
22838750000,-24.191042,-5.6669168
22852500000,-24.039394,-107.58545
22866250000,-24.058357,149.34999
22880000000,-24.313076,46.984653
22893750000,-24.098351,-54.133781
22907500000,-23.964169,-157.16008
22921250000,-24.152786,99.746445
22935000000,-24.155294,-1.5202724
22948750000,-23.964228,-102.95509
22962500000,-23.721228,153.76401
22976250000,-23.712116,50.503117
22990000000,-24.146135,-51.235497
23003750000,-24.152082,-153.03421
23017500000,-24.112303,103.97598
23031250000,-24.179623,1.3368348
23045000000,-24.287962,-99.579765
23058750000,-24.049263,158.60994
23072500000,-23.914127,55.162621
23086250000,-24.163372,-47.493134
23100000000,-24.13895,-148.28807
23113750000,-24.042494,108.78316
23127500000,-24.099283,5.4266157
23141250000,-24.248377,-96.621315
23155000000,-24.06345,162.35947
23168750000,-23.92425,59.994961
23182500000,-23.986494,-42.730785
23196250000,-24.035957,-144.21062
23210000000,-24.062693,113.25819
23223750000,-24.021235,10.398205
23237500000,-24.190819,-92.832649
23251250000,-24.368464,165.71095
23265000000,-24.062187,64.277885
23278750000,-23.913574,-38.72089
23292500000,-23.917131,-140.53278
23306250000,-23.957592,118.37124
23320000000,-24.02611,15.50893
23333750000,-23.966141,-87.463486
23347500000,-24.043249,169.88252
23361250000,-24.103527,68.148796
23375000000,-24.023983,-33.412045
23388750000,-23.934011,-135.8455
23402500000,-24.023134,121.50996
23416250000,-24.066149,19.860884
23430000000,-24.05196,-82.278595
23443750000,-24.047527,174.15141
23457500000,-24.258619,71.967819
23471250000,-24.339527,-28.938536
23485000000,-23.974363,-131.60503
23498750000,-23.927679,126.14039
23512500000,-24.005051,24.003876
23526250000,-23.856155,-77.394196
23540000000,-23.978083,179.75145
23553750000,-24.017527,76.666725
23567500000,-24.051935,-25.541662
23581250000,-24.009048,-126.74059
23595000000,-23.980787,131.35583
23608750000,-23.899399,27.870132
23622500000,-24.22823,-74.64978
23636250000,-24.158028,-175.31815
23650000000,-23.929178,82.269241
23663750000,-24.004988,-21.267216
23677500000,-24.071106,-123.45966
23691250000,-24.137056,134.95088
23705000000,-23.9583,33.229527
23718750000,-23.973059,-69.58831
23732500000,-24.042841,-171.16585
23746250000,-23.965574,87.179008
23760000000,-24.079029,-15.564733
23773750000,-24.002066,-117.61194
23787500000,-24.104416,140.00595
23801250000,-24.147133,37.804394
23815000000,-24.104912,-63.95845
23828750000,-24.192062,-166.24431
23842500000,-24.225306,92.556664
23856250000,-24.054468,-8.9890728
23870000000,-23.928692,-112.26537
23883750000,-23.88183,144.57576
23897500000,-24.013283,42.640526
23911250000,-23.960812,-59.034126
23925000000,-23.980368,-162.03064
23938750000,-23.990728,95.986916
23952500000,-24.109554,-5.3852625
23966250000,-24.089134,-106.79148
23980000000,-23.96262,150.45143
23993750000,-24.071781,47.811146
24007500000,-24.231628,-54.14856
24021250000,-24.1525,-155.29764
24035000000,-24.02356,101.66016
24048750000,-24.002239,-0.28885752
24062500000,-23.995277,-102.61269
24076250000,-23.958242,155.20534
24090000000,-23.920118,52.923771
24103750000,-23.81456,-49.488049
24117500000,-23.72504,-151.53804
24131250000,-23.694353,106.19286
24145000000,-24.074972,3.4442873
24158750000,-23.877228,-98.388565
24172500000,-23.966803,158.92133
24186250000,-24.116472,57.478138
24200000000,-23.963123,-44.312225
24213750000,-24.015301,-146.57771
24227500000,-24.088753,111.3327
24241250000,-24.048122,9.1105709
24255000000,-23.967813,-92.817535
24268750000,-23.901007,165.24597
24282500000,-23.923811,61.832706
24296250000,-23.989952,-39.92223
24310000000,-23.917635,-140.94499
24323750000,-23.825541,116.34251
24337500000,-23.766714,14.246403
24351250000,-23.809954,-87.840485
24365000000,-23.933456,169.98683
24378750000,-23.846146,67.492882
24392500000,-23.971237,-34.782337
24406250000,-23.97982,-136.47601
24420000000,-23.934328,121.63077
24433750000,-23.938795,19.515772
24447500000,-23.967022,-82.610535
24461250000,-24.008066,175.31389
24475000000,-23.875845,73.50074
24488750000,-23.978298,-29.127527
24502500000,-24.076979,-131.06551
24516250000,-24.075197,127.55451
24530000000,-23.939674,24.789236
24543750000,-23.859087,-77.755424
24557500000,-24.044016,179.92645
24571250000,-24.173588,78.529716
24585000000,-23.837036,-23.46073
24598750000,-23.791988,-125.85799
24612500000,-23.772516,132.68738
24626250000,-23.69943,30.414703
24640000000,-23.862482,-72.082703
24653750000,-23.804415,-174.63857
24667500000,-24.013226,83.60582
24681250000,-23.900309,-17.47262
24695000000,-23.883862,-120.57007
24708750000,-23.85862,137.04324
24722500000,-23.879765,35.220242
24736250000,-23.884367,-66.020653
24750000000,-23.93881,-168.45337
24763750000,-23.99334,88.688644
24777500000,-24.119175,-12.250396
24791250000,-24.036718,-113.03267
24805000000,-23.747688,142.87358
24818750000,-23.75124,40.501797
24832500000,-23.876209,-61.96315
24846250000,-23.950785,-162.97322
24860000000,-23.750683,94.677269
24873750000,-23.869139,-8.2531452
24887500000,-23.870321,-109.67729
24901250000,-23.665659,149.12248
24915000000,-23.817589,46.418045
24928750000,-23.85467,-56.8041
24942500000,-23.890808,-157.99176
24956250000,-23.718918,101.23404
24970000000,-23.90794,-1.6604223
24983750000,-23.902899,-104.24702
24997500000,-23.933029,154.09064
25011250000,-23.927425,52.616074
25025000000,-23.737909,-49.720917
25038750000,-23.849167,-152.37416
25052500000,-23.965984,105.73631
25066250000,-23.777117,4.4959774
25080000000,-23.701368,-98.985207
25093750000,-23.749298,159.60527
25107500000,-23.81135,57.581509
25121250000,-23.637114,-44.086533
25135000000,-23.705105,-146.7187
25148750000,-23.783758,110.76604
25162500000,-23.712753,9.882555
25176250000,-23.585714,-92.299294
25190000000,-23.77553,165.14565
25203750000,-23.760525,62.613342
25217500000,-23.992321,-39.178711
25231250000,-23.980482,-140.26457
25245000000,-23.65683,116.45834
25258750000,-23.69956,14.377792
25272500000,-23.553038,-86.858452
25286250000,-23.497417,171.38121
25300000000,-23.651028,68.666817
25313750000,-23.659224,-34.053284
25327500000,-23.749981,-135.09799
25341250000,-23.541994,123.14588
25355000000,-23.667065,20.269466
25368750000,-23.753241,-82.274078
25382500000,-23.785099,176.18248
25396250000,-23.905716,74.38488
25410000000,-23.694567,-27.907646
25423750000,-23.860039,-130.19499
25437500000,-23.884697,128.36572
25451250000,-23.733093,26.097198
25465000000,-23.656868,-76.084312
25478750000,-23.623066,-177.9758
25492500000,-23.579847,79.802734
25506250000,-23.433865,-21.486361
25520000000,-23.563538,-124.51527
25533750000,-23.575972,133.64003
25547500000,-23.491499,31.944809
25561250000,-23.486494,-70.552238
25575000000,-23.678108,-172.57733
25588750000,-23.63629,85.059082
25602500000,-23.826023,-17.136354
25616250000,-23.755896,-118.55528
25630000000,-23.631607,138.81223
25643750000,-23.664764,37.320999
25657500000,-23.629786,-65.270927
25671250000,-23.682205,-166.34863
25685000000,-23.673479,90.884346
25698750000,-23.626312,-10.921917
25712500000,-23.5366,-112.43977
25726250000,-23.52327,145.75555
25740000000,-23.58938,43.190727
25753750000,-23.493326,-59.118244
25767500000,-23.519045,-161.37619
25781250000,-23.585917,96.153183
25795000000,-23.547464,-5.1941404
25808750000,-23.517862,-107.46452
25822500000,-23.557734,150.56979
25836250000,-23.443018,49.062653
25850000000,-23.56278,-53.255219
25863750000,-23.615145,-156.23068
25877500000,-23.666409,101.90862
25891250000,-23.783978,0.97478122
25905000000,-23.594269,-101.48629
25918750000,-23.661341,156.20303
25932500000,-23.707474,54.048141
25946250000,-23.8071,-46.702778
25960000000,-23.583935,-148.81602
25973750000,-23.447416,108.03852
25987500000,-23.503899,5.8890743
26001250000,-23.45739,-94.975952
26015000000,-23.468941,162.61923
26028750000,-23.39934,60.27364
26042500000,-23.432835,-42.115028
26056250000,-23.411533,-142.97034
26070000000,-23.479572,114.44033
26083750000,-23.444347,11.963038
26097500000,-23.684484,-89.963722
26111250000,-23.627813,168.62627
26125000000,-23.440041,66.838173
26138750000,-23.592718,-36.038795
26152500000,-23.809937,-137.98788
26166250000,-23.867313,120.94601
26180000000,-23.360102,18.636366
26193750000,-23.462519,-83.821548
26207500000,-23.521282,174.58203
26221250000,-23.453671,73.218254
26235000000,-23.424311,-30.367113
26248750000,-23.423897,-132.10445
26262500000,-23.492645,126.20314
26276250000,-23.400726,24.741793
26290000000,-23.391926,-77.796097
26303750000,-23.391293,179.9705
26317500000,-23.438606,78.615837
26331250000,-23.331133,-23.42275
26345000000,-23.404902,-125.73914
26358750000,-23.574327,130.88237
26372500000,-23.652952,29.864422
26386250000,-23.868704,-71.750366
26400000000,-23.467295,-173.50789
26413750000,-23.545012,83.202789
26427500000,-23.745617,-17.542301
26441250000,-23.648191,-118.36284
26455000000,-23.435585,138.45329
26468750000,-23.363779,36.225151
26482500000,-23.354254,-64.903397
26496250000,-23.209284,-165.7942
26510000000,-23.293251,90.670235
26523750000,-23.308775,-12.284395
26537500000,-23.474354,-113.56773
26551250000,-23.337513,146.53516
26565000000,-23.332151,42.804562
26578750000,-23.477863,-60.128315
26592500000,-23.476389,-161.17555
26606250000,-23.407164,97.604065
26620000000,-23.244896,-5.7600689
26633750000,-23.469183,-108.36771
26647500000,-23.496054,150.32321
26661250000,-23.374081,49.135147
26675000000,-23.188286,-53.42131
26688750000,-23.20273,-156.15549
26702500000,-23.241421,102.55525
26716250000,-23.037609,1.6645485
26730000000,-23.196867,-101.68015
26743750000,-23.393471,156.85161
26757500000,-23.41036,55.110703
26771250000,-23.34128,-46.570969
26785000000,-23.182825,-149.32214
26798750000,-23.319529,107.96729
26812500000,-23.476162,6.8764596
26826250000,-23.356489,-95.149239
26840000000,-23.121595,162.34906
26853750000,-23.183718,60.648666
26867500000,-23.112837,-40.432205
26881250000,-22.850855,-142.70273
26895000000,-23.114258,114.37241
26908750000,-23.230719,12.963921
26922500000,-23.03536,-86.845818
26936250000,-22.733109,171.00514
26950000000,-23.090935,66.086723
26963750000,-23.124039,-36.037865
26977500000,-23.3573,-137.18658
26991250000,-23.228046,120.57498
27005000000,-23.073147,18.147793
27018750000,-23.097685,-83.741875
27032500000,-22.984062,175.43286
27046250000,-22.991638,73.335396
27060000000,-23.125938,-30.371088
27073750000,-23.222462,-132.54652
27087500000,-23.20051,126.75793
27101250000,-23.217941,24.218021
27115000000,-23.110531,-77.95253
27128750000,-23.037336,-179.48099
27142500000,-22.957922,78.920021
27156250000,-22.891859,-23.002119
27170000000,-23.01829,-125.3772
27183750000,-23.273676,132.91016
27197500000,-23.177824,31.280092
27211250000,-23.081503,-71.0746
27225000000,-22.964506,-172.87653
27238750000,-23.01593,83.761528
27252500000,-23.005747,-17.316559
27266250000,-22.917633,-119.1602
27280000000,-23.092693,138.37405
27293750000,-23.171267,36.710114
27307500000,-23.19883,-65.210625
27321250000,-23.153545,-166.90208
27335000000,-23.013716,90.511726
27348750000,-23.052658,-11.354041
27362500000,-22.980577,-113.39146
27376250000,-22.891281,144.33205
27390000000,-23.04594,42.392712
27403750000,-22.870892,-58.941486
27417500000,-22.795803,-161.50374
27431250000,-22.61754,96.737053
27445000000,-22.989046,-5.8915524
27458750000,-23.034187,-107.13182
27472500000,-22.905128,150.80554
27486250000,-22.877331,48.487232
27500000000,-23.040567,-53.711651
27513750000,-23.082811,-155.90698
27527500000,-23.234873,102.50558
27541250000,-23.438456,-0.05538673
27555000000,-22.995153,-101.47163
27568750000,-23.034187,157.20778
27582500000,-22.97126,55.01944
27596250000,-22.963766,-47.77623
27610000000,-23.047255,-148.74481
27623750000,-22.865084,109.40919
27637500000,-22.767357,6.8805151
27651250000,-22.587648,-95.631676
27665000000,-23.07563,162.55327
27678750000,-22.801622,60.996109
27692500000,-22.797052,-41.528961
27706250000,-22.727846,-142.91415
27720000000,-23.027004,114.67062
27733750000,-23.016159,12.651863
27747500000,-23.135851,-89.840759
27761250000,-23.387016,168.54152
27775000000,-23.059711,66.535095
27788750000,-23.042122,-35.295292
27802500000,-23.210243,-137.79161
27816250000,-23.359499,121.0309
27830000000,-23.03046,19.454535
27843750000,-23.010389,-82.872025
27857500000,-22.977879,174.62756
27871250000,-22.885336,73.362907
27885000000,-23.000669,-28.117887
27898750000,-22.867878,-130.70053
27912500000,-22.803041,127.59793
27926250000,-22.637051,25.373205
27940000000,-23.094517,-76.763885
27953750000,-22.99913,-178.37953
27967500000,-23.077467,79.752525
27981250000,-23.162601,-22.203268
27995000000,-23.031588,-124.27583
28008750000,-23.073982,134.30888
28022500000,-23.277931,31.729053
28036250000,-23.342964,-69.536545
28050000000,-23.036015,-171.19353
28063750000,-22.951923,86.752327
28077500000,-23.005251,-16.215019
28091250000,-22.980669,-117.63383
28105000000,-22.963799,140.80788
28118750000,-22.973473,37.709446
28132500000,-22.88525,-63.914856
28146250000,-22.870239,-165.82793
28160000000,-23.084503,92.287392
28173750000,-22.966391,-9.6321459
28187500000,-22.953028,-111.61523
28201250000,-23.066751,146.18784
28215000000,-23.040237,44.605297
28228750000,-23.097792,-57.029903
28242500000,-23.167347,-158.69774
28256250000,-23.160288,99.768646
28270000000,-23.104698,-2.3075957
28283750000,-23.02968,-104.60989
28297500000,-23.085703,153.45055
28311250000,-23.100657,51.470367
28325000000,-23.037046,-50.281246
28338750000,-22.975203,-152.36758
28352500000,-22.957808,105.02576
28366250000,-23.087124,3.7437723
28380000000,-23.094791,-98.159485
28393750000,-23.03441,159.46651
28407500000,-23.049492,57.915558
28421250000,-23.035046,-43.676689
28435000000,-23.085283,-145.76811
28448750000,-23.015003,112.21577
28462500000,-23.128214,9.4813337
28476250000,-23.131313,-91.168907
28490000000,-23.087364,166.48473
28503750000,-23.039648,64.570045
28517500000,-23.08625,-37.898121
28531250000,-23.240767,-139.88206
28545000000,-23.061459,119.45926
28558750000,-23.130112,16.442244
28572500000,-23.195789,-85.48877
28586250000,-23.231516,173.40395
28600000000,-23.010511,71.0037
28613750000,-22.942068,-31.287359
28627500000,-22.987993,-133.07439
28641250000,-23.073311,125.893
28655000000,-23.087954,23.957462
28668750000,-23.033594,-78.358742
28682500000,-23.10601,-179.98761
28696250000,-23.091125,78.273293
28710000000,-23.190722,-23.298512
28723750000,-22.995583,-126.03728
28737500000,-23.171227,132.16234
28751250000,-23.028839,31.251551
28765000000,-22.99725,-70.368706
28778750000,-22.978127,-172.88243
28792500000,-23.000483,84.354614
28806250000,-22.979366,-16.627993
28820000000,-22.94965,-119.09203
28833750000,-22.993523,138.3447
28847500000,-23.075235,36.380154
28861250000,-23.156012,-64.927994
28875000000,-23.040333,-166.95665
28888750000,-22.984882,90.984825
28902500000,-23.171555,-11.194826
28916250000,-23.168425,-112.74884
28930000000,-23.074839,146.0939
28943750000,-23.019432,44.011669
28957500000,-23.176224,-58.031322
28971250000,-23.136818,-159.6337
28985000000,-23.121599,98.93425
28998750000,-22.990608,-3.8007319
29012500000,-23.093212,-105.93362
29026250000,-23.084145,152.80481
29040000000,-23.057386,51.059376
29053750000,-22.78994,-51.080833
29067500000,-22.9347,-153.27628
29081250000,-22.977793,105.33101
29095000000,-22.981907,3.6713262
29108750000,-23.002665,-98.666206
29122500000,-23.081625,159.13042
29136250000,-23.140795,58.871292
29150000000,-22.975883,-43.550949
29163750000,-22.991222,-146.84615
29177500000,-23.213039,111.11372
29191250000,-23.369877,10.853456
29205000000,-22.919964,-90.901024
29218750000,-22.836645,166.26772
29232500000,-22.86694,64.802116
29246250000,-22.879057,-36.96344
29260000000,-22.871508,-138.67769
29273750000,-22.772699,118.33715
29287500000,-22.832939,16.987968
29301250000,-22.818729,-84.135803
29315000000,-22.918751,173.93367
29328750000,-22.933001,70.917931
29342500000,-23.047287,-30.81155
29356250000,-22.976501,-130.86343
29370000000,-22.921892,126.15079
29383750000,-22.989048,23.779121
29397500000,-23.09663,-78.291451
29411250000,-23.208042,-179.04008
29425000000,-22.878111,79.086525
29438750000,-22.873396,-23.918503
29452500000,-22.965525,-125.57249
29466250000,-22.92174,133.07668
29480000000,-22.730518,31.29636
29493750000,-22.629045,-70.9543
29507500000,-22.609425,-172.82529
29521250000,-22.567099,85.728378
29535000000,-22.675554,-16.391113
29548750000,-22.7981,-118.96826
29562500000,-22.847841,139.68742
29576250000,-22.722696,38.506683
29590000000,-22.708227,-63.645363
29603750000,-22.667597,-166.54846
29617500000,-22.967113,91.434265
29631250000,-22.967405,-8.7759113
29645000000,-22.711063,-111.5042
29658750000,-22.685614,145.87949
29672500000,-22.799187,44.564865
29686250000,-22.663017,-57.363262
29700000000,-22.58102,-159.06204
29713750000,-22.644562,98.308571
29727500000,-22.753107,-2.8410585
29741250000,-22.717081,-104.25755
29755000000,-22.62336,152.52649
29768750000,-22.616812,50.901348
29782500000,-22.702051,-51.703499
29796250000,-22.523121,-151.84084
29810000000,-22.539623,105.74316
29823750000,-22.549021,3.9042997
29837500000,-22.552698,-98.016441
29851250000,-22.435291,160.88066
29865000000,-22.510918,58.387928
29878750000,-22.63777,-44.908321
29892500000,-22.791792,-146.88411
29906250000,-22.888556,111.55412
29920000000,-22.496815,10.284672
29933750000,-22.522215,-91.574631
