!Keysight Technologies,N5224B,MY57181201,A.12.70.07
!Date: Friday, July 15, 2022 16:07:20
!Correction: S11(Full 2 Port(1,2)) 
!S21(Full 2 Port(1,2)) 
!S12(Full 2 Port(1,2)) 
!S22(Full 2 Port(1,2)) 
!S2P File: Measurements: S11, S21, S12, S22:
# Hz S  dB   R 50
22000000000 -20.988874 123.78837 -24.50421 69.557831 -24.540653 69.755272 -26.348085 124.43262
22013750000 -18.105276 55.665577 -24.526108 -33.733326 -24.424175 -32.921947 -21.807802 79.89035
22027500000 -19.374016 -12.190981 -24.653507 -136.73782 -24.531076 -135.94699 -23.139431 17.611513
22041250000 -25.042572 -103.50778 -24.712099 121.5697 -24.615416 122.12776 -28.731998 -81.333801
22055000000 -21.793026 125.30556 -24.510477 19.469093 -24.418139 19.3822 -24.078363 138.40912
22068750000 -18.310993 46.91563 -24.630457 -83.302238 -24.654406 -83.932854 -20.370066 63.548004
22082500000 -17.164495 -19.671543 -24.477192 175.63341 -24.698637 175.00923 -19.37812 -11.04437
22096250000 -17.938623 -88.144661 -24.361717 71.555893 -24.652517 71.162384 -21.53174 -101.93713
22110000000 -22.076937 130.61761 -24.893709 -29.475269 -24.871758 -30.00165 -21.485083 137.63661
22123750000 -18.158152 60.959549 -24.655834 -131.47601 -24.66461 -131.80106 -17.90819 49.193066
22137500000 -18.649107 -7.6282611 -24.591642 126.3202 -24.608566 126.43501 -15.595238 -28.797731
22151250000 -21.944378 -95.246056 -24.513279 23.481962 -24.427647 24.198296 -14.627302 -107.59286
22165000000 -20.486332 135.1781 -24.515841 -79.50383 -24.622902 -79.772652 -20.202682 130.47321
22178750000 -16.620951 56.123753 -24.664448 179.42719 -24.680468 179.22337 -17.305386 49.178253
22192500000 -15.26132 -14.287057 -24.245417 78.289848 -24.238686 77.584099 -16.223055 -22.657152
22206250000 -16.876461 -88.345062 -24.231216 -26.411671 -24.194075 -26.565126 -16.924454 -97.691216
22220000000 -18.704832 133.40924 -24.500517 -129.57158 -24.532755 -129.22797 -19.497112 120.00941
22233750000 -16.235708 48.510651 -24.542772 128.9792 -24.497591 129.38939 -18.506779 45.594364
22247500000 -15.371985 -29.719946 -24.488256 25.520853 -24.452394 26.569685 -20.716877 -33.2024
22261250000 -15.310904 -110.61578 -24.547195 -77.081207 -24.449427 -76.057518 -22.197803 -141.10544
22275000000 -17.759233 123.582 -24.342352 179.90968 -24.305746 -179.85846 -19.182421 112.55578
22288750000 -15.644923 48.806557 -24.613707 78.113541 -24.725807 77.73568 -17.601114 40.384571
22302500000 -16.604086 -28.536791 -24.499947 -22.411398 -24.662298 -23.515556 -19.787796 -34.290722
22316250000 -19.783148 -123.40767 -24.164808 -126.98278 -24.49132 -127.66328 -23.109119 -134.35442
22330000000 -17.062895 116.03783 -24.679821 131.12912 -24.628683 130.93863 -19.860378 105.87177
22343750000 -15.22359 36.942631 -24.533491 29.724796 -24.407663 30.073563 -19.349161 42.177422
22357500000 -15.151442 -36.590458 -24.645281 -74.359428 -24.407408 -73.836563 -23.105671 -33.899765
22371250000 -17.871347 -117.03151 -24.784426 -175.37022 -24.444693 -175.46976 -26.224718 -153.78128
22385000000 -17.21414 107.29928 -24.548359 82.415321 -24.52721 82.085571 -20.337748 98.220055
22398750000 -15.443142 31.024321 -24.691805 -18.995382 -24.618345 -19.764128 -20.58214 39.581482
22412500000 -16.059179 -44.437428 -24.233488 -120.17255 -24.268209 -122.05854 -24.086866 -39.325611
22426250000 -18.729576 -127.5341 -24.199013 135.00764 -24.466368 133.36794 -25.530893 -159.93823
22440000000 -17.300453 101.82053 -24.681871 32.72728 -24.742403 32.276718 -20.000254 105.32283
22453750000 -15.974804 32.144516 -24.489172 -69.137856 -24.615204 -68.440346 -18.441025 40.410278
22467500000 -17.668642 -40.591434 -24.569874 -172.95943 -24.658253 -171.75737 -19.885435 -29.445509
22481250000 -22.716915 -138.07153 -24.771936 84.984459 -24.66604 85.369942 -23.524994 -130.38818
22495000000 -17.686218 98.114517 -24.643044 -16.545246 -24.692961 -16.581789 -19.263662 110.40884
22508750000 -16.567255 20.401115 -24.573191 -117.77856 -24.551872 -117.91521 -17.775362 46.985149
22522500000 -16.474129 -54.314911 -24.511778 141.13022 -24.405567 140.51096 -20.285034 -23.207327
22536250000 -17.364502 -131.72366 -24.294968 36.857273 -24.25482 36.174301 -24.190777 -147.95441
22550000000 -17.976215 98.579941 -24.786659 -65.989449 -24.79365 -66.332733 -18.218977 101.45654
22563750000 -17.047232 33.610138 -24.735018 -165.72649 -24.665598 -165.2628 -18.303757 33.04417
22577500000 -19.557377 -40.413246 -24.501284 89.498123 -24.300962 89.576042 -22.451311 -58.486603
22591250000 -22.93568 -154.53471 -24.73929 -13.263383 -24.544727 -13.497664 -21.024292 176.16403
22605000000 -17.321167 99.253624 -24.49544 -114.06606 -24.512117 -114.60357 -16.768017 90.119125
22618750000 -15.582295 25.640898 -24.516651 143.61667 -24.519775 143.314 -16.359426 17.209578
22632500000 -16.09236 -45.628036 -24.217249 42.29081 -24.248999 41.702888 -19.368841 -67.445953
22646250000 -19.437466 -124.97477 -24.073853 -61.38776 -24.279764 -61.536488 -20.946465 179.44005
22660000000 -16.465021 94.046471 -24.466148 -164.81316 -24.568659 -165.04231 -16.767708 83.089355
22673750000 -15.446453 16.075644 -24.185881 94.049599 -24.377106 94.740005 -17.63246 18.377552
22687500000 -15.739271 -62.096394 -24.070961 -8.8561182 -24.357939 -8.804081 -23.496202 -66.192261
22701250000 -17.325724 -145.63956 -24.047745 -112.64262 -24.459143 -112.08756 -22.744949 147.61435
22715000000 -15.91274 87.050987 -24.250467 146.1368 -24.27276 146.36786 -17.388599 71.010017
22728750000 -15.8492 15.978306 -24.286684 43.453602 -24.218203 43.549873 -19.119295 6.9222493
22742500000 -18.862597 -65.348335 -24.267958 -58.806679 -24.219486 -59.00909 -27.273615 -68.699249
22756250000 -21.028269 172.07788 -24.248838 -161.3544 -24.275734 -160.80475 -25.747438 96.942696
22770000000 -15.63063 77.649818 -24.530678 95.483925 -24.421494 95.766586 -17.562134 60.440296
22783750000 -15.176752 1.9273306 -24.464207 -6.3263216 -24.427309 -5.4814687 -19.837988 -13.762478
22797500000 -16.847071 -75.948692 -24.431538 -110.15969 -24.350245 -109.06973 -23.602192 -113.55449
22811250000 -21.343243 -165.1201 -24.816648 146.93643 -24.620392 147.86198 -21.72703 133.75638
22825000000 -15.804132 67.970596 -24.638203 47.822258 -24.541571 47.422745 -18.532763 58.36142
22838750000 -16.571325 -3.8718371 -24.550014 -54.750008 -24.410599 -55.848507 -21.530722 -2.7360377
22852500000 -20.267641 -84.912209 -24.507092 -156.71037 -24.403603 -158.07565 -29.787058 -106.17386
22866250000 -24.438253 149.70905 -24.210123 100.67899 -24.368891 99.4021 -24.558384 118.27026
22880000000 -16.48875 59.767689 -24.73847 -2.7272947 -24.715364 -3.566798 -19.60762 58.398178
22893750000 -17.737148 -8.2299395 -24.437086 -104.37834 -24.57107 -104.57037 -22.016422 -18.667995
22907500000 -23.094812 -85.538162 -24.486658 152.89307 -24.488459 152.63744 -24.197422 -116.51008
22921250000 -28.198509 121.48003 -24.770365 51.163895 -24.752214 50.978718 -23.352406 138.8611
22935000000 -17.459021 53.840347 -24.475452 -50.371513 -24.584032 -50.625 -19.426392 59.023846
22948750000 -18.704765 -14.327021 -24.599009 -152.49544 -24.42767 -152.00398 -21.965397 -18.253271
22962500000 -22.718931 -85.997673 -24.632515 104.78954 -24.287851 105.59818 -23.927696 -134.84357
22976250000 -33.758411 167.87439 -24.560482 1.6782607 -24.152103 2.5899904 -20.397982 127.3726
22990000000 -18.551075 53.074215 -24.58569 -100.55347 -24.526926 -100.02392 -17.842167 56.591434
23003750000 -20.635111 -5.5597391 -24.478281 157.48854 -24.625648 157.75616 -20.029261 -16.476656
23017500000 -29.436014 -83.511612 -24.325533 55.790329 -24.503952 55.960602 -24.550846 -125.26185
23031250000 -26.870447 100.17743 -24.462418 -46.291946 -24.596905 -46.742508 -20.525143 117.62001
23045000000 -18.488653 54.176479 -24.595873 -148.60051 -24.491955 -148.36432 -17.449211 45.941784
23058750000 -19.357697 -7.5768862 -24.496897 109.14632 -24.399147 108.77577 -22.057249 -36.776329
23072500000 -23.889132 -71.661255 -24.537914 6.8749108 -24.470585 6.1597791 -22.574169 -177.52647
23086250000 -54.197163 62.520119 -24.332468 -94.960564 -24.462708 -95.72963 -18.180073 95.77903
23100000000 -17.920725 52.129333 -24.486553 163.06447 -24.473343 162.31525 -17.427776 31.094662
23113750000 -20.212887 -15.657454 -24.351791 60.424397 -24.475849 59.883301 -21.926128 -73.510529
23127500000 -27.511536 -103.16203 -24.377785 -43.70409 -24.46224 -44.428787 -19.365004 168.71432
23141250000 -25.814142 94.727158 -24.612143 -144.04895 -24.702894 -144.96275 -16.775967 91.00647
23155000000 -17.746111 44.56271 -24.339064 113.43695 -24.410398 113.44585 -17.936188 18.746958
23168750000 -20.867115 -21.366489 -24.278629 10.418047 -24.23531 10.674267 -22.930391 -72.589088
23182500000 -30.802481 -138.71585 -24.546513 -92.83284 -24.303135 -91.821045 -22.222862 158.59227
23196250000 -22.4792 71.54364 -24.711496 165.77954 -24.378132 165.92961 -19.121592 72.674408
23210000000 -17.609535 35.78656 -24.311487 63.622562 -24.350882 64.039299 -19.56669 9.4152002
23223750000 -19.97436 -46.125423 -24.213631 -39.543983 -24.358202 -39.913811 -29.55765 -79.777412
23237500000 -23.680079 -140.37149 -24.295382 -142.56854 -24.50259 -143.05933 -23.288029 97.548424
23251250000 -26.111322 93.969467 -24.383251 115.58543 -24.675676 115.15084 -17.800335 27.473125
23265000000 -18.301708 25.278719 -24.584671 13.756286 -24.500973 13.930765 -21.181425 0.58633524
23278750000 -24.049763 -67.180191 -24.493052 -88.944763 -24.373135 -89.018486 -24.545597 -141.39893
23292500000 -22.962467 146.99168 -24.609718 168.25436 -24.379408 168.58826 -18.380968 130.68353
23306250000 -18.60935 67.932297 -24.562384 67.395378 -24.315531 67.443123 -17.866158 67.006561
23320000000 -19.334429 11.635646 -24.672665 -34.968864 -24.592018 -35.62656 -22.737099 1.7204547
23333750000 -26.090275 -69.827904 -24.418097 -136.72948 -24.511513 -137.5997 -27.773552 -107.29479
23347500000 -27.662329 115.84566 -24.462545 119.29942 -24.649567 118.71855 -25.381086 134.64142
23361250000 -20.090406 25.083475 -24.556225 18.57383 -24.748533 17.779737 -23.24262 64.284187
23375000000 -21.540449 5.0690722 -24.456146 -83.61837 -24.528696 -84.347496 -24.158628 6.515861
23388750000 -31.856443 -87.485756 -24.744146 173.27615 -24.737289 173.69881 -30.682547 -85.030785
23402500000 -27.341412 80.433746 -24.682392 71.220543 -24.613451 72.107658 -28.71357 151.15608
23416250000 -21.27162 11.609487 -24.732063 -31.695429 -24.717051 -30.587694 -27.543238 62.777596
23430000000 -24.89942 4.5066762 -24.508295 -132.98956 -24.624346 -132.65022 -22.712437 10.039173
23443750000 -43.742046 103.26461 -24.59334 123.42583 -24.745995 123.49086 -26.41428 -112.76936
23457500000 -24.042404 73.017258 -24.803452 22.223099 -25.033117 22.27203 -22.68717 144.9949
23471250000 -21.699997 19.479712 -24.697304 -78.568138 -25.057108 -78.611122 -20.490824 69.045288
23485000000 -26.304552 20.344572 -24.705902 178.86873 -24.698252 179.17909 -21.731844 1.5933405
23498750000 -32.060314 28.512032 -24.560692 75.821617 -24.434959 76.653091 -24.172346 -122.60516
23512500000 -26.503826 24.584871 -24.964737 -27.636433 -24.662458 -26.114655 -20.819324 139.4259
23526250000 -21.9137 -17.825485 -25.073536 -127.07921 -24.523287 -126.46169 -19.629322 59.748959
23540000000 -25.515291 30.741001 -24.626602 130.15092 -24.565046 130.0388 -22.187393 -11.7525
23553750000 -34.260372 49.402802 -24.656002 27.832392 -24.578199 27.184395 -25.520115 -146.92805
23567500000 -25.726351 64.408028 -24.60199 -74.773087 -24.544733 -75.659546 -20.981562 105.88552
23581250000 -21.737431 27.081697 -24.799469 -175.57101 -24.780409 -176.13881 -19.361725 34.548882
23595000000 -24.844137 25.42996 -24.516016 82.381439 -24.560492 82.112846 -23.398394 -37.371304
23608750000 -34.939713 30.821278 -24.653587 -22.200901 -24.53142 -22.472742 -20.657337 166.51456
23622500000 -24.265387 62.254436 -24.810196 -123.5815 -24.759228 -124.46927 -16.129364 93.09243
23636250000 -19.423498 11.15066 -24.691904 135.54584 -24.87009 134.50114 -17.116314 31.29323
23650000000 -25.037464 16.894205 -24.546822 33.143955 -24.568497 33.030083 -25.519001 -52.349091
23663750000 -42.298679 -32.16988 -24.409922 -70.51609 -24.511177 -70.93811 -20.999454 177.2722
23677500000 -27.651539 59.501064 -24.559538 -172.12219 -24.883671 -173.0751 -18.737078 103.55692
23691250000 -21.824244 -5.6182833 -24.343372 85.703697 -24.685064 85.208397 -21.31658 36.891586
23705000000 -26.767319 8.636157 -24.697599 -17.303747 -24.658131 -16.968716 -30.938154 -74.604912
23718750000 -31.940987 146.45055 -24.717524 -119.28619 -24.626003 -119.12854 -25.498672 137.93117
23732500000 -21.649096 80.502762 -24.86661 137.83546 -24.689646 138.49762 -21.780867 68.475555
23746250000 -19.75206 23.025126 -24.948889 37.163254 -24.596081 37.594639 -24.211081 1.2206161
23760000000 -29.95875 -7.4987144 -24.735888 -65.467262 -24.702631 -65.366959 -38.30378 -101.87305
23773750000 -31.184542 112.93893 -24.841 -167.22649 -24.852346 -167.51765 -22.062046 110.02122
23787500000 -21.554121 46.61821 -24.579773 91.630455 -24.574598 90.099953 -18.805361 55.19202
23801250000 -18.982887 -16.918484 -24.751511 -10.905844 -24.902634 -12.538927 -19.87993 1.8966825
23815000000 -43.535492 -1.8145456 -24.643478 -112.68529 -24.628286 -113.24692 -38.052959 34.29747
23828750000 -25.189781 113.8714 -24.722609 142.21931 -24.724943 142.24004 -25.018215 120.10169
23842500000 -22.698008 61.4799 -25.130896 42.206295 -25.223122 42.430264 -21.014744 79.258186
23856250000 -27.607861 10.605469 -24.721148 -59.125519 -24.714756 -58.662064 -19.851349 34.478508
23870000000 -31.796896 104.22616 -24.699869 -162.80037 -24.696268 -163.25729 -29.349037 43.031151
23883750000 -22.766191 72.421326 -24.675201 96.577133 -24.705315 96.338997 -34.611652 111.35667
23897500000 -20.220585 20.490767 -24.560301 -7.4295793 -24.593542 -7.5190768 -27.225145 87.652512
23911250000 -20.542484 -27.223724 -24.815083 -108.77319 -24.832647 -108.80521 -25.4541 48.686054
23925000000 -26.528839 94.466103 -24.66622 150.01996 -24.703804 149.77472 -30.751753 23.308474
23938750000 -24.083231 45.089039 -24.511436 46.309799 -24.589054 46.613743 -31.031902 163.14011
23952500000 -23.728369 -11.116144 -24.680288 -56.061172 -24.787989 -55.310802 -23.869026 95.143311
23966250000 -25.521616 -66.745392 -24.688282 -157.41714 -24.728683 -156.35274 -23.217413 38.059376
23980000000 -23.869688 75.430481 -24.574739 99.881241 -24.609543 99.836273 -30.233532 -19.427588
23993750000 -26.341284 48.622955 -24.62397 -1.9096218 -24.832825 -2.063869 -28.940557 130.78943
24007500000 -31.553017 66.765533 -24.381924 -103.08468 -24.778831 -103.28364 -19.819584 56.627102
24021250000 -25.404039 65.213028 -24.260214 153.0282 -24.771021 153.74423 -16.605696 -8.0206537
24035000000 -23.305134 58.822273 -24.980865 52.230274 -24.908058 52.062222 -33.194683 -31.100164
24048750000 -25.787308 3.341367 -24.440746 -49.611698 -24.451872 -49.671879 -26.411339 150.85822
24062500000 -29.651167 -26.24415 -24.603788 -153.74022 -24.701195 -154.15714 -22.450569 88.687294
24076250000 -28.468182 -34.137127 -24.429287 106.47465 -24.56374 106.04527 -25.172823 28.862345
24090000000 -23.96349 47.951748 -24.606655 1.796353 -24.571489 1.4013094 -49.347469 119.51606
24103750000 -33.347328 34.47583 -24.909046 -98.552155 -24.787458 -98.912788 -23.557079 113.48267
24117500000 -27.125654 86.855522 -24.599941 158.98074 -24.341658 158.98212 -21.381519 65.325996
24131250000 -22.954014 43.604298 -24.842886 56.211109 -24.467422 55.707218 -25.361433 16.193138
24145000000 -25.037535 39.736458 -24.673643 -44.927284 -24.780725 -45.03022 -35.672459 109.89558
24158750000 -34.088081 94.982979 -24.760088 -149.20337 -24.759312 -149.38246 -27.45961 119.07919
24172500000 -25.02552 92.1092 -25.077036 109.93189 -24.926865 110.09586 -26.245966 85.315781
24186250000 -23.270653 56.023159 -24.860203 8.9469366 -24.69701 9.080287 -28.850071 56.385864
24200000000 -27.449827 44.405357 -24.665874 -94.33242 -24.701654 -94.388733 -28.434624 68.520905
24213750000 -49.770363 -73.632797 -24.733566 163.79544 -24.811037 164.00906 -34.262775 122.63505
24227500000 -32.41618 118.49567 -24.740004 61.866905 -24.867657 61.944859 -25.922977 126.78024
24241250000 -30.507484 82.222839 -24.668352 -39.873684 -24.872423 -39.915531 -23.555958 88.211411
24255000000 -27.555929 57.627884 -24.650526 -141.49857 -24.608767 -141.10738 -24.918961 50.950264
24268750000 -29.710167 100.6313 -24.437798 116.27689 -24.45927 115.85027 -40.714558 57.365292
24282500000 -25.877672 93.67997 -24.600174 12.228441 -24.65436 11.359801 -26.213076 118.25079
24296250000 -24.383375 68.071602 -24.658865 -87.202415 -24.794224 -88.15699 -22.031826 70.058083
24310000000 -24.915899 67.167999 -24.489412 170.24455 -24.453091 170.02312 -24.548849 28.393959
24323750000 -26.301863 29.296768 -24.590368 67.553116 -24.566517 66.743248 -28.753166 -179.03001
24337500000 -26.027075 5.9540772 -24.266106 -33.818806 -24.277369 -34.376354 -19.437656 115.65988
24351250000 -25.502214 -15.568668 -24.236488 -137.94072 -24.245396 -138.07092 -18.191462 61.540134
24365000000 -23.506557 59.522141 -24.651407 120.91567 -24.679312 120.41688 -23.978951 -1.587622
24378750000 -28.44491 23.292101 -24.400196 17.714943 -24.392138 17.734133 -22.609882 -158.85876
24392500000 -31.517815 85.660378 -24.763523 -84.691467 -24.615122 -84.914635 -17.824129 124.26098
24406250000 -23.366501 49.331562 -24.747431 174.33781 -24.599028 174.16916 -17.550436 60.653065
24420000000 -21.55035 44.856956 -24.310532 71.406746 -24.372351 71.572685 -25.071753 -22.850319
24433750000 -30.143948 -11.545963 -24.600435 -31.661024 -24.562353 -31.348961 -25.943626 -163.96777
24447500000 -29.742805 98.020683 -24.766218 -132.62105 -24.703884 -132.9912 -20.972925 108.43762
24461250000 -20.137318 42.299129 -24.631639 125.3453 -24.561234 125.54523 -21.530573 38.216457
24475000000 -21.572081 29.551855 -24.555525 21.787607 -24.557981 21.700422 -27.951612 -38.755333
24488750000 -30.080832 -55.808788 -24.701199 -78.484764 -24.659489 -78.904152 -28.831602 141.07103
24502500000 -25.901896 103.51083 -24.667131 178.84752 -24.70237 178.29832 -22.256435 50.132793
24516250000 -19.805765 30.180517 -24.790989 77.242043 -24.947559 76.508919 -18.378603 -26.507425
24530000000 -22.145638 10.1766 -24.480642 -24.673399 -24.428375 -24.840416 -32.285145 -46.184338
24543750000 -28.242401 -159.52757 -24.693974 -129.93472 -24.68947 -129.9422 -25.19454 139.51411
24557500000 -19.610859 117.75469 -24.908953 130.41051 -24.950651 129.46773 -19.523317 65.248367
24571250000 -18.848545 55.031059 -24.594303 29.751387 -24.706114 28.324755 -17.309044 0.77626598
24585000000 -25.251453 -3.5630517 -24.808247 -74.07724 -24.8241 -74.41433 -32.765186 -3.248553
24598750000 -31.652252 164.90016 -24.626175 -175.50418 -24.61507 -175.99948 -28.568237 -178.16147
24612500000 -20.648291 65.575104 -24.608147 82.511894 -24.65148 81.815643 -24.658838 119.68265
24626250000 -17.021433 1.7572578 -24.624781 -18.499172 -24.749269 -19.051968 -24.260843 59.337364
24640000000 -29.679884 -12.59197 -24.546825 -121.40965 -24.610807 -121.84698 -30.179255 10.516006
24653750000 -28.000727 134.27473 -24.588812 136.10942 -24.716021 136.16174 -29.281033 173.5219
24667500000 -19.843487 71.596451 -24.630835 34.291618 -24.706154 33.899857 -22.307421 105.40529
24681250000 -17.702761 8.3014021 -24.632435 -67.289505 -24.68745 -66.964928 -21.268944 49.595898
24695000000 -30.847277 12.26504 -24.659122 -169.65297 -24.654076 -169.98424 -26.306904 -7.9381022
24708750000 -28.146364 127.1409 -24.724285 88.143013 -24.622908 88.192291 -23.763561 -161.68076
24722500000 -21.212025 66.834656 -24.681221 -13.770633 -24.479298 -13.372164 -19.394012 120.01181
24736250000 -18.46249 8.883297 -24.808449 -116.339 -24.52508 -115.95402 -19.295944 53.016781
24750000000 -32.430908 42.832745 -24.600655 142.87251 -24.585413 142.68793 -24.266901 -29.271088
