!Keysight Technologies,N5224B,MY57181201,A.12.70.07
!Date: Friday, July 15, 2022 16:11:47
!Correction: S11(Full 2 Port(1,2)) 
!S21(Full 2 Port(1,2)) 
!S12(Full 2 Port(1,2)) 
!S22(Full 2 Port(1,2)) 
!S2P File: Measurements: S11, S21, S12, S22:
# Hz S  dB   R 50
22000000000 -19.671848 165.74814 -53.980968 -162.72716 -53.949932 -159.69881 -20.666647 149.79411
22013750000 -15.862877 79.373314 -54.399105 86.687141 -54.350857 92.400497 -17.703129 76.097107
22027500000 -15.280002 1.9523541 -56.405785 -46.791759 -58.089512 -47.655201 -18.953535 -2.2242551
22041250000 -18.007072 -91.68045 -58.650814 -102.38471 -57.912308 -100.80914 -22.092295 -115.08999
22055000000 -17.257288 149.87668 -55.832802 143.4128 -56.363483 134.54535 -18.998873 130.35315
22068750000 -14.572329 57.514389 -54.203651 45.306366 -54.12151 40.431545 -17.233278 47.666565
22082500000 -13.503202 -21.487507 -55.264286 -54.06181 -56.27243 -56.621967 -17.915134 -33.537304
22096250000 -14.480137 -102.75158 -54.518795 -167.16324 -55.035599 -164.16275 -19.879375 -131.23354
22110000000 -16.35029 129.88029 -53.319843 81.724754 -53.443138 88.714142 -19.012581 112.75001
22123750000 -14.423799 49.148956 -56.339619 -10.939932 -55.919041 -4.7051597 -16.960196 30.291931
22137500000 -15.884833 -32.190746 -53.412285 -101.43286 -52.581173 -101.65241 -15.742086 -47.225037
22151250000 -18.543083 -134.63129 -52.966331 127.48412 -52.224522 129.32655 -15.974504 -122.52992
22165000000 -16.472641 112.306 -55.504646 12.364971 -55.123764 7.3842168 -20.598772 97.802544
22178750000 -14.794465 33.014015 -52.856075 -62.745396 -52.497635 -67.266327 -19.212065 28.564713
22192500000 -15.580256 -40.630447 -55.596428 174.58168 -56.00248 175.59148 -19.256176 -32.890259
22206250000 -19.557018 -118.40112 -56.258656 96.942825 -54.757072 97.142647 -21.416201 -94.033226
22220000000 -17.832405 97.316498 -55.433342 -34.891506 -55.342834 -28.873648 -24.096058 90.870651
22233750000 -17.344667 20.377504 -54.249428 -130.89673 -53.930733 -128.52084 -23.882458 47.426392
22247500000 -17.916077 -53.254326 -55.411175 123.70081 -54.836113 128.2804 -26.852894 -8.3745337
22261250000 -20.095078 -123.85514 -57.052647 24.169914 -56.853439 26.79781 -30.736322 -103.8001
22275000000 -21.021578 92.914261 -56.374157 -65.485771 -57.141209 -67.237129 -24.854366 125.25356
22288750000 -20.070223 35.095375 -53.640949 -168.4567 -53.433235 -174.07201 -19.997522 66.029907
22302500000 -22.352499 -18.44768 -53.228252 76.436302 -52.639652 79.092392 -19.528412 -6.2258101
22316250000 -28.127741 -93.501213 -57.086864 -37.858799 -57.193913 -36.143761 -22.713396 -91.396179
22330000000 -23.276306 113.96796 -54.286572 -117.11415 -53.641781 -114.36248 -20.912153 139.48373
22343750000 -19.201015 48.687218 -54.03965 143.63855 -53.496662 136.22437 -18.282452 66.661613
22357500000 -17.595875 -13.624118 -53.170212 32.160507 -52.213032 32.226444 -18.909473 -8.762949
22371250000 -18.09782 -82.091904 -52.251099 -71.635712 -52.811478 -70.685677 -21.847145 -117.59552
22385000000 -20.827528 134.3987 -55.82518 176.04424 -55.588291 171.69373 -18.934093 125.92929
22398750000 -16.787264 56.491512 -53.501163 71.245216 -53.922501 71.325912 -16.852583 52.360832
22412500000 -15.361558 -19.385113 -53.734787 -30.917696 -53.251652 -30.128256 -18.802641 -33.658951
22426250000 -16.528675 -99.549652 -55.603722 -137.02174 -55.124969 -149.0065 -19.610725 -143.95891
22440000000 -17.176641 133.18901 -57.031803 135.24286 -56.012169 127.23341 -16.304926 112.50117
22453750000 -14.277334 52.114311 -53.528755 5.8188705 -54.830158 10.086942 -15.196633 35.558075
22467500000 -14.493381 -24.36532 -55.63879 -84.330338 -55.492466 -82.703682 -16.673187 -47.291424
22481250000 -17.052002 -118.96242 -56.02573 177.2354 -56.047729 171.36037 -19.222456 -156.793
22495000000 -15.120593 119.35903 -56.576065 70.860603 -59.30003 68.693962 -16.097515 98.174904
22508750000 -13.416764 33.433796 -58.867485 -17.707558 -56.384243 -21.515278 -16.269697 25.236961
22522500000 -12.919514 -51.240051 -53.721958 -136.00734 -54.40826 -130.56287 -20.599688 -58.814331
22536250000 -13.56196 -137.46588 -58.518993 123.97128 -57.884407 126.11204 -21.373322 168.25468
22550000000 -14.082031 103.26014 -54.083694 28.330366 -53.956879 30.007071 -17.062893 77.389946
22563750000 -13.450201 25.569332 -57.62603 -91.878464 -57.193367 -93.035133 -19.321121 7.0360703
22577500000 -15.815177 -62.234486 -57.632305 174.82373 -57.264961 176.2225 -23.958313 -105.50143
22591250000 -17.236628 -175.85793 -55.277992 65.222061 -55.105537 65.586319 -20.568794 140.72597
22605000000 -14.047866 86.828575 -58.194519 -26.180176 -57.315693 -26.500465 -17.657639 67.207726
22618750000 -13.452586 7.8113861 -54.998295 -130.28557 -55.475624 -136.46973 -19.663996 0.17417508
22632500000 -15.5141 -73.362198 -59.549194 122.75757 -58.27504 120.99715 -25.155617 -77.875099
22646250000 -20.286272 -166.21324 -58.494846 19.882027 -58.10619 18.911722 -26.10434 144.49977
22660000000 -14.797517 71.062538 -57.063099 -67.756393 -57.369785 -64.610649 -20.926493 70.292458
22673750000 -15.236792 -9.3778696 -55.003811 -174.2704 -54.4156 -168.91231 -22.199942 32.736652
22687500000 -17.398693 -89.803116 -57.801792 67.016296 -56.683033 67.1922 -27.635157 -4.159615
22701250000 -21.009907 -176.3438 -56.152836 -32.388634 -54.698681 -35.900188 -35.909309 132.30875
22715000000 -16.888449 59.74773 -55.077232 -130.5621 -54.892487 -134.64232 -21.772446 83.047974
22728750000 -19.427925 -5.7334309 -56.425621 119.14005 -57.905487 123.6251 -20.419519 40.499779
22742500000 -27.3256 -91.898949 -56.233795 21.938297 -55.843552 21.492664 -23.173153 -16.091843
22756250000 -26.907 112.35535 -59.343887 -81.280289 -59.094063 -81.427979 -43.004086 -18.191908
22770000000 -19.445719 59.722244 -56.558094 174.67992 -56.573013 177.1787 -18.832745 84.8069
22783750000 -20.42281 2.175112 -56.452724 62.136581 -55.606728 68.738235 -18.813488 15.288482
22797500000 -21.541506 -52.256504 -59.319714 0.21656395 -57.885929 0.86176515 -21.165636 -74.086998
22811250000 -25.679377 -106.39296 -54.808014 -122.55482 -55.314331 -125.57202 -20.755568 167.82809
22825000000 -20.758425 78.271767 -55.083645 134.718 -55.341869 146.41585 -16.902918 79.019325
22838750000 -19.520414 24.678154 -57.262539 11.583323 -56.240009 10.054097 -17.488838 10.688317
22852500000 -20.648939 -38.651012 -54.371155 -93.038177 -53.537445 -94.441353 -21.378983 -85.101402
22866250000 -26.331518 -125.88917 -56.762115 -171.82162 -55.795532 -166.31607 -20.148302 149.55345
22880000000 -18.581091 87.932114 -54.541348 64.841843 -54.25267 61.973846 -16.023701 66.408775
22893750000 -16.898113 22.973276 -58.087845 -33.901001 -57.689484 -35.73856 -17.176247 -19.455103
22907500000 -18.446367 -49.800381 -57.777287 -139.11693 -57.393234 -139.71799 -18.02783 -121.56811
22921250000 -24.486879 -148.9794 -55.79134 111.80723 -54.735386 119.35542 -17.637297 135.63991
22935000000 -16.219656 82.638306 -57.600822 10.511154 -56.521038 6.303926 -15.71908 46.822403
22948750000 -15.218631 6.4654632 -57.183594 -93.161705 -55.880661 -94.327591 -18.040224 -43.67379
22962500000 -16.763523 -73.928284 -58.810658 172.40318 -57.810539 166.73976 -18.673223 -156.24571
22976250000 -20.580231 -171.49786 -60.395744 63.685852 -58.897087 70.598885 -16.705399 108.29092
22990000000 -14.839717 68.583855 -59.482769 -29.543833 -59.40794 -25.99342 -16.313158 31.521002
23003750000 -15.5105 -6.0291419 -56.143436 -136.85542 -56.577446 -130.08867 -20.274323 -54.529449
23017500000 -19.488388 -102.47932 -60.061356 132.76534 -59.653698 136.23448 -22.483496 178.86208
23031250000 -19.2658 129.68471 -61.154945 26.932581 -63.511829 10.111429 -19.093639 83.272926
23045000000 -14.351687 52.091255 -64.498085 -51.688988 -62.913567 -65.40657 -18.580221 18.500885
23058750000 -15.536446 -26.852331 -56.81472 -159.80444 -56.789288 -160.82903 -26.058987 -96.164513
23072500000 -20.022842 -117.86739 -57.108135 64.275093 -56.917675 60.087688 -21.68968 134.00467
23086250000 -22.706203 101.80414 -58.267742 6.4958677 -58.861954 11.298428 -19.451624 66.1716
23100000000 -14.817195 33.886784 -55.131599 -111.82869 -56.089592 -106.58437 -21.7005 13.432827
23113750000 -17.985369 -49.67997 -57.216785 129.54132 -56.166176 127.34016 -28.77195 -126.02845
23127500000 -21.918339 -169.54727 -55.388466 19.045492 -56.584789 19.528408 -22.916782 134.38718
23141250000 -18.725317 70.830246 -56.698254 -81.275513 -57.680428 -75.709579 -21.279821 81.652283
23155000000 -16.423876 16.190287 -56.190613 -169.23497 -56.416744 -169.43628 -22.958536 31.474476
23168750000 -22.251579 -75.782394 -59.176281 81.144341 -57.202808 72.443741 -30.324509 -20.483757
23182500000 -23.613214 133.22496 -57.595528 -29.117653 -57.535599 -29.100763 -36.235382 157.28279
23196250000 -17.612494 42.784489 -56.098923 -142.89108 -54.85104 -143.20395 -24.598461 92.932556
23210000000 -19.813244 -0.77950537 -57.581078 137.45529 -58.127918 130.67957 -20.926306 40.394798
23223750000 -25.631754 -92.116409 -55.526939 23.637156 -54.602108 23.226761 -25.538614 -1.6456207
23237500000 -30.301914 122.89117 -61.521355 -57.918018 -61.050999 -44.053322 -35.941296 54.530708
23251250000 -25.405285 2.1736293 -56.84959 -175.11174 -57.510609 -179.25444 -21.938412 43.39991
23265000000 -25.26623 0.96456701 -55.792496 73.054604 -55.173889 74.697929 -18.963285 31.032057
23278750000 -36.005501 130.20764 -59.94804 -10.007897 -60.199657 -2.9728775 -25.101776 -87.062042
23292500000 -25.146372 78.433075 -58.431721 -112.46141 -58.231617 -120.90694 -19.035009 157.92464
23306250000 -23.837193 34.156853 -54.947247 157.57945 -55.60479 153.75447 -15.934122 88.701378
23320000000 -27.146301 47.119591 -55.03973 35.472607 -55.9916 37.963051 -18.082392 15.564106
23333750000 -26.204876 27.054445 -53.816978 -76.456886 -53.822762 -77.587982 -20.648577 -83.272659
23347500000 -26.725197 -4.2898021 -55.632359 167.77873 -56.360043 174.19232 -19.938929 164.23691
23361250000 -28.092571 -13.132401 -53.639191 75.06308 -54.591755 73.680634 -18.149061 75.485008
23375000000 -22.314882 58.404041 -54.348198 -45.221836 -54.83662 -41.813293 -18.067085 -2.0108862
23388750000 -22.965107 2.5796824 -56.374676 -134.42491 -56.081322 -139.55492 -20.696533 -108.4594
23402500000 -29.481083 -57.079662 -55.839821 110.5498 -56.196526 99.469299 -20.256493 143.96596
23416250000 -33.499531 50.3386 -59.799049 14.523807 -61.014786 20.461687 -19.442898 47.900906
23430000000 -19.745676 46.266037 -58.490208 -82.242744 -59.01836 -79.070847 -19.163366 -26.495413
23443750000 -23.634378 -21.122074 -57.421478 144.01999 -56.421547 146.90099 -19.715246 -144.61977
23457500000 -33.978901 168.85338 -59.86208 73.89827 -61.644318 79.760818 -18.040022 116.76917
23471250000 -21.56451 69.238853 -55.407177 -22.220062 -56.492104 -31.906454 -18.14884 36.533287
23485000000 -18.63176 26.933395 -58.961094 -130.84662 -59.573799 -134.89195 -22.218809 -50.760647
23498750000 -23.056698 -48.261776 -59.963131 143.6736 -61.058537 146.39799 -21.589754 -174.51784
23512500000 -31.237692 158.00644 -55.915657 27.489983 -55.075123 32.722687 -19.575216 97.805214
23526250000 -21.259716 30.132885 -62.601013 -88.212166 -61.814842 -80.63784 -21.733791 18.143438
23540000000 -18.725132 5.3235559 -57.839672 -154.2784 -56.658283 -159.02565 -30.292189 -69.278969
23553750000 -26.080929 -113.30345 -56.674171 88.089439 -57.446217 78.874657 -24.993326 136.55873
23567500000 -20.560244 111.93549 -56.179047 -9.0259809 -56.511086 -7.8546562 -22.141502 62.197323
23581250000 -16.588957 34.069813 -55.615345 -116.30243 -55.449791 -115.5465 -24.52099 1.162722
23595000000 -20.210142 -20.790152 -54.278172 129.98761 -55.032909 131.06302 -43.801357 18.625151
23608750000 -24.753956 -168.06125 -57.38665 30.001764 -57.560917 31.497637 -23.169451 125.0321
23622500000 -18.397564 80.747498 -55.245129 -55.019176 -54.940613 -63.959595 -19.811544 80.914444
23636250000 -15.012183 6.2246399 -53.654408 -177.41081 -54.146343 -179.37215 -21.49826 45.62838
23650000000 -23.936304 -55.678005 -54.931427 77.695938 -53.989777 78.650314 -27.786655 26.083765
23663750000 -23.567831 154.12569 -55.743294 -32.932339 -56.123043 -36.626129 -30.017134 -162.07451
23677500000 -19.096676 53.54686 -54.533298 -121.86026 -55.039467 -121.41998 -21.900375 132.87408
23691250000 -16.796257 -25.19751 -55.484776 120.72845 -55.404541 118.88362 -21.015627 76.422684
23705000000 -29.007734 -126.9688 -56.625988 9.4308233 -55.872562 13.035009 -24.436924 12.307464
23718750000 -20.633152 115.036 -56.249844 -91.045624 -55.007816 -89.636681 -32.188271 -136.81285
23732500000 -18.188591 45.602104 -56.835903 165.13028 -55.887753 161.90382 -23.702953 112.38285
23746250000 -20.696175 -20.989237 -57.445534 86.413597 -56.787743 88.961777 -21.227297 45.984688
23760000000 -26.757278 149.71129 -55.35577 -39.137871 -55.597149 -34.366203 -24.565828 -22.038912
23773750000 -20.683622 70.998711 -56.876427 -128.36018 -57.666019 -131.74452 -25.586714 159.60248
23787500000 -19.214018 6.1821356 -57.581059 148.07407 -57.068748 147.07695 -17.786331 82.226074
23801250000 -21.102066 -57.220364 -54.600307 36.599815 -55.352798 35.116035 -16.442003 18.142271
23815000000 -22.697702 106.78887 -57.810555 -88.254524 -56.424129 -82.168282 -23.88587 -45.972889
23828750000 -22.501451 50.321213 -54.99099 -161.4082 -55.614632 -163.04591 -20.806395 164.39153
23842500000 -29.707037 -1.6737816 -52.80027 79.484901 -53.170422 76.455872 -16.503792 87.634361
23856250000 -28.637623 138.19978 -53.962917 -26.04039 -53.826153 -24.979816 -15.72584 21.100298
23870000000 -20.902315 73.783386 -55.46452 -139.47218 -54.891087 -127.58493 -26.970648 -84.161087
23883750000 -21.82836 20.67613 -52.103691 111.34818 -51.784012 117.35174 -21.94223 141.07294
23897500000 -27.863888 -11.559052 -55.272675 -1.541348 -54.625629 -0.9183169 -19.348709 64.970291
23911250000 -26.303318 14.331185 -57.176548 -75.195313 -55.460285 -77.299904 -22.128567 -12.927395
23925000000 -20.503736 48.242691 -55.507229 145.61923 -55.422691 145.57582 -27.486498 -155.75888
23938750000 -25.187496 -24.652147 -57.022518 65.240547 -56.747639 67.81073 -21.016829 113.23001
23952500000 -40.106186 -105.40104 -54.831551 -23.694593 -54.864521 -18.772388 -21.498932 44.465137
23966250000 -26.958403 25.151367 -57.630573 -143.28238 -56.562992 -145.43954 -26.844065 -35.06699
23980000000 -22.014587 22.912802 -57.422779 114.96927 -58.264702 129.64005 -27.477388 137.49706
23993750000 -35.690693 -126.21929 -60.507309 33.920757 -61.49625 26.933687 -21.93716 74.054115
24007500000 -22.041254 111.62253 -56.043137 -64.068199 -56.867687 -57.931248 -20.152035 16.383368
24021250000 -18.968929 45.698376 -53.862877 -162.39807 -54.848297 -174.6723 -20.49217 -28.471338
24035000000 -25.379759 -2.0219166 -55.43121 94.439308 -56.685883 96.859955 -25.06068 81.199074
24048750000 -37.426693 -159.3688 -53.348747 -15.248642 -53.954178 -24.524769 -30.828972 31.406044
24062500000 -24.456451 54.680916 -53.865234 -135.9064 -53.18108 -138.35089 -32.178902 141.46843
24076250000 -19.808435 -21.468922 -52.780315 141.79301 -52.170174 142.9826 -24.786293 99.222511
24090000000 -35.401215 -45.234745 -53.181877 16.107729 -53.425076 20.81826 -23.366045 48.857258
24103750000 -24.136181 122.3243 -53.452477 -84.373932 -53.852745 -90.751419 -39.033669 45.934155
24117500000 -19.890505 57.562794 -53.390285 174.645 -53.645233 175.31949 -24.851414 113.07899
24131250000 -21.372061 -5.6069484 -52.959137 62.806129 -52.003963 63.080315 -21.107609 60.621002
24145000000 -31.380613 142.66237 -53.858665 -42.09832 -54.119293 -46.705582 -24.534946 15.63745
24158750000 -21.51944 93.786819 -55.26638 -159.90935 -54.923901 -156.83542 -26.318237 -146.61865
24172500000 -21.679708 38.735798 -54.455772 103.49554 -54.323017 104.18447 -20.869183 120.64891
24186250000 -34.379135 -23.161613 -56.95808 -6.2992706 -56.209572 -9.6764975 -20.132467 55.387383
24200000000 -23.129118 112.67072 -54.368614 -76.121109 -54.539146 -84.223274 -24.875372 -16.717793
24213750000 -23.54895 45.465225 -57.747746 142.44409 -56.862797 139.02972 -23.174164 -168.81065
24227500000 -27.620579 -50.656799 -56.960888 54.683693 -57.084419 56.827381 -18.88282 113.71925
24241250000 -25.222651 176.72997 -55.890419 -34.243362 -55.826172 -25.79796 -20.361471 47.944775
24255000000 -19.794546 86.355164 -56.618656 -148.96461 -56.899948 -151.5309 -28.440556 -37.01965
24268750000 -23.411734 27.450388 -57.430962 138.55666 -58.850277 145.91727 -23.353971 151.68965
24282500000 -33.574749 -137.71451 -53.384125 28.820444 -53.566696 29.097761 -19.966881 81.816795
24296250000 -20.847858 116.53263 -54.462395 -76.700447 -53.669476 -91.437912 -21.821316 19.855661
24310000000 -18.364555 60.168365 -55.196404 177.05194 -54.065296 177.26694 -38.081451 -115.35641
24323750000 -20.587626 -13.768423 -53.23151 59.798141 -52.725872 62.54797 -20.901697 133.02126
24337500000 -28.664385 -107.60623 -55.122719 -32.69175 -55.007832 -31.465593 -19.366232 77.624962
24351250000 -24.649036 58.504471 -53.757286 -149.78238 -52.913715 -143.62302 -23.480858 34.616596
24365000000 -18.292225 34.718945 -54.448315 112.09064 -54.469517 114.61266 -34.732735 108.92083
24378750000 -24.520737 -60.117741 -53.15239 10.706073 -53.475002 7.3417029 -26.373013 128.12308
24392500000 -22.740726 143.40234 -54.146984 -109.74495 -53.203106 -111.55627 -24.276596 111.4725
24406250000 -17.430822 57.093693 -57.385719 140.9478 -57.373173 148.90152 -22.53417 85.682678
24420000000 -19.080879 8.249074 -54.172146 55.897251 -54.485931 66.946945 -25.018328 58.99612
24433750000 -26.456984 -112.02685 -57.132492 -30.663237 -57.157166 -36.25618 -33.551338 -15.848143
24447500000 -20.379229 112.19122 -58.806698 -138.79285 -58.590782 -139.55388 -27.781748 160.75009
24461250000 -16.163437 32.367027 -53.27309 123.59731 -53.707287 120.33769 -22.342869 86.93309
24475000000 -21.67918 -16.342274 -54.545502 -6.8226628 -55.494907 -9.6669302 -22.409288 27.979887
24488750000 -26.302063 -161.16319 -54.822102 -67.862457 -54.033825 -68.343834 -29.051626 -60.431976
24502500000 -19.589336 87.023994 -55.098061 170.25583 -53.989422 167.15105 -30.811514 101.05807
24516250000 -16.632027 8.2974987 -56.468369 59.047462 -57.572048 60.259254 -21.060976 4.6401472
24530000000 -26.624298 -43.509216 -52.297306 -25.552015 -52.28849 -24.495483 -22.049347 -7.535203
24543750000 -21.953407 156.04053 -53.258972 -152.25281 -52.593788 -152.84235 -24.94537 -148.3477
24557500000 -18.384665 85.699532 -53.416512 111.77735 -53.873821 116.09081 -18.448147 96.801048
24571250000 -21.191698 23.86694 -52.056316 1.9372993 -53.682335 -2.2892823 -15.10569 17.769911
24585000000 -41.657398 -128.05151 -55.341217 -116.14828 -55.847218 -112.47176 -21.655258 -31.927662
24598750000 -23.380224 102.89703 -57.531273 171.70689 -56.823051 166.73367 -20.332764 -154.08551
24612500000 -18.752605 36.476997 -52.663933 47.746529 -53.414558 49.004646 -17.825129 117.11715
24626250000 -18.191216 -24.549652 -53.593422 -58.461624 -54.24387 -57.084583 -18.664793 34.15007
24640000000 -28.93577 105.96007 -54.768082 -154.99036 -55.287903 -160.91827 -23.244404 -60.893898
24653750000 -23.689449 77.602722 -57.466663 92.834908 -56.32296 98.647049 -19.687559 170.46178
24667500000 -22.611256 35.85704 -55.794456 -1.6087182 -54.881062 4.2047267 -17.30081 86.997292
24681250000 -22.828878 1.0671227 -55.512218 -97.063171 -54.64069 -103.62375 -18.805365 13.716022
24695000000 -23.333979 73.931252 -57.160103 145.46475 -56.556698 149.74364 -25.282413 -95.685516
24708750000 -27.234894 31.944132 -57.835094 52.724323 -55.750893 49.501991 -19.785439 158.09866
24722500000 -30.886553 50.021347 -55.234341 -40.740414 -55.765518 -38.228329 -18.647625 84.17688
24736250000 -22.367273 38.214977 -55.722145 -162.77806 -56.08284 -166.87421 -22.798357 12.314572
24750000000 -21.210947 44.684135 -56.136303 114.55956 -56.610706 115.36111 -31.765211 -123.34804
