!Keysight Technologies,N5224B,MY57181201,A.12.70.07
!Date: Friday, July 15, 2022 16:15:02
!Correction: S11(Full 2 Port(1,2)) 
!S21(Full 2 Port(1,2)) 
!S12(Full 2 Port(1,2)) 
!S22(Full 2 Port(1,2)) 
!S2P File: Measurements: S11, S21, S12, S22:
# Hz S  dB   R 50
22000000000 -21.335773 132.81485 -24.587627 115.24196 -24.610325 115.03419 -23.716024 126.14148
22013750000 -17.968487 62.372257 -24.676996 12.905807 -24.67351 13.376421 -20.944622 71.694855
22027500000 -18.532082 -6.6808939 -24.672407 -89.239281 -24.620966 -88.65699 -22.994015 4.1400008
22041250000 -22.935007 -96.764175 -24.562323 168.14908 -24.48374 168.53798 -29.205431 -104.50416
22055000000 -20.997721 135.47632 -24.591101 65.930122 -24.632715 65.682732 -23.018154 129.29324
22068750000 -17.179321 51.095436 -24.548132 -35.778706 -24.660046 -36.246559 -20.165812 52.42318
22082500000 -16.103476 -20.596073 -24.41581 -138.14391 -24.629879 -139.01764 -20.274279 -17.97752
22096250000 -16.802036 -91.952362 -24.339994 119.54408 -24.737253 119.15323 -22.557604 -108.22105
22110000000 -20.015507 127.95823 -24.648733 16.28211 -24.662121 16.306963 -21.99441 128.77623
22123750000 -17.163481 56.458099 -24.696239 -85.543037 -24.678438 -85.074013 -18.31465 42.869858
22137500000 -18.088221 -16.757383 -24.439142 173.11598 -24.366537 173.46696 -16.449413 -31.953032
22151250000 -22.309471 -108.28788 -24.375143 69.218254 -24.268677 69.724594 -15.326548 -107.9399
22165000000 -19.6441 127.44672 -24.546692 -33.785786 -24.589134 -33.728569 -21.704426 127.04208
22178750000 -16.646204 48.951839 -24.58935 -134.5524 -24.504913 -135.06601 -17.993631 48.388866
22192500000 -15.81623 -18.013899 -24.388149 124.10332 -24.304636 123.23992 -17.178642 -22.047558
22206250000 -17.55061 -91.666115 -24.319027 20.878523 -24.253378 20.387495 -17.627754 -92.754135
22220000000 -19.234186 127.34148 -24.522654 -82.926346 -24.529839 -83.129082 -21.10129 119.60123
22233750000 -16.67989 45.409039 -24.746387 176.2397 -24.604109 176.51567 -19.360104 51.343334
22247500000 -15.809974 -33.685177 -24.512033 73.738663 -24.44882 74.247894 -21.660839 -28.785635
22261250000 -16.096285 -109.98916 -24.528316 -29.466284 -24.484091 -29.339508 -23.92734 -130.99399
22275000000 -18.17074 120.36075 -24.471447 -131.55139 -24.454418 -131.70161 -20.323154 118.76457
22288750000 -16.44215 46.349174 -24.463972 126.77476 -24.589594 125.70201 -18.054031 48.624088
22302500000 -17.263807 -26.565828 -24.367336 25.500902 -24.646164 24.262566 -19.319397 -26.522854
22316250000 -21.25495 -123.26626 -24.115837 -77.441734 -24.490808 -78.715363 -22.922659 -121.61526
22330000000 -18.171051 116.90519 -24.45079 179.11272 -24.437439 178.85007 -20.012659 116.8699
22343750000 -15.788831 38.441299 -24.438526 77.567383 -24.427532 77.786919 -18.572876 51.412212
22357500000 -15.81042 -32.027199 -24.352343 -25.266386 -24.196117 -24.66213 -20.930496 -29.263346
22371250000 -17.903572 -109.74978 -24.305698 -128.34969 -24.01399 -127.9291 -24.45277 -143.85939
22385000000 -17.769623 111.87655 -24.439693 129.76784 -24.407854 129.53436 -19.262482 107.2431
22398750000 -15.807908 36.492558 -24.442924 28.123421 -24.359488 27.384853 -18.995033 39.632408
22412500000 -15.770261 -39.339779 -24.104343 -72.99218 -24.139475 -74.334641 -21.668131 -43.226395
22426250000 -18.356722 -122.76926 -24.053276 -177.37042 -24.256788 -178.76666 -22.704981 -164.47444
22440000000 -17.389776 108.48885 -24.471098 79.977898 -24.451202 79.562782 -18.704828 103.43031
22453750000 -15.611308 35.31987 -24.424181 -22.248291 -24.522057 -21.472706 -17.540483 33.666702
22467500000 -17.021034 -36.024345 -24.557783 -124.57343 -24.525467 -123.43887 -19.716055 -40.167946
22481250000 -21.166462 -132.99611 -24.523918 132.97894 -24.432119 133.64055 -23.381088 -148.54095
22495000000 -17.292553 103.45103 -24.376268 30.257605 -24.422478 30.246284 -19.021967 101.41267
22508750000 -15.691758 24.797489 -24.554674 -68.796265 -24.487423 -69.545753 -18.044899 39.422215
22522500000 -15.444626 -54.568962 -24.241991 -170.98056 -24.196775 -171.87398 -22.023073 -32.034729
22536250000 -16.368349 -134.55214 -24.002966 84.792976 -24.045353 83.981613 -26.092495 -165.09029
22550000000 -16.777122 99.496956 -24.378609 -18.30648 -24.360779 -18.302441 -19.005672 93.43911
22563750000 -16.054667 28.910343 -24.50305 -120.31556 -24.523539 -120.04917 -19.422882 30.605453
22577500000 -18.824833 -49.935013 -24.340469 137.86809 -24.271841 138.14037 -24.165995 -65.633537
22591250000 -21.463694 -167.40454 -24.456335 34.483383 -24.251259 34.287323 -22.283314 165.03307
22605000000 -16.802694 92.132843 -24.399862 -67.742279 -24.408884 -67.808342 -17.816053 86.823074
22618750000 -15.432397 19.716936 -24.411463 -168.4039 -24.353045 -168.74257 -17.343054 18.981182
22632500000 -16.636703 -52.253918 -24.045401 88.865074 -24.141275 88.607857 -20.200752 -64.902046
22646250000 -20.805666 -129.77971 -24.167313 -13.465574 -24.295237 -13.324409 -22.599392 175.01387
22660000000 -16.703291 88.710419 -24.375641 -116.84049 -24.39435 -116.76416 -18.034487 83.847099
22673750000 -15.827829 12.688326 -24.304707 142.04243 -24.525394 142.50945 -18.349602 24.058064
22687500000 -16.351761 -65.424599 -23.979942 40.475044 -24.207153 40.329849 -24.436422 -55.010429
22701250000 -18.081871 -148.11345 -23.913885 -63.881927 -24.265982 -63.650616 -24.834282 148.4427
22715000000 -16.376633 83.669022 -24.335781 -164.38998 -24.352434 -164.79781 -18.526173 75.377266
22728750000 -16.46773 13.690775 -24.188118 93.937782 -24.076761 93.609741 -19.349779 15.946101
22742500000 -20.256229 -68.699104 -24.048874 -8.9052954 -24.002039 -9.5682573 -26.450367 -49.94389
22756250000 -22.886309 168.32701 -23.971373 -111.56572 -24.044821 -111.47321 -29.490746 97.431297
22770000000 -16.437611 75.429871 -24.201571 145.57129 -24.259642 145.48491 -17.896767 68.154793
22783750000 -16.267954 2.5370889 -24.238094 43.75996 -24.293686 43.894382 -19.380442 -3.4280891
22797500000 -17.775845 -69.985954 -24.196419 -59.904728 -24.188507 -59.397537 -22.743559 -99.485558
22811250000 -22.442228 -152.75893 -24.359343 -162.6275 -24.243635 -161.94823 -21.316229 146.23083
22825000000 -16.744822 71.997437 -24.279198 96.388779 -24.294336 96.250313 -17.582033 65.462158
22838750000 -17.037237 3.6028988 -24.317327 -5.0510492 -24.240782 -5.6716638 -19.896152 -0.66632706
22852500000 -20.383232 -72.53257 -24.136007 -106.70496 -24.10161 -107.70236 -25.388573 -98.303154
22866250000 -24.968428 171.68407 -23.892664 150.28407 -24.089031 149.60168 -22.073509 129.12114
22880000000 -16.470776 66.557411 -24.269733 47.161274 -24.319407 46.803638 -18.08276 57.596889
22893750000 -17.338797 -1.651366 -24.026171 -54.583298 -24.09688 -54.119396 -20.106405 -24.90358
22907500000 -21.451391 -78.286774 -23.953955 -157.99782 -23.969431 -157.66254 -21.977583 -125.14182
22921250000 -28.093349 145.94975 -24.397497 99.515602 -24.223505 99.421196 -20.68149 131.85799
22935000000 -16.860405 60.015697 -24.103275 -1.5303575 -24.155474 -1.457623 -18.428007 46.804543
22948750000 -17.618147 -11.307035 -24.250343 -103.65432 -23.981859 -103.28678 -21.761192 -32.762989
22962500000 -20.799589 -84.776688 -24.20488 153.33769 -23.784113 153.78534 -22.625687 -149.26625
22976250000 -27.949457 170.19641 -24.297962 50.267082 -23.782883 50.470276 -19.39064 114.60442
22990000000 -17.177469 54.243961 -24.187565 -51.025826 -24.171354 -51.101044 -18.383236 44.269382
23003750000 -19.256905 -9.1474953 -23.999264 -152.56474 -24.15205 -153.05598 -21.68401 -24.640064
23017500000 -26.094097 -100.92554 -23.886185 104.39792 -24.121815 104.11341 -26.397329 -145.92365
23031250000 -23.52079 105.05078 -23.928595 2.4817917 -24.204346 1.8147811 -21.270699 105.43359
23045000000 -17.337044 49.774979 -24.168699 -99.260361 -24.178009 -99.435875 -18.680651 39.379993
23058750000 -19.027901 -17.528086 -24.048555 158.51964 -24.033302 158.22316 -25.167223 -39.249981
23072500000 -24.920856 -88.897697 -23.913897 55.389725 -23.856564 54.999062 -24.157024 172.13199
23086250000 -33.078331 70.943108 -23.983496 -46.904896 -24.130713 -47.526352 -19.106398 89.000534
23100000000 -18.012007 43.778622 -24.096743 -148.12967 -24.091471 -148.46317 -18.824421 30.606747
23113750000 -20.961842 -24.279234 -23.950457 108.7031 -24.026243 108.26868 -24.243694 -74.242027
23127500000 -29.394859 -127.10846 -24.018736 5.7838883 -24.133175 5.3254824 -20.721474 164.72968
23141250000 -25.048378 76.888626 -24.184437 -96.057823 -24.257214 -96.720024 -17.971136 91.116989
23155000000 -18.289835 38.541645 -24.069326 162.09288 -24.044739 162.05952 -18.798119 23.948694
23168750000 -22.41563 -26.673128 -24.080074 59.844658 -23.933622 59.945942 -24.592167 -65.008133
23182500000 -34.663147 -169.4295 -24.264189 -43.171185 -23.963537 -42.827667 -24.706257 162.58063
23196250000 -22.026068 59.144897 -24.323463 -144.73445 -23.973499 -144.92496 -20.104637 78.604057
23210000000 -18.776884 32.075539 -24.045004 113.37781 -24.061823 113.05379 -19.962017 17.211103
23223750000 -21.635885 -46.831383 -23.829342 10.868759 -24.007521 10.09907 -29.610817 -49.183655
23237500000 -26.75325 -141.63921 -23.928965 -92.092133 -24.169327 -93.282425 -25.69664 96.175316
23251250000 -30.207926 82.682297 -24.051685 166.15228 -24.401606 165.26088 -18.93066 32.858963
23265000000 -19.897194 27.452435 -24.095224 64.394623 -24.05797 64.242569 -20.307093 9.7655039
23278750000 -27.111343 -55.074211 -24.061935 -38.630531 -23.962774 -38.819469 -25.285664 -125.96041
23292500000 -25.699816 142.02884 -24.096703 -140.71172 -23.956402 -140.44472 -18.607925 140.72528
23306250000 -20.394146 67.128242 -24.105938 117.68775 -23.963062 118.26989 -16.963516 74.838776
23320000000 -20.293413 22.987503 -24.068472 15.619247 -24.094383 15.433224 -20.579317 4.9398003
23333750000 -25.937731 -44.260143 -23.893694 -87.193947 -23.981966 -87.370155 -24.549421 -97.40358
23347500000 -34.08604 117.79446 -23.937527 170.29906 -24.126417 170.17317 -22.762356 147.40013
23361250000 -21.978756 29.246365 -23.92149 68.296661 -24.077261 68.319481 -20.844629 65.165817
23375000000 -20.928885 19.779554 -24.066381 -33.343727 -24.032761 -33.389442 -21.345629 -1.9149888
23388750000 -28.145996 -55.441921 -24.063503 -135.94266 -23.912817 -135.66449 -25.982319 -112.09811
23402500000 -31.461685 96.227715 -24.133209 120.87259 -24.026804 121.65154 -25.244946 139.16414
23416250000 -22.739098 24.507227 -24.142553 18.752289 -24.056095 19.625134 -23.725765 48.814816
23430000000 -22.290058 13.18652 -23.979052 -82.093864 -23.998993 -82.144188 -22.532892 -9.5879793
23443750000 -37.114326 -62.390896 -23.905582 174.52884 -24.053902 174.22462 -24.140043 -136.18648
23457500000 -25.146593 94.363556 -23.932602 72.259911 -24.201784 72.152199 -21.610147 127.0632
23471250000 -20.631918 31.318029 -23.980734 -28.783213 -24.283714 -29.164225 -20.577917 55.235004
23485000000 -23.459597 9.9114723 -23.985872 -131.35081 -23.974039 -131.71931 -23.484728 -12.86608
23498750000 -38.245762 -37.54105 -24.008461 125.62756 -23.895464 125.99997 -24.701612 -143.40952
23512500000 -27.136171 47.447758 -24.227674 22.870987 -23.995331 23.936077 -21.866501 122.81976
23526250000 -20.649187 -6.7442989 -24.326384 -78.277412 -23.894897 -77.507225 -20.998259 52.979916
23540000000 -25.554991 8.2891121 -23.936224 179.68323 -23.954891 179.66277 -25.085489 -18.644415
23553750000 -38.090782 112.13917 -24.03088 77.369064 -23.962357 76.521957 -28.686697 -166.33969
23567500000 -22.805223 71.351578 -24.05624 -24.591059 -23.969934 -25.366434 -21.954338 95.654213
23581250000 -20.640114 19.880573 -24.062666 -126.85065 -24.025316 -127.17638 -21.290394 30.825798
23595000000 -26.470057 10.612622 -23.954659 131.40594 -23.994659 131.1071 -25.722349 -32.811874
23608750000 -33.070644 89.87986 -23.982515 27.601694 -23.889896 27.662411 -21.966927 155.81104
23622500000 -22.850149 59.314148 -24.266289 -73.90477 -24.256304 -74.67617 -17.21685 92.116302
23636250000 -18.744379 4.7953835 -24.024643 -174.70459 -24.227411 -175.72314 -18.131441 35.808506
23650000000 -27.860077 10.505904 -23.948238 82.232353 -23.970819 82.131813 -26.917557 -36.369431
23663750000 -40.455856 107.35097 -23.875086 -20.77388 -24.032309 -21.164879 -23.016338 179.92239
23677500000 -25.120989 45.431534 -23.920341 -122.5925 -24.165241 -123.30228 -19.627033 111.85315
23691250000 -21.021467 -18.025499 -23.883251 136.4308 -24.181362 135.35089 -21.641785 49.638176
23705000000 -32.53302 13.076166 -23.968531 33.531685 -24.036413 33.46616 -30.12697 -34.134029
23718750000 -28.474062 104.38341 -24.066668 -69.73642 -23.98538 -69.498726 -27.992887 148.03314
23732500000 -22.383091 64.466026 -24.223768 -171.39249 -24.021793 -170.90695 -23.022764 82.028931
23746250000 -21.88516 16.680092 -24.250866 86.855324 -23.953676 87.156441 -23.287674 17.818966
23760000000 -30.362963 44.63382 -24.04413 -15.154511 -24.089928 -15.328704 -32.700214 -39.448036
23773750000 -29.101406 64.253479 -24.006367 -116.94706 -24.030331 -117.66515 -23.589912 125.07055
23787500000 -23.814655 33.486477 -24.067709 141.43866 -24.114447 140.14919 -18.558662 65.050293
23801250000 -21.131662 -15.846911 -23.960529 39.486973 -24.147516 38.01482 -18.317621 8.5073862
23815000000 -30.796 50.216766 -24.012234 -63.53022 -24.035042 -63.966442 -32.684109 -30.162451
23828750000 -29.690365 103.19082 -24.144123 -166.16248 -24.167086 -165.96275 -23.54208 143.51465
23842500000 -25.238508 74.853539 -24.120932 91.966248 -24.188065 92.527992 -18.985632 80.671707
23856250000 -26.854059 39.273159 -24.07336 -9.8017874 -24.009279 -9.1502647 -18.305798 27.158543
23870000000 -30.408451 61.819935 -23.840681 -112.28663 -23.852757 -112.46909 -37.40974 5.5591183
23883750000 -25.800388 67.56295 -23.851654 144.59749 -23.915133 144.45439 -28.424046 131.43138
23897500000 -21.688345 29.554865 -23.958796 42.603947 -23.960157 42.451103 -23.51989 71.324928
23911250000 -20.42481 -15.342468 -23.962097 -59.48452 -23.919806 -59.538704 -26.127617 22.045849
23925000000 -28.621752 69.544373 -23.918076 -162.12479 -23.929033 -162.2515 -46.661888 36.554295
23938750000 -27.860977 45.617966 -23.966179 95.373405 -24.023798 95.53125 -27.449621 129.32806
23952500000 -25.815111 9.5797958 -24.018864 -6.6199112 -24.038488 -5.9093566 -23.682884 75.248528
23966250000 -23.990168 -44.525837 -24.062943 -107.92013 -24.150703 -107.10654 -26.27346 22.767181
23980000000 -27.061768 67.749947 -23.948425 150.11287 -23.950821 150.00423 -38.683208 4.8452859
23993750000 -27.80772 80.604858 -23.920528 48.171276 -24.134531 47.554852 -26.686192 98.000862
24007500000 -25.93272 61.517342 -23.739468 -53.959023 -24.193058 -54.350136 -20.563028 44.757259
24021250000 -25.7673 42.203236 -23.598217 -156.15936 -24.166647 -155.76541 -17.900021 -13.391221
24035000000 -26.247087 69.387589 -23.995127 101.41919 -23.997669 101.39751 -32.969315 29.538229
24048750000 -26.268599 25.9956 -23.890289 -0.31143436 -24.045998 -0.47407895 -29.923422 135.94601
24062500000 -26.041466 -10.701614 -23.842911 -102.68476 -24.001972 -102.97192 -25.513674 95.187729
24076250000 -25.820684 -53.23296 -23.801422 155.45268 -24.007111 155.02472 -26.229855 52.560951
24090000000 -24.919689 61.738052 -23.960302 53.066238 -23.954121 52.851593 -32.310482 49.150021
24103750000 -28.674213 54.10984 -23.958141 -49.622231 -23.868448 -49.39064 -26.669342 110.92213
24117500000 -28.285263 62.594517 -23.93495 -151.47083 -23.734655 -151.3019 -23.155378 77.058647
24131250000 -24.939188 39.537422 -24.083996 106.16034 -23.763323 106.45962 -23.993298 36.993744
24145000000 -25.003325 59.658478 -24.007441 3.9512286 -24.046589 3.6786494 -33.145344 40.701237
24158750000 -30.498428 64.050369 -23.98834 -98.239899 -23.940662 -98.219093 -29.478136 151.40292
24172500000 -27.560471 78.214348 -24.127489 159.5365 -23.938292 159.38075 -24.68889 103.23641
24186250000 -25.394758 72.020821 -24.267271 57.550533 -24.060595 57.457825 -24.279991 55.5271
24200000000 -24.783085 56.962151 -23.954067 -43.702541 -23.962408 -44.19767 -30.087706 28.87608
24213750000 -31.981375 -10.084115 -23.900517 -146.33029 -24.014811 -146.57048 -29.454327 169.98077
24227500000 -32.938217 179.60841 -23.891891 111.51498 -24.000004 111.18118 -22.983547 118.8592
24241250000 -26.961115 104.20866 -23.902845 9.3784475 -24.063671 9.268713 -22.533228 70.011436
24255000000 -23.730211 52.985321 -23.928835 -92.153183 -23.961262 -92.209854 -28.851793 28.936424
24268750000 -38.24371 73.878273 -23.878742 165.63718 -23.905691 165.06395 -32.332855 141.27075
24282500000 -25.83271 118.16193 -23.794937 62.645157 -23.88641 61.950344 -23.637238 95.699883
24296250000 -21.403721 76.968422 -23.775551 -39.424107 -23.934656 -39.874825 -22.902468 52.25806
24310000000 -24.195305 45.875778 -23.845074 -140.58824 -23.899803 -140.97786 -29.714621 21.686291
24323750000 -28.798222 2.6317236 -23.750568 116.09882 -23.75906 116.02583 -26.059437 151.69687
24337500000 -30.076279 41.56002 -23.81348 13.96354 -23.834408 13.856462 -19.507767 102.53887
24351250000 -22.914694 -2.7179885 -23.776611 -87.852676 -23.712801 -88.202942 -20.143885 54.10796
24365000000 -24.302401 38.061192 -23.886292 170.12677 -23.926085 169.7366 -27.955492 7.470253
24378750000 -37.48312 43.776691 -23.938702 66.984398 -23.873344 66.796829 -24.830744 -175.11525
24392500000 -26.753408 86.776779 -24.161572 -34.613068 -23.97843 -35.097679 -19.426958 120.31011
24406250000 -21.094639 35.488243 -24.169981 -136.2944 -24.001957 -136.79933 -19.478252 65.565857
24420000000 -24.266743 37.656738 -23.988928 121.90237 -24.01058 121.744 -26.869867 2.7644489
24433750000 -36.634762 19.204226 -23.963791 19.743515 -23.976259 19.659428 -30.337955 -166.98589
24447500000 -25.12418 77.149673 -24.086552 -82.440552 -24.085058 -82.8377 -23.728361 114.99532
24461250000 -20.51878 29.722162 -24.034447 175.87743 -24.037945 175.47437 -23.027079 51.76667
24475000000 -24.383108 30.952539 -23.862549 73.47422 -23.895727 73.5075 -27.279348 0.56494373
24488750000 -37.089645 7.2784162 -23.984882 -28.505516 -23.970861 -29.019846 -36.489811 158.21736
24502500000 -26.777494 81.613998 -24.009109 -130.30122 -24.077917 -131.02658 -24.736715 51.656723
24516250000 -21.000124 16.747416 -23.917461 128.0995 -24.030851 127.33576 -19.829351 -19.134159
24530000000 -24.304853 28.239096 -23.932076 24.908585 -23.887001 24.744314 -27.749582 -13.439129
24543750000 -33.023598 -178.74626 -23.839777 -77.783531 -23.885006 -77.834503 -27.316313 164.40878
24557500000 -22.043573 113.74651 -23.96237 -179.38692 -24.00551 179.93489 -19.728355 78.672493
24571250000 -20.396008 63.467896 -23.9809 79.841682 -24.146467 78.650871 -16.564837 8.8173561
24585000000 -25.252096 18.020081 -23.894537 -23.411205 -23.856602 -23.505537 -27.321571 -17.206469
24598750000 -44.823009 73.742249 -23.802162 -125.58034 -23.777626 -125.85416 -24.374561 -157.6153
24612500000 -22.570885 66.408844 -23.747028 132.91556 -23.79427 132.49818 -21.385277 117.66036
24626250000 -18.13707 4.8994913 -23.657696 31.064203 -23.763571 30.674932 -21.678175 49.573097
24640000000 -25.940628 12.881064 -23.788656 -71.565094 -23.772482 -71.607002 -27.754065 -33.82177
24653750000 -31.27339 141.67406 -23.672041 -174.82619 -23.770998 -174.96065 -24.585035 173.463
24667500000 -21.247871 77.865219 -23.926838 83.277008 -23.978373 83.360947 -19.844522 97.742149
24681250000 -17.813944 17.10318 -23.854057 -17.673441 -23.880821 -17.616148 -20.487436 33.156635
24695000000 -27.596291 15.884305 -23.849442 -120.42699 -23.825405 -120.54918 -27.724709 -42.262035
24708750000 -32.40559 150.31813 -23.96994 136.66905 -23.842588 136.7419 -22.149202 179.35146
24722500000 -21.750336 78.734673 -24.150192 34.614899 -23.917925 34.898186 -19.203281 105.61663
24736250000 -18.23082 17.916243 -24.214136 -66.468437 -23.918755 -66.154198 -20.721642 39.440422
24750000000 -27.558168 9.3297234 -23.883276 -168.14349 -23.918459 -168.20949 -28.106951 -47.477684
