!Keysight Technologies,N5224B,MY57181201,A.12.70.07
!Date: Friday, July 15, 2022 16:06:41
!Correction: S11(Full 2 Port(1,2)) 
!S21(Full 2 Port(1,2)) 
!S12(Full 2 Port(1,2)) 
!S22(Full 2 Port(1,2)) 
!S2P File: Measurements: S11, S21, S12, S22:
# Hz S  dB   R 50
22000000000 -21.061317 123.74546 -24.56863 68.781586 -24.655312 68.808273 -26.300354 125.04568
22013750000 -18.148247 55.170376 -24.594746 -34.204479 -24.579042 -33.047089 -21.828682 79.972244
22027500000 -19.507 -11.201106 -24.799023 -136.51904 -24.694489 -135.41524 -23.093182 17.473986
22041250000 -24.848047 -102.04765 -24.789127 121.76086 -24.716211 122.47298 -28.564444 -80.923264
22055000000 -21.765526 124.9153 -24.530209 20.098185 -24.473022 20.458401 -23.988081 138.48985
22068750000 -18.33964 47.335201 -24.632963 -82.907104 -24.746925 -82.785378 -20.386398 63.771358
22082500000 -17.119921 -19.622248 -24.554037 176.29623 -24.705145 175.89684 -19.335222 -11.119725
22096250000 -17.854101 -88.286049 -24.329571 72.746063 -24.637373 72.107178 -21.538261 -101.89673
22110000000 -21.831406 130.024 -24.805292 -29.089226 -24.759451 -29.184793 -21.525854 137.28169
22123750000 -18.237326 60.295109 -24.569475 -131.17361 -24.492699 -131.36882 -17.907951 49.297951
22137500000 -18.603788 -7.2998347 -24.558428 126.19433 -24.47965 126.69664 -15.58907 -28.783665
22151250000 -21.930773 -96.548508 -24.413248 24.024891 -24.292513 24.032572 -14.611399 -107.58736
22165000000 -20.66206 134.31097 -24.461926 -79.295258 -24.498568 -80.039291 -20.186478 130.37984
22178750000 -16.728342 56.059872 -24.615862 179.01146 -24.57345 178.0737 -17.31127 49.057182
22192500000 -15.278678 -13.810078 -24.267292 77.638481 -24.284437 76.896797 -16.221748 -22.71163
22206250000 -16.772915 -87.815399 -24.208214 -26.555813 -24.16398 -27.27379 -16.928593 -97.839645
22220000000 -18.743166 133.1671 -24.485359 -129.78496 -24.505331 -130.06723 -19.480675 119.75335
22233750000 -16.319921 49.073662 -24.554277 128.2421 -24.606485 128.59019 -18.518028 45.487316
22247500000 -15.259991 -29.354595 -24.588469 25.426291 -24.574965 25.962866 -20.777105 -33.238441
22261250000 -15.300717 -110.79921 -24.615982 -77.118187 -24.629902 -76.568939 -22.237339 -140.95309
22275000000 -17.679869 123.87646 -24.465389 -179.85147 -24.440973 -179.63718 -19.206659 112.51197
22288750000 -15.591659 48.305321 -24.656675 78.114182 -24.800354 77.965881 -17.648994 40.414978
22302500000 -16.614361 -28.626131 -24.619152 -22.202911 -24.861914 -22.614202 -19.789537 -34.174313
22316250000 -19.794123 -124.48523 -24.213444 -125.45637 -24.491964 -126.39034 -23.104866 -134.24966
22330000000 -17.211838 115.72489 -24.705725 131.53391 -24.615416 131.59975 -19.852978 106.04672
22343750000 -15.244936 37.383057 -24.515274 30.706686 -24.358801 30.783464 -19.357868 42.403343
22357500000 -15.193098 -36.587658 -24.590996 -73.938011 -24.336025 -73.456528 -23.139236 -33.968658
22371250000 -17.85343 -116.03667 -24.640902 -174.89038 -24.26548 -175.20264 -26.281084 -153.95352
22385000000 -17.186106 108.07011 -24.492674 83.04657 -24.445522 82.436897 -20.364008 98.203484
22398750000 -15.402676 31.538912 -24.538263 -19.02877 -24.491945 -20.35853 -20.621668 39.617191
22412500000 -15.928467 -44.531799 -24.137402 -120.83604 -24.20207 -122.37756 -24.067324 -39.154823
22426250000 -18.757126 -128.50443 -24.139851 135.01454 -24.429277 133.4287 -25.611166 -159.92584
22440000000 -17.310652 101.9791 -24.615885 31.724054 -24.67152 31.603613 -20.023214 105.50356
22453750000 -15.866107 31.536713 -24.460318 -70.024094 -24.646828 -69.199875 -18.462044 40.604427
22467500000 -17.780642 -41.005772 -24.630766 -173.24416 -24.691685 -171.91483 -19.840668 -29.232975
22481250000 -22.791105 -138.58478 -24.806595 84.490189 -24.742809 85.008224 -23.449711 -130.40205
22495000000 -17.798737 97.857033 -24.699108 -16.815844 -24.745756 -16.689253 -19.244513 110.67737
22508750000 -16.608547 21.057423 -24.601563 -117.58794 -24.574656 -118.22366 -17.753759 46.819805
22522500000 -16.484747 -54.483646 -24.564726 140.62462 -24.539091 140.21286 -20.260683 -23.262493
22536250000 -17.360987 -131.11951 -24.348289 36.757885 -24.349974 36.524685 -24.145599 -147.89246
22550000000 -17.890739 99.349602 -24.851179 -66.34214 -24.829504 -65.72934 -18.190041 101.21243
22563750000 -17.019569 32.899124 -24.810469 -165.40424 -24.724577 -165.08566 -18.328918 32.926575
22577500000 -19.559515 -40.691193 -24.549383 89.985344 -24.34549 90.389023 -22.433189 -58.549721
22591250000 -22.911873 -155.0874 -24.820738 -12.611804 -24.508324 -12.696012 -21.03178 176.18077
22605000000 -17.323631 98.754837 -24.553059 -113.97788 -24.535465 -114.00935 -16.752981 90.244949
22618750000 -15.606697 25.138672 -24.551033 144.59732 -24.450802 144.24567 -16.326231 17.167913
22632500000 -16.23864 -45.534973 -24.187567 42.250969 -24.179565 41.913799 -19.359016 -67.512215
22646250000 -19.47484 -123.48833 -24.041098 -60.61726 -24.09852 -60.776958 -20.928509 179.4698
22660000000 -16.437223 94.295692 -24.39995 -164.2912 -24.378231 -164.72389 -16.743519 82.979019
22673750000 -15.48279 16.419722 -24.137424 94.038254 -24.299711 93.956886 -17.663294 18.220491
22687500000 -15.703158 -61.605423 -23.985895 -9.0271969 -24.238142 -9.3103523 -23.505693 -66.361832
22701250000 -17.229862 -145.56525 -23.974199 -112.5006 -24.32918 -112.70815 -22.792662 147.11438
22715000000 -15.863436 87.39959 -24.236662 145.40637 -24.289204 145.34267 -17.402954 70.819977
22728750000 -15.81218 15.611113 -24.244263 43.460205 -24.181845 43.143959 -19.160748 6.8413849
22742500000 -18.905884 -65.901794 -24.21801 -59.609268 -24.218477 -60.353527 -27.283924 -68.028099
22756250000 -21.070276 172.30492 -24.375437 -161.8625 -24.431622 -161.86867 -25.827339 96.731186
22770000000 -15.635835 77.032738 -24.519337 95.530663 -24.567421 95.809601 -17.597834 60.601955
22783750000 -15.269028 2.4629908 -24.547388 -6.3796091 -24.57509 -5.3887806 -19.851982 -13.369654
22797500000 -16.772163 -75.350861 -24.495632 -109.9771 -24.498249 -109.08713 -23.625029 -113.31631
22811250000 -21.338734 -165.32913 -24.873877 147.47452 -24.676857 148.64458 -21.682369 134.13573
22825000000 -15.793675 68.264313 -24.691593 48.169853 -24.631775 48.18964 -18.507746 58.453396
22838750000 -16.54529 -3.6930966 -24.517284 -54.409786 -24.44895 -54.944626 -21.546801 -2.7462604
22852500000 -20.221853 -84.087059 -24.470436 -156.41154 -24.435486 -157.116 -29.733171 -106.5303
22866250000 -24.037519 149.76924 -24.258516 101.12138 -24.387922 100.03133 -24.514158 117.90516
22880000000 -16.484158 58.84639 -24.615314 -2.0530479 -24.590256 -2.2774699 -19.658964 58.483086
22893750000 -17.787483 -8.0728664 -24.415028 -103.8819 -24.457233 -103.2091 -22.030762 -18.604288
22907500000 -23.112198 -85.836708 -24.378563 152.73375 -24.326412 153.08661 -24.204807 -116.34437
22921250000 -28.394592 122.09861 -24.73325 50.905067 -24.573795 50.685642 -23.337807 139.31755
22935000000 -17.419287 53.661346 -24.453857 -50.662041 -24.438219 -51.199486 -19.426561 59.135941
22948750000 -18.765667 -14.341142 -24.572819 -152.67264 -24.390583 -152.59329 -21.914135 -17.854841
22962500000 -22.513531 -85.078468 -24.548323 104.32719 -24.125177 104.52637 -23.901127 -134.4101
22976250000 -33.732872 164.71841 -24.633257 0.8753159 -24.191414 1.0762763 -20.363256 127.54553
22990000000 -18.579451 52.861469 -24.658188 -100.83138 -24.71841 -100.81444 -17.801409 56.47411
23003750000 -20.601873 -5.705184 -24.483992 157.5072 -24.670277 157.55286 -19.959446 -16.879404
23017500000 -29.553268 -82.466171 -24.420034 55.590919 -24.680817 55.589279 -24.504684 -125.7233
23031250000 -26.752428 100.85435 -24.483685 -46.814754 -24.689085 -46.820698 -20.486593 117.42119
23045000000 -18.482098 53.96117 -24.579859 -148.32953 -24.559267 -148.19121 -17.447369 45.888035
23058750000 -19.376678 -7.8024387 -24.566313 108.73978 -24.527834 109.14009 -22.09551 -37.11768
23072500000 -24.044365 -72.125755 -24.532906 7.1989331 -24.51692 6.7199192 -22.57947 -177.66196
23086250000 -50.860641 25.83423 -24.367214 -94.86451 -24.523661 -95.071548 -18.18922 95.795509
23100000000 -18.03421 52.740982 -24.584408 162.87952 -24.533688 163.07056 -17.447657 31.337185
23113750000 -20.162304 -15.153829 -24.367636 60.831947 -24.379816 60.506283 -21.922388 -73.546959
23127500000 -27.392548 -103.27682 -24.451889 -42.87759 -24.394485 -43.415356 -19.386435 168.95691
23141250000 -25.964357 94.547882 -24.585512 -143.38927 -24.56781 -144.4044 -16.77136 91.063934
23155000000 -17.727867 44.771725 -24.252993 113.87728 -24.245575 113.42612 -17.936888 18.620483
23168750000 -20.767611 -21.508678 -24.316538 10.659462 -24.084084 10.506634 -22.931843 -73.063675
23182500000 -30.737125 -140.40981 -24.426342 -92.480888 -24.158941 -92.399467 -22.241768 157.8636
23196250000 -22.468323 70.730827 -24.54339 165.02165 -24.249348 164.76529 -19.131229 72.523842
23210000000 -17.615227 35.982754 -24.303396 63.093231 -24.340431 62.663147 -19.618412 9.4213057
23223750000 -19.979864 -46.14241 -24.190351 -39.844742 -24.365202 -40.805031 -29.614792 -79.875862
23237500000 -23.791433 -140.56888 -24.329647 -143.03769 -24.654919 -143.77367 -23.25279 97.233383
23251250000 -26.390066 94.716469 -24.438341 115.49242 -24.89999 114.69067 -17.866135 27.325108
23265000000 -18.27685 25.962566 -24.542828 13.505894 -24.628525 13.774854 -21.244873 0.85700285
23278750000 -24.053595 -66.657173 -24.574741 -88.888382 -24.495789 -88.516975 -24.592192 -141.04469
23292500000 -22.918236 147.7339 -24.712376 168.48839 -24.571312 169.4984 -18.387018 130.77603
23306250000 -18.676535 68.101944 -24.611891 67.518593 -24.420399 68.289581 -17.828234 67.284691
23320000000 -19.181417 12.134398 -24.63447 -34.464649 -24.632994 -34.548088 -22.706289 1.8670681
23333750000 -25.738533 -71.723831 -24.389853 -136.72104 -24.42787 -136.78275 -27.736551 -107.28178
23347500000 -27.617935 114.75955 -24.458101 119.83704 -24.556803 119.4538 -25.389101 134.59485
23361250000 -20.07613 25.274454 -24.554659 18.587721 -24.630878 18.817053 -23.210108 64.281265
23375000000 -21.511377 4.5919189 -24.479307 -84.161133 -24.427134 -84.324112 -24.17111 6.7050109
23388750000 -32.059097 -87.478737 -24.737936 173.3089 -24.573809 173.3242 -30.711199 -84.519737
23402500000 -27.236944 79.196762 -24.735649 71.558441 -24.594536 72.265778 -28.769632 151.1463
23416250000 -21.388653 11.560782 -24.779016 -31.115015 -24.609198 -30.554234 -27.524239 63.902534
23430000000 -24.707972 4.9768491 -24.498472 -133.0632 -24.546329 -133.43079 -22.675049 10.206515
23443750000 -43.021332 106.41084 -24.544237 123.67018 -24.740864 123.36281 -26.353266 -112.25713
23457500000 -24.130457 73.426216 -24.743446 22.310623 -25.038891 21.646433 -22.604721 145.12334
23471250000 -21.596964 20.285044 -24.676317 -78.45208 -25.037964 -78.671982 -20.445606 69.053505
23485000000 -26.30398 19.809679 -24.644796 179.17467 -24.667046 178.6973 -21.669186 1.3337544
23498750000 -32.274998 28.86466 -24.543951 75.180977 -24.534454 75.623039 -24.139275 -122.85686
23512500000 -26.440935 24.393366 -25.052118 -27.50062 -24.825476 -26.272333 -20.787413 139.30618
23526250000 -22.000702 -17.445995 -24.983675 -127.1194 -24.499264 -126.13065 -19.628288 59.638802
23540000000 -25.863485 29.681107 -24.617949 129.76776 -24.664923 129.72316 -22.210581 -12.145209
23553750000 -33.634521 50.314106 -24.758512 28.185499 -24.692547 28.214365 -25.501329 -147.30754
23567500000 -25.825783 64.978271 -24.630514 -74.878548 -24.602201 -75.37352 -20.985214 105.73231
23581250000 -21.736584 26.379137 -24.892874 -175.65465 -24.798738 -175.65717 -19.354023 34.489555
23595000000 -24.935068 25.721729 -24.544592 83.038605 -24.525789 82.92614 -23.411127 -37.285065
23608750000 -33.968143 32.863979 -24.64377 -22.352222 -24.522219 -22.483658 -20.704725 166.3788
23622500000 -24.666843 61.717808 -24.833704 -122.8908 -24.73023 -123.73289 -16.112822 93.166519
23636250000 -19.368931 11.849787 -24.650887 135.93771 -24.758921 135.02486 -17.098591 31.195848
23650000000 -25.07658 17.152466 -24.628326 33.150795 -24.563787 32.929874 -25.516203 -52.50285
23663750000 -41.225426 -35.277344 -24.338495 -70.226967 -24.445862 -70.691612 -21.001877 177.23105
23677500000 -27.596199 61.671211 -24.496622 -172.2863 -24.765175 -173.72533 -18.730907 103.35551
23691250000 -21.698824 -5.1360726 -24.451551 86.076973 -24.750259 85.16008 -21.417667 36.690277
23705000000 -27.080103 7.8527045 -24.567102 -16.789515 -24.607552 -17.250072 -31.239609 -75.093697
23718750000 -31.728096 142.9631 -24.721487 -119.76122 -24.675428 -119.46083 -25.569933 137.33168
23732500000 -21.723557 80.018921 -24.874197 137.92023 -24.698835 138.27937 -21.830177 68.27063
23746250000 -19.908756 23.194338 -24.866636 36.986397 -24.644053 37.283016 -24.313093 1.8829895
23760000000 -29.935635 -3.5475595 -24.739771 -66.147919 -24.804077 -66.022972 -38.658798 -97.360268
23773750000 -31.95277 112.57813 -24.849569 -167.00266 -24.866556 -167.40456 -22.112244 109.70623
23787500000 -21.740303 47.705101 -24.65274 90.896202 -24.702925 90.058815 -18.825439 55.326775
23801250000 -18.909147 -16.482002 -24.815929 -10.949314 -25.02527 -12.093033 -19.868853 2.0754094
23815000000 -41.948288 -5.0267057 -24.616476 -112.90221 -24.619078 -112.603 -38.026249 33.510822
23828750000 -25.20188 115.80537 -24.682404 142.29242 -24.663687 142.70099 -25.054554 120.34675
23842500000 -22.520151 61.476082 -25.242437 42.548126 -25.166548 43.120029 -21.029402 79.55201
23856250000 -27.342875 9.2133532 -24.765175 -58.923851 -24.651808 -58.452015 -19.844984 34.50227
23870000000 -31.631126 106.14538 -24.680672 -162.59607 -24.665657 -162.77368 -29.357605 42.205608
23883750000 -22.688179 72.84124 -24.675037 96.381577 -24.616522 96.178017 -34.661888 111.09422
23897500000 -20.071114 20.260002 -24.552332 -7.391748 -24.543781 -7.7174206 -27.207943 87.995728
23911250000 -20.773056 -28.218559 -24.807482 -108.59805 -24.799744 -109.10678 -25.36404 48.226192
23925000000 -26.38802 92.594406 -24.645721 149.69279 -24.644329 149.56042 -30.730387 22.678085
23938750000 -24.230186 44.555386 -24.509439 46.338402 -24.561783 46.270622 -30.999029 163.30742
23952500000 -23.93042 -11.437524 -24.735783 -56.145641 -24.732786 -55.74509 -23.851219 95.368973
23966250000 -25.482224 -65.645454 -24.738941 -157.38632 -24.808008 -156.58554 -23.181606 37.921234
23980000000 -23.935314 74.451164 -24.527575 100.37103 -24.556086 100.23516 -30.287233 -20.392237
23993750000 -26.515787 51.806667 -24.578501 -2.1012278 -24.789238 -2.5489128 -28.752819 130.98749
24007500000 -30.975956 60.450584 -24.398184 -102.97037 -24.811361 -103.45712 -19.772284 56.564529
24021250000 -25.58992 65.870964 -24.193523 153.1772 -24.824797 153.3009 -16.613962 -8.2077265
24035000000 -23.339659 59.826603 -24.983351 51.732273 -25.018585 51.722168 -33.448318 -32.048321
24048750000 -25.440535 4.5822978 -24.388294 -49.529621 -24.531561 -49.364559 -26.427429 149.87422
24062500000 -29.384155 -28.679739 -24.56855 -153.94652 -24.73707 -154.08858 -22.454086 88.501457
24076250000 -29.145321 -34.865021 -24.538305 106.16495 -24.780619 106.00107 -25.288527 29.149868
24090000000 -23.698099 46.203255 -24.573883 1.9078554 -24.594889 2.2001402 -48.982918 113.87334
24103750000 -33.801075 34.633026 -24.910774 -99.232269 -24.83765 -98.471489 -23.600304 113.20786
24117500000 -27.262983 88.894913 -24.664335 158.83595 -24.413322 159.46318 -21.398205 65.410797
24131250000 -22.660101 42.938148 -24.796892 56.447357 -24.407797 56.585751 -25.381603 16.196074
24145000000 -25.319582 39.216705 -24.734102 -44.989624 -24.728348 -44.903496 -35.597477 109.42629
24158750000 -33.632359 96.782234 -24.799118 -149.10083 -24.643974 -149.10274 -27.450722 118.78732
24172500000 -25.146889 89.882904 -25.014278 110.14568 -24.78413 110.17358 -26.337412 85.050163
24186250000 -23.371552 56.73217 -24.923046 9.1261501 -24.666151 8.9731007 -28.923569 57.135471
24200000000 -27.353876 46.0308 -24.68712 -93.8461 -24.695515 -94.324303 -28.281855 68.881683
24213750000 -46.344646 -49.242977 -24.614305 164.14479 -24.712954 163.79153 -34.517822 122.1769
24227500000 -32.182728 124.97765 -24.672611 62.043713 -24.839088 61.251915 -25.965946 127.24419
24241250000 -30.042706 80.950783 -24.666592 -40.010242 -24.885029 -40.315308 -23.458817 88.094536
24255000000 -27.51827 55.576027 -24.608881 -141.09378 -24.645229 -141.03632 -24.871449 50.425121
24268750000 -29.98204 104.26458 -24.475979 116.41018 -24.582041 115.8485 -41.171093 55.584347
24282500000 -25.557928 93.021942 -24.552958 12.407729 -24.695471 11.88192 -26.182697 118.05862
24296250000 -24.390373 66.009415 -24.578098 -88.207962 -24.79952 -88.818832 -22.024 69.963844
24310000000 -25.191109 68.989815 -24.505831 170.17419 -24.590815 170.01462 -24.582172 28.062157
24323750000 -26.026258 30.143408 -24.523676 67.646683 -24.55595 67.566879 -28.670338 -179.09616
24337500000 -25.932833 5.8900914 -24.22328 -34.573711 -24.286814 -34.687775 -19.424023 115.58918
24351250000 -25.618597 -17.825386 -24.327816 -138.72504 -24.266516 -138.17232 -18.20344 61.366901
24365000000 -23.17975 60.242592 -24.677898 120.50865 -24.718246 120.54997 -23.945784 -1.2861347
24378750000 -28.545418 21.315487 -24.545809 17.778408 -24.429029 18.181087 -22.597328 -159.04536
24392500000 -31.490128 88.082199 -24.806982 -84.017799 -24.635456 -84.45739 -17.837877 124.09413
24406250000 -23.138996 48.64571 -24.756844 174.38887 -24.59581 174.42859 -17.588476 60.788574
24420000000 -21.655079 45.182873 -24.455231 71.88903 -24.399118 71.987251 -25.068275 -23.350245
24433750000 -30.312094 -13.066028 -24.603153 -30.290411 -24.525505 -30.53001 -25.913773 -163.87886
24447500000 -29.417034 94.405563 -24.717377 -132.22661 -24.638035 -132.90456 -20.944973 108.03207
24461250000 -20.355419 42.058079 -24.648684 126.32903 -24.582769 125.79132 -21.547991 38.251572
24475000000 -21.554028 30.323353 -24.46979 22.605581 -24.409134 21.874304 -27.998449 -39.533363
24488750000 -29.913994 -53.70443 -24.699741 -78.103958 -24.649866 -79.105522 -28.825022 140.35889
24502500000 -26.052364 104.41427 -24.581795 179.95227 -24.662722 178.46498 -22.219929 49.82991
24516250000 -19.837795 29.933714 -24.590239 77.13163 -24.849791 76.045158 -18.420092 -26.928818
24530000000 -22.014435 11.521506 -24.453238 -25.305197 -24.47518 -25.386597 -32.443527 -44.846958
24543750000 -27.853848 -157.70518 -24.588966 -129.96733 -24.699156 -130.04439 -25.369581 139.13263
24557500000 -19.672514 117.59904 -24.782368 129.15121 -24.90247 128.83308 -19.566618 65.435707
24571250000 -18.735638 55.66452 -24.681013 28.924681 -24.907738 28.24192 -17.337336 0.9975453
24585000000 -25.14987 -5.1745481 -24.764194 -74.669846 -24.902628 -74.444664 -32.51334 -2.8519638
24598750000 -31.449688 164.62119 -24.768421 -176.41141 -24.776859 -176.08922 -28.513269 -177.73273
24612500000 -20.548555 65.679512 -24.758404 82.731613 -24.741823 82.879837 -24.649063 119.70126
24626250000 -17.043356 1.3225021 -24.695612 -18.54718 -24.714252 -18.478445 -24.232388 59.226852
24640000000 -29.405693 -11.405425 -24.7418 -121.32658 -24.696201 -121.29374 -30.210281 10.866497
24653750000 -27.839432 134.08156 -24.717911 136.79062 -24.676836 137.09517 -29.370289 174.12473
24667500000 -20.047215 71.456467 -24.671791 34.452034 -24.600166 34.329731 -22.298326 105.43367
24681250000 -17.626913 9.1656628 -24.708834 -66.297379 -24.639694 -66.284729 -21.250195 49.971741
24695000000 -31.02541 10.144566 -24.553463 -169.18443 -24.48621 -169.35391 -26.174913 -8.7058344
24708750000 -28.099066 128.49324 -24.714643 88.326096 -24.558529 88.061211 -23.701567 -161.57835
24722500000 -21.122524 66.410812 -24.699476 -12.697884 -24.431377 -12.720369 -19.345055 120.08315
24736250000 -18.526539 9.0906696 -24.671995 -116.35692 -24.392353 -116.3939 -19.275562 52.9697
24750000000 -32.568607 40.063354 -24.462351 142.62181 -24.514919 142.2207 -24.229895 -29.469023
