!CSV A.01.01
!Keysight Technologies,N5224B,MY57181201,A.12.70.07
!Date: Friday, July 15, 2022 16:07:04
!Source: Standard

BEGIN CH1_DATA
Freq(Hz),S21(DB),S21(DEG)
22000000000,-24.421436,68.907761
22013750000,-24.593054,-33.187927
22027500000,-24.673651,-136.16455
22041250000,-24.62792,122.10172
22055000000,-24.487511,19.939754
22068750000,-24.57876,-83.284996
22082500000,-24.391071,175.30721
22096250000,-24.383089,71.959511
22110000000,-24.810728,-30.199501
22123750000,-24.612238,-131.63968
22137500000,-24.531681,126.1632
22151250000,-24.495863,23.370279
22165000000,-24.554249,-79.580437
22178750000,-24.611851,178.9776
22192500000,-24.297976,77.756599
22206250000,-24.317972,-25.932934
22220000000,-24.475258,-129.51622
22233750000,-24.664013,128.24042
22247500000,-24.621435,26.527763
22261250000,-24.598055,-76.781555
22275000000,-24.468533,-179.17349
22288750000,-24.580769,79.127144
22302500000,-24.477636,-22.468395
22316250000,-24.152269,-125.71889
22330000000,-24.535122,131.30127
22343750000,-24.565886,29.263788
22357500000,-24.58386,-74.020927
22371250000,-24.656502,-175.76955
22385000000,-24.557001,81.73336
22398750000,-24.646374,-18.43099
22412500000,-24.209019,-120.77082
22426250000,-24.271629,135.07593
22440000000,-24.704309,32.956963
22453750000,-24.590969,-69.245209
22467500000,-24.593414,-171.81413
22481250000,-24.717026,84.695847
22495000000,-24.66329,-16.753181
22508750000,-24.514713,-117.33195
22522500000,-24.412493,140.86285
22536250000,-24.300684,36.666355
22550000000,-24.725695,-66.039276
22563750000,-24.66708,-166.25166
22577500000,-24.481241,89.27951
22591250000,-24.659979,-13.082377
22605000000,-24.557285,-115.19424
22618750000,-24.591681,143.76128
22632500000,-24.270227,42.024506
22646250000,-24.177961,-61.444881
22660000000,-24.490538,-164.06712
22673750000,-24.272924,94.144943
22687500000,-24.121588,-8.526906
22701250000,-23.969313,-111.75904
22715000000,-24.303493,146.1496
22728750000,-24.281921,44.314892
22742500000,-24.138617,-58.565418
22756250000,-24.264671,-161.28105
22770000000,-24.45056,95.892303
22783750000,-24.364351,-6.7479186
22797500000,-24.410212,-110.41638
22811250000,-24.77849,146.97505
22825000000,-24.661842,47.284286
22838750000,-24.652946,-55.173248
22852500000,-24.561834,-157.01753
22866250000,-24.368231,100.67809
22880000000,-24.692472,-2.1799622
22893750000,-24.444124,-103.72463
22907500000,-24.459692,153.2308
22921250000,-24.748426,51.694061
22935000000,-24.405315,-50.639
22948750000,-24.63139,-152.4951
22962500000,-24.489403,104.35216
22976250000,-24.625708,0.81855625
22990000000,-24.611059,-100.25721
23003750000,-24.462904,157.02975
23017500000,-24.336983,55.524448
23031250000,-24.482458,-46.612038
23045000000,-24.638475,-148.0994
23058750000,-24.456179,108.81941
23072500000,-24.609047,7.5834327
23086250000,-24.269827,-94.698204
23100000000,-24.50218,163.10822
23113750000,-24.374556,60.13393
23127500000,-24.44408,-43.345032
23141250000,-24.697594,-143.74464
23155000000,-24.347857,113.75809
23168750000,-24.325413,10.417156
23182500000,-24.547682,-92.213295
23196250000,-24.662251,165.39754
23210000000,-24.321503,63.273392
23223750000,-24.196411,-39.298271
23237500000,-24.308439,-142.94032
23251250000,-24.454798,115.65293
23265000000,-24.582554,14.401814
23278750000,-24.51338,-89.827553
23292500000,-24.664928,168.8275
23306250000,-24.544304,67.101723
23320000000,-24.674007,-34.31797
23333750000,-24.3311,-136.66179
23347500000,-24.435799,119.57554
23361250000,-24.538204,18.87561
23375000000,-24.413822,-83.71283
23388750000,-24.66992,172.87238
23402500000,-24.627935,71.014183
23416250000,-24.754717,-31.981989
23430000000,-24.604294,-133.31436
23443750000,-24.556498,123.31276
23457500000,-24.851164,22.283701
23471250000,-24.740276,-78.714966
23485000000,-24.694519,179.12053
23498750000,-24.530231,75.939819
23512500000,-24.998085,-27.6607
23526250000,-25.027397,-126.9256
23540000000,-24.643171,130.56013
23553750000,-24.666798,28.012657
23567500000,-24.571953,-74.708656
23581250000,-24.810057,-176.13376
23595000000,-24.590002,82.782326
23608750000,-24.615639,-21.934385
23622500000,-24.802395,-123.66082
23636250000,-24.638454,135.54013
23650000000,-24.598856,33.430756
23663750000,-24.368782,-70.563347
23677500000,-24.518015,-172.22635
23691250000,-24.295952,86.142143
23705000000,-24.689754,-17.350773
23718750000,-24.638657,-119.38425
23732500000,-24.85149,137.24062
23746250000,-24.977827,36.625214
23760000000,-24.734669,-66.017654
23773750000,-24.969364,-167.15817
23787500000,-24.671509,91.727997
23801250000,-24.775791,-10.441792
23815000000,-24.695751,-112.3973
23828750000,-24.685474,142.67743
23842500000,-25.123993,42.950504
23856250000,-24.675991,-58.362415
23870000000,-24.579805,-162.34433
23883750000,-24.559052,96.657379
23897500000,-24.561371,-7.798295
23911250000,-24.740068,-108.98235
23925000000,-24.553677,149.07793
23938750000,-24.54854,45.736469
23952500000,-24.663857,-56.402164
23966250000,-24.718468,-158.10892
23980000000,-24.645229,99.736816
23993750000,-24.665022,-2.2459171
24007500000,-24.514614,-103.60438
24021250000,-24.348795,153.37498
24035000000,-24.947767,52.120018
24048750000,-24.574844,-49.445534
24062500000,-24.592672,-152.57545
24076250000,-24.507118,106.93042
24090000000,-24.639753,2.5211649
24103750000,-24.700834,-97.839638
24117500000,-24.573023,159.02773
24131250000,-24.728716,56.697239
24145000000,-24.396929,-45.28241
24158750000,-24.768047,-149.8054
24172500000,-24.886446,109.74908
24186250000,-24.741304,7.2964854
24200000000,-24.891197,-95.410439
24213750000,-24.737793,163.386
24227500000,-24.871565,61.290348
24241250000,-24.950142,-38.947704
24255000000,-24.651915,-140.40657
24268750000,-24.631092,117.13654
24282500000,-24.575417,13.832504
24296250000,-24.461128,-86.921883
24310000000,-24.497721,170.64923
24323750000,-24.396515,68.112343
24337500000,-24.067156,-34.56551
24351250000,-24.227222,-138.58363
24365000000,-24.500771,120.3931
24378750000,-24.404348,16.818085
24392500000,-24.75374,-85.187317
24406250000,-24.672325,173.77383
24420000000,-24.47994,70.612305
24433750000,-24.683338,-31.470848
24447500000,-24.806623,-133.29195
24461250000,-24.861113,125.2197
24475000000,-24.682638,23.07538
24488750000,-24.866714,-78.428627
24502500000,-24.83947,-179.30238
24516250000,-24.689281,78.52729
24530000000,-24.518066,-24.344719
24543750000,-24.626278,-127.93933
24557500000,-24.645514,130.59685
24571250000,-24.500925,29.491945
24585000000,-24.622032,-73.090927
24598750000,-24.390713,-176.80559
24612500000,-24.623268,81.961456
24626250000,-24.419138,-19.010166
24640000000,-24.618759,-123.28111
24653750000,-24.699329,135.82135
24667500000,-24.688623,33.118675
24681250000,-24.922907,-67.538963
24695000000,-24.731308,-168.65781
24708750000,-24.762995,88.007172
24722500000,-24.875908,-12.581047
24736250000,-24.761692,-115.05473
24750000000,-24.481178,143.12067
24763750000,-24.302891,40.068806
24777500000,-24.482813,-61.572491
24791250000,-24.377636,-163.28883
24805000000,-24.331528,92.775543
24818750000,-24.345013,-10.221698
24832500000,-24.671461,-113.47624
24846250000,-24.704889,146.59772
24860000000,-24.388788,43.312851
24873750000,-24.432673,-58.685738
24887500000,-24.486685,-160.63374
24901250000,-24.433516,97.986145
24915000000,-24.398222,-4.4796586
24928750000,-24.575041,-107.59406
24942500000,-24.623941,151.63768
24956250000,-24.326025,50.06599
24970000000,-24.520296,-51.977512
24983750000,-24.441223,-154.80388
24997500000,-24.510139,103.42847
25011250000,-24.410784,2.2038965
25025000000,-24.435217,-100.30779
25038750000,-24.411144,157.11981
25052500000,-24.592285,54.402882
25066250000,-24.437746,-46.387218
25080000000,-24.417183,-149.89136
25093750000,-24.592476,108.30473
25107500000,-24.541138,7.1568604
25121250000,-24.801641,-95.293755
25135000000,-24.48245,163.37766
25148750000,-24.68836,59.956726
25162500000,-24.831951,-39.799248
25176250000,-24.515856,-142.48349
25190000000,-24.474871,115.60261
25203750000,-24.185329,13.371017
25217500000,-24.203808,-89.158264
25231250000,-23.935427,170.22154
25245000000,-24.160109,65.557655
25258750000,-24.253366,-36.257645
25272500000,-24.105774,-137.88039
25286250000,-23.965857,120.34539
25300000000,-24.065252,16.987566
25313750000,-24.308094,-85.386139
25327500000,-24.197332,173.1026
25341250000,-24.323881,70.294556
25355000000,-24.294697,-31.391352
25368750000,-24.273865,-134.89507
25382500000,-24.550089,123.76378
25396250000,-24.457743,21.602377
25410000000,-24.530931,-81.462448
25423750000,-24.56414,178.87294
25437500000,-24.514629,76.915329
25451250000,-24.376543,-24.659361
25465000000,-24.474764,-128.14854
25478750000,-24.602804,131.31731
25492500000,-24.249146,28.721298
25506250000,-24.489759,-73.677444
25520000000,-24.205441,-175.2124
25533750000,-24.248367,81.528481
25547500000,-24.279512,-19.092758
25561250000,-24.030087,-122.72264
25575000000,-24.365143,134.99918
25588750000,-24.218904,33.493397
25602500000,-24.215521,-69.4683
25616250000,-24.236109,-169.81946
25630000000,-24.450539,86.598045
25643750000,-24.452267,-13.594517
25657500000,-24.295965,-115.16355
25671250000,-24.318556,142.57355
25685000000,-24.113079,40.726406
25698750000,-24.198124,-62.823242
25712500000,-24.284306,-164.54869
25726250000,-24.162107,94.158371
25740000000,-24.069715,-8.8200293
25753750000,-24.095823,-111.56299
25767500000,-24.220778,146.68553
25781250000,-24.252495,43.18943
25795000000,-24.249908,-58.217098
25808750000,-24.042139,-158.97206
25822500000,-24.047312,96.403358
25836250000,-24.151249,-3.8968189
25850000000,-24.132174,-107.53081
25863750000,-24.537762,150.01334
25877500000,-24.348518,50.30595
25891250000,-24.428091,-53.042324
25905000000,-24.518124,-153.75731
25918750000,-24.24395,105.2775
25932500000,-24.300364,3.3045871
25946250000,-23.967194,-98.638618
25960000000,-24.177902,159.38394
25973750000,-24.082127,55.682331
25987500000,-24.164057,-46.82819
26001250000,-24.123228,-147.21254
26015000000,-24.123882,109.25671
26028750000,-24.172321,7.3951721
26042500000,-24.274227,-94.680946
26056250000,-24.284349,164.32578
26070000000,-24.056276,60.573849
26083750000,-24.484133,-41.501713
26097500000,-24.548012,-142.38197
26111250000,-24.569885,115.5208
26125000000,-24.221766,15.344355
26138750000,-24.005356,-89.451683
26152500000,-24.512966,170.33446
26166250000,-24.275612,69.805847
26180000000,-24.056677,-34.74194
26193750000,-23.853642,-134.99043
26207500000,-23.807722,121.07232
26221250000,-23.707323,20.454447
26235000000,-23.860165,-83.261612
26248750000,-23.967012,174.69887
26262500000,-23.794464,72.692879
26276250000,-23.953688,-29.653336
26290000000,-23.999262,-131.08484
26303750000,-23.996994,124.10661
26317500000,-24.588108,23.71534
26331250000,-24.360813,-78.278435
26345000000,-24.270424,-179.84586
26358750000,-24.341646,78.858185
26372500000,-24.384678,-23.852303
26386250000,-24.29471,-123.32991
26400000000,-24.133123,132.93863
26413750000,-24.124865,31.033426
26427500000,-23.98979,-70.208191
26441250000,-24.136431,-172.34647
26455000000,-23.869947,86.217079
26468750000,-23.880825,-18.258743
26482500000,-24.142895,-119.63371
26496250000,-23.788,139.62402
26510000000,-23.995806,36.143379
26523750000,-23.997667,-67.456444
26537500000,-24.219032,-168.33765
26551250000,-24.109207,91.121155
26565000000,-24.268024,-11.706793
26578750000,-24.037266,-112.59274
26592500000,-24.1985,144.06157
26606250000,-24.166206,43.638111
26620000000,-23.922325,-57.849197
26633750000,-24.192741,-161.75691
26647500000,-24.040779,97.513405
26661250000,-24.003876,-5.1943073
26675000000,-23.922682,-107.51488
26688750000,-23.913561,150.02197
26702500000,-24.034672,48.992619
26716250000,-23.752954,-53.950558
26730000000,-23.808655,-157.49995
26743750000,-23.861168,100.98143
26757500000,-23.866274,-1.4310439
26771250000,-23.76733,-102.90691
26785000000,-23.867638,153.54469
26798750000,-24.072584,52.062889
26812500000,-24.137789,-48.613682
26826250000,-24.173033,-150.16982
26840000000,-24.023163,107.59824
26853750000,-24.097025,6.6768546
26867500000,-24.027536,-94.620018
26881250000,-23.943485,161.68671
26895000000,-23.956629,60.6534
26908750000,-23.911942,-40.523674
26922500000,-23.684273,-142.30632
26936250000,-23.588697,115.66444
26950000000,-23.854952,9.9569855
26963750000,-24.008947,-90.854156
26977500000,-24.00399,167.57306
26991250000,-24.084631,64.229507
27005000000,-23.943428,-38.387165
27018750000,-24.206911,-138.0769
27032500000,-23.892223,120.19707
27046250000,-23.993923,18.789894
27060000000,-23.996033,-84.203285
27073750000,-23.787708,173.2603
27087500000,-23.734961,72.566032
27101250000,-23.604252,-30.401022
27115000000,-23.751062,-132.27055
27128750000,-23.588114,125.94646
27142500000,-23.475399,23.289091
27156250000,-23.344786,-78.589867
27170000000,-23.595093,178.83888
27183750000,-23.635227,75.534843
27197500000,-23.621586,-26.339525
27211250000,-23.727648,-128.12286
27225000000,-23.670305,129.07085
27238750000,-24.007792,26.611341
27252500000,-24.045679,-74.667915
27266250000,-24.179052,-177.08272
27280000000,-24.181623,82.708542
27293750000,-23.988827,-19.657022
27307500000,-24.164417,-120.86124
27321250000,-23.891687,137.25726
27335000000,-23.891714,34.216202
27348750000,-23.876945,-65.771324
27362500000,-23.666576,-169.00252
27376250000,-23.700844,88.624199
27390000000,-23.767403,-14.003671
27403750000,-23.95775,-116.79739
27417500000,-23.832745,141.90356
27431250000,-23.473682,40.385612
27445000000,-23.898947,-62.91497
27458750000,-23.882784,-164.43692
27472500000,-23.918854,94.367004
27486250000,-23.927942,-7.8664665
27500000000,-23.878578,-109.13181
27513750000,-23.853912,147.48303
27527500000,-24.330175,45.046719
27541250000,-24.10544,-55.134769
27555000000,-23.834993,-158.13089
27568750000,-24.096146,101.23728
27582500000,-23.79468,-1.3600701
27596250000,-24.240477,-103.11345
27610000000,-23.683804,154.78963
27623750000,-23.757019,51.256359
27637500000,-23.844921,-49.269573
27651250000,-23.669697,-153.12491
27665000000,-23.840647,106.03252
27678750000,-23.709761,3.0627854
27692500000,-23.893843,-98.563789
27706250000,-23.726715,160.49318
27720000000,-24.153673,56.38792
27733750000,-23.936415,-45.124599
27747500000,-24.223497,-147.40659
27761250000,-24.298763,113.04078
27775000000,-23.897921,9.7693033
27788750000,-24.125849,-90.443184
27802500000,-23.859135,166.55971
27816250000,-24.157587,64.700607
27830000000,-23.88467,-34.348019
27843750000,-23.729013,-140.63414
27857500000,-23.995472,119.97868
27871250000,-23.760109,17.233873
27885000000,-24.026033,-85.681717
27898750000,-23.737673,174.00604
27912500000,-24.081087,68.291206
27926250000,-24.307482,-30.529263
27940000000,-23.788998,-132.7182
27953750000,-24.099255,123.5871
27967500000,-23.761068,21.962729
27981250000,-24.243916,-79.284798
27995000000,-24.047001,-179.78149
28008750000,-23.949741,76.661842
28022500000,-24.159048,-23.377069
28036250000,-23.95676,-126.85704
28050000000,-23.926985,132.87794
28063750000,-23.519005,28.968185
28077500000,-24.011326,-74.411491
28091250000,-23.667364,-174.46034
28105000000,-23.827152,81.6073
28118750000,-23.797529,-19.185369
28132500000,-23.730156,-123.30979
28146250000,-24.085175,135.65056
28160000000,-23.791998,33.460888
28173750000,-24.087471,-68.794868
28187500000,-24.052374,-170.17134
28201250000,-24.276428,86.970787
28215000000,-24.472414,-11.473538
28228750000,-24.314522,-115.85754
28242500000,-24.645662,142.73393
28256250000,-24.871786,42.366173
28270000000,-24.166515,-59.368572
28283750000,-23.903917,-161.05287
28297500000,-24.149437,95.73542
28311250000,-24.027994,-6.3116121
28325000000,-24.051752,-108.63768
28338750000,-23.963631,151.10109
28352500000,-23.658371,46.049103
28366250000,-23.933819,-53.989277
28380000000,-24.069542,-155.73436
28393750000,-24.039129,100.41497
28407500000,-23.97611,1.1512972
28421250000,-24.06114,-102.20404
28435000000,-24.145237,157.01378
28448750000,-24.061581,54.414196
28462500000,-24.298944,-47.527935
28476250000,-24.069578,-149.05716
28490000000,-24.09783,108.57094
28503750000,-24.026415,6.5928097
28517500000,-24.062138,-95.259651
28531250000,-24.199451,163.37291
28545000000,-23.804857,59.665001
28558750000,-24.073448,-42.792164
28572500000,-24.201195,-144.71371
28586250000,-24.376493,112.55636
28600000000,-24.094112,12.632224
28613750000,-24.083448,-91.89064
28627500000,-24.171156,167.49387
28641250000,-24.186943,66.282631
28655000000,-24.499725,-36.132706
28668750000,-24.198959,-136.96237
28682500000,-24.314672,120.93672
28696250000,-24.339912,19.107763
28710000000,-24.307056,-81.858337
28723750000,-24.318018,176.18341
28737500000,-24.333374,72.913544
28751250000,-24.147142,-27.401552
28765000000,-24.190737,-129.28984
28778750000,-24.32589,127.8322
28792500000,-24.233814,27.293245
28806250000,-24.299303,-75.352081
28820000000,-24.297907,-176.34938
28833750000,-24.156071,81.12677
28847500000,-24.593437,-21.104097
28861250000,-24.417936,-122.40784
28875000000,-24.143627,135.42351
28888750000,-24.238466,31.984905
28902500000,-24.442207,-68.758568
28916250000,-24.322102,-169.91551
28930000000,-24.205751,86.545258
28943750000,-24.13341,-14.962441
28957500000,-24.241505,-117.62025
28971250000,-24.47842,141.60126
28985000000,-24.197836,41.199898
28998750000,-24.246708,-62.375706
29012500000,-24.060959,-163.57874
29026250000,-24.122419,94.304321
29040000000,-24.252882,-6.3904715
29053750000,-23.908012,-110.93901
29067500000,-24.308931,146.99806
29081250000,-24.189827,46.699974
29095000000,-24.214622,-56.13216
29108750000,-24.216782,-157.97745
29122500000,-24.240391,98.477905
29136250000,-24.662399,-1.1486366
29150000000,-24.340746,-102.92616
29163750000,-24.495022,153.85028
29177500000,-24.683531,52.496849
29191250000,-24.920462,-48.187382
29205000000,-24.356672,-149.14067
29218750000,-24.486792,107.76639
29232500000,-24.626989,7.0967736
29246250000,-24.437489,-94.647179
29260000000,-24.324024,163.80832
29273750000,-23.898151,60.999397
29287500000,-24.162088,-43.077049
29301250000,-24.184725,-140.41646
29315000000,-23.895267,115.04036
29328750000,-24.159681,11.1622
29342500000,-23.948036,-88.372726
29356250000,-23.98271,168.74217
29370000000,-24.311106,68.70446
29383750000,-24.087145,-36.208462
29397500000,-24.459494,-137.55327
29411250000,-24.245119,122.35197
29425000000,-24.339211,20.663773
29438750000,-24.19067,-81.433823
29452500000,-24.357243,175.56168
29466250000,-24.518421,75.194405
29480000000,-23.903639,-25.860693
29493750000,-23.81826,-128.82671
29507500000,-24.038389,128.09801
29521250000,-23.888811,28.027079
29535000000,-23.76317,-75.990425
29548750000,-24.014393,-178.69035
29562500000,-23.939177,79.932098
29576250000,-24.218006,-23.20302
29590000000,-24.22506,-123.01059
29603750000,-24.048128,133.34259
29617500000,-24.62985,32.539158
29631250000,-24.002954,-67.341766
29645000000,-24.208797,-170.48093
29658750000,-24.021561,87.761131
29672500000,-24.010481,-14.772352
29686250000,-23.950272,-114.79196
29700000000,-23.899242,142.35851
29713750000,-23.823093,40.255466
29727500000,-23.683495,-60.628166
29741250000,-23.708254,-163.04317
29755000000,-23.719995,94.86454
29768750000,-23.881866,-8.8798008
29782500000,-23.869026,-109.40212
29796250000,-23.777224,146.87241
29810000000,-24.155621,46.28442
29823750000,-23.701784,-56.249775
29837500000,-24.214767,-159.57544
29851250000,-24.14226,101.44865
29865000000,-24.007969,-3.2306342
29878750000,-24.376877,-101.53511
29892500000,-23.894039,154.41223
29906250000,-24.285019,52.542336
29920000000,-23.921228,-47.733932
