!Keysight Technologies,N5224B,MY57181201,A.12.70.07
!Date: Friday, July 15, 2022 16:12:33
!Correction: S11(Full 2 Port(1,2)) 
!S21(Full 2 Port(1,2)) 
!S12(Full 2 Port(1,2)) 
!S22(Full 2 Port(1,2)) 
!S2P File: Measurements: S11, S21, S12, S22:
# Hz S  dB   R 50
22000000000 -19.677191 165.57681 -54.162235 -169.47842 -53.410248 -177.57065 -20.819777 148.53004
22013750000 -15.884595 79.391327 -54.344627 91.869942 -54.716793 88.372299 -17.858063 76.293877
22027500000 -15.267285 1.7842586 -56.744743 -33.492352 -59.389374 -40.811745 -19.133312 -1.4723744
22041250000 -18.015465 -91.833023 -56.733173 -97.222404 -57.084801 -106.08826 -22.233866 -112.71997
22055000000 -17.236876 149.84305 -56.532761 146.02393 -56.940552 144.70561 -19.04677 132.09572
22068750000 -14.560446 57.431728 -53.689178 45.206669 -55.041409 51.562611 -17.200027 48.667744
22082500000 -13.518183 -21.510572 -55.002838 -60.715466 -54.08316 -58.110123 -17.711891 -32.696629
22096250000 -14.468557 -102.74862 -54.651318 179.56314 -56.183086 174.19681 -19.637114 -131.45605
22110000000 -16.33806 129.86812 -53.114143 85.231453 -52.903519 88.885269 -18.856792 112.79332
22123750000 -14.430183 49.090424 -55.619553 -10.252736 -56.059715 -0.3328205 -16.810129 29.455151
22137500000 -15.892739 -32.195477 -53.181614 -107.16251 -53.250896 -95.519516 -15.755676 -48.462811
22151250000 -18.568842 -134.67848 -53.230267 121.01965 -52.656639 121.52897 -16.096001 -122.91206
22165000000 -16.474371 112.36127 -55.318958 5.7738981 -54.990383 13.868024 -20.756962 95.882286
22178750000 -14.811326 32.950157 -53.928123 -66.882072 -52.62204 -70.586006 -19.518635 28.808523
22192500000 -15.627604 -40.572369 -56.040047 171.57222 -56.782898 177.74916 -19.31352 -31.509937
22206250000 -19.575962 -118.29714 -57.079529 92.685234 -55.524868 84.087555 -21.235445 -92.072617
22220000000 -17.866953 97.318306 -56.343758 -32.771107 -55.896564 -33.98407 -24.159151 94.803802
22233750000 -17.364708 20.280788 -53.888378 -118.42619 -56.600395 -128.47527 -23.415556 47.479515
22247500000 -17.944672 -53.159954 -55.100681 130.3474 -56.479038 130.93057 -26.467653 -10.703485
22261250000 -20.114088 -123.77634 -56.417015 32.982399 -56.14267 31.598843 -30.3141 -111.50371
22275000000 -21.045683 92.810883 -56.459351 -67.367119 -58.323326 -68.701355 -24.748014 121.38092
22288750000 -20.10988 35.253902 -53.092953 -165.21434 -53.207607 -161.43306 -20.187475 64.585457
22302500000 -22.370901 -18.467457 -52.195305 81.398636 -52.442165 86.521599 -19.89971 -6.5387444
22316250000 -28.148924 -93.147186 -55.73457 -42.198109 -56.646416 -37.152809 -22.986649 -88.556763
22330000000 -23.274908 114.16444 -53.575836 -113.04266 -54.810837 -110.35688 -21.147173 140.4369
22343750000 -19.196758 48.813824 -53.695816 126.23827 -54.092747 127.49996 -18.397757 68.336472
22357500000 -17.584303 -13.693782 -53.297897 24.097273 -52.315102 26.585829 -18.722034 -7.2880621
22371250000 -18.099907 -82.159912 -53.105347 -74.869667 -52.952213 -81.326431 -21.656403 -116.67686
22385000000 -20.785955 134.47646 -56.674076 164.55612 -55.664738 159.25627 -18.777617 127.00936
22398750000 -16.754303 56.501637 -54.325298 73.146774 -55.055302 63.245224 -16.656038 52.055534
22412500000 -15.363008 -19.396513 -54.787064 -24.318727 -54.497505 -31.23242 -18.722729 -34.358173
22426250000 -16.504766 -99.749611 -55.065041 -131.52486 -56.244812 -143.57877 -19.436575 -145.0787
22440000000 -17.180811 133.22926 -54.939766 140.83754 -57.303967 141.76598 -16.276827 111.20647
22453750000 -14.264357 52.075066 -53.42321 10.289608 -55.21917 16.351896 -15.294374 35.240154
22467500000 -14.483477 -24.384695 -56.728767 -81.267441 -57.226379 -84.632553 -16.828247 -47.753147
22481250000 -17.037077 -119.20963 -54.525787 178.83438 -55.573673 175.23158 -19.51837 -156.68047
22495000000 -15.129111 119.22443 -57.19474 71.378792 -58.1712 68.9394 -16.199158 99.043869
22508750000 -13.415758 33.373299 -55.960716 -15.348614 -56.701725 -15.492315 -16.326311 26.208111
22522500000 -12.924617 -51.246479 -54.564968 -129.66547 -53.556938 -130.01233 -20.483938 -56.614334
22536250000 -13.564763 -137.57582 -58.633072 132.03316 -58.259823 121.65244 -21.163294 169.98631
22550000000 -14.050324 103.27318 -54.129169 27.640091 -54.97266 34.083347 -16.971659 77.872665
22563750000 -13.469287 25.509171 -57.102169 -83.444427 -56.890255 -87.207306 -19.066397 6.9104686
22577500000 -15.825944 -62.313358 -58.468727 163.6655 -58.827377 -175.69614 -23.604492 -107.02107
22591250000 -17.244053 -175.81067 -55.253395 62.508888 -55.812897 71.655159 -20.503618 139.9794
22605000000 -14.054436 86.769058 -57.933567 -27.840811 -58.185036 -26.885292 -17.638447 66.260162
22618750000 -13.459706 7.6326957 -53.776089 -128.66327 -55.971458 -126.16628 -19.86557 -0.63650709
22632500000 -15.516423 -73.389694 -58.761517 126.3596 -57.302681 127.23904 -25.371655 -76.472404
22646250000 -20.329531 -166.27014 -56.811432 30.99725 -57.652599 11.227243 -26.284346 144.08688
22660000000 -14.819387 71.055237 -56.649567 -73.767677 -58.081875 -74.365913 -21.086479 71.636597
22673750000 -15.236817 -9.4237766 -54.568909 -168.78909 -54.805626 -171.28209 -21.898621 33.066975
22687500000 -17.40449 -89.832092 -57.382423 68.515305 -56.473118 56.358036 -27.457327 -5.3512106
22701250000 -20.976593 -176.30006 -55.851803 -26.349371 -56.135849 -22.460585 -35.170578 138.32635
22715000000 -16.907034 59.608135 -55.362675 -133.21051 -56.489777 -136.3208 -21.604752 81.463814
22728750000 -19.44285 -5.5132189 -56.819328 130.02081 -58.430012 112.80334 -20.519445 39.965244
22742500000 -27.435917 -91.799461 -56.314278 35.69812 -56.556801 31.530005 -23.409439 -16.350586
22756250000 -26.966675 112.34278 -59.329891 -75.09333 -58.137161 -78.912613 -41.126328 -7.0606117
22770000000 -19.473833 59.873318 -55.133484 171.31624 -55.60128 174.07512 -18.962616 85.008774
22783750000 -20.403824 2.2987902 -56.800518 70.865166 -55.921555 66.063011 -18.963369 15.80291
22797500000 -21.496647 -51.997055 -57.867439 -15.175439 -57.74535 -4.9582677 -21.218473 -71.996437
22811250000 -25.640881 -106.5806 -55.826366 -134.15105 -55.342464 -134.9964 -20.708654 168.90175
22825000000 -20.753845 78.329666 -55.076805 132.81129 -53.421909 133.93524 -16.877516 79.605141
22838750000 -19.50946 24.868212 -56.805866 4.6813483 -57.06395 10.710824 -17.336004 11.19098
22852500000 -20.644466 -38.636745 -54.473938 -89.371017 -54.053013 -91.413437 -21.188362 -85.629341
22866250000 -26.349319 -126.04111 -57.534767 -161.73636 -56.657024 -167.49158 -20.060186 149.57552
22880000000 -18.560165 87.995979 -54.553791 65.290855 -53.86512 68.202324 -15.958549 65.898384
22893750000 -16.887211 22.879307 -57.379898 -36.088474 -56.639912 -43.298336 -17.234892 -20.450237
22907500000 -18.448107 -49.846062 -57.608627 -137.12764 -56.997604 -138.06552 -18.109426 -122.05723
22921250000 -24.466703 -149.37502 -56.034061 113.30932 -56.248859 116.82032 -17.750561 135.12885
22935000000 -16.214342 82.613617 -56.666058 14.572452 -57.645054 13.804366 -15.855039 47.056068
22948750000 -15.212625 6.4707394 -56.170254 -97.145256 -56.172504 -99.760063 -18.14464 -43.018822
22962500000 -16.757589 -74.028488 -57.667961 165.36711 -57.998024 173.34889 -18.827473 -155.53796
22976250000 -20.600712 -171.50262 -60.067074 60.116478 -59.148914 63.509647 -16.73794 109.44199
22990000000 -14.847519 68.55426 -59.768394 -38.12952 -60.166332 -35.26857 -16.224297 31.97049
23003750000 -15.51788 -6.0668855 -56.260281 -141.69177 -56.293564 -140.58067 -20.169632 -53.742016
23017500000 -19.501957 -102.45735 -60.003433 137.10643 -61.498993 144.58514 -22.256933 -179.42351
23031250000 -19.227816 129.70076 -61.58292 23.559715 -59.744537 22.297321 -18.898453 83.344093
23045000000 -14.344788 52.090759 -62.549713 -65.86013 -63.168419 -70.378532 -18.527369 18.097517
23058750000 -15.53761 -26.841513 -58.075298 -168.01517 -56.075478 -169.86603 -25.813498 -97.898277
23072500000 -20.046104 -118.14476 -57.813477 75.010475 -56.824326 69.552895 -21.553638 132.91779
23086250000 -22.684259 101.77895 -58.660019 9.4414711 -58.693798 1.1650037 -19.478214 65.849594
23100000000 -14.806561 33.754738 -58.400963 -110.72679 -56.929398 -117.68752 -21.865332 12.850258
23113750000 -18.013386 -49.704895 -56.08696 128.63617 -56.868134 125.76611 -29.097282 -126.05909
23127500000 -21.967575 -169.77815 -55.313419 29.603365 -56.135178 34.486843 -23.008341 135.08968
23141250000 -18.720978 70.820007 -56.215984 -74.95269 -55.887157 -77.300377 -21.397358 82.136162
23155000000 -16.399446 16.033585 -57.1311 -166.5876 -58.441921 -170.2382 -22.800533 32.176338
23168750000 -22.262613 -75.844383 -56.745949 95.161423 -58.430199 94.006958 -30.240971 -23.704418
23182500000 -23.655884 133.16273 -57.33952 -45.120533 -55.898823 -35.985912 -35.808495 156.74403
23196250000 -17.61389 42.790737 -55.834934 -141.75398 -57.003899 -142.64384 -24.452204 91.540154
23210000000 -19.832405 -0.83108443 -58.055691 130.02759 -58.399044 138.60052 -21.005829 39.693291
23223750000 -25.636482 -92.20636 -55.059235 22.760605 -53.80761 21.13187 -25.614059 -1.0747099
23237500000 -30.274529 123.20425 -59.584034 -68.418365 -59.274467 -64.92762 -34.844509 52.967262
23251250000 -25.362072 2.1297042 -56.40472 -178.72568 -55.445843 179.01036 -22.172367 42.721455
23265000000 -25.305864 1.14979 -56.472321 75.344856 -56.2929 70.000954 -18.950754 31.558521
23278750000 -35.931725 129.08656 -59.95517 -19.775375 -58.615894 -23.455439 -25.278215 -85.588463
23292500000 -25.144506 78.387604 -60.087276 -111.51228 -58.012287 -123.2617 -19.027979 159.14914
23306250000 -23.908657 34.356991 -56.154144 157.94629 -55.521328 146.44467 -15.852274 88.997978
23320000000 -27.095058 47.571281 -56.834652 33.573681 -56.547508 26.850569 -17.976477 15.801629
23333750000 -26.13283 26.751411 -54.452953 -82.022812 -54.791885 -81.505089 -20.471794 -84.230667
23347500000 -26.705011 -4.1785169 -57.556873 -177.634 -56.36631 -179.93811 -19.855127 163.45537
23361250000 -28.158955 -13.318363 -54.482437 78.072273 -54.812393 85.577744 -18.135723 74.83802
23375000000 -22.288187 58.434624 -54.878582 -45.484566 -55.734131 -42.723068 -18.144045 -3.1479547
23388750000 -22.95817 2.36466 -54.596863 -126.53446 -55.50877 -130.24232 -20.912689 -108.8523
23402500000 -29.418839 -57.780964 -55.049118 107.04183 -54.702133 106.58159 -20.404268 144.03833
23416250000 -33.399403 51.089127 -58.713634 11.157625 -58.929695 12.370504 -19.631523 47.93713
23430000000 -19.735088 46.272499 -59.658642 -87.732536 -58.814266 -71.642235 -19.235632 -24.966946
23443750000 -23.620033 -21.425449 -58.641125 140.4514 -55.823433 143.48055 -19.727585 -143.55362
23457500000 -33.924614 169.34055 -59.881248 85.75724 -62.391262 78.20359 -18.066113 117.8546
23471250000 -21.551655 69.116638 -56.315502 -17.558249 -56.942177 -19.215845 -17.962099 37.96423
23485000000 -18.610516 26.844332 -57.411667 -118.48425 -58.5667 -110.42841 -21.96805 -50.572422
23498750000 -23.07741 -48.410034 -58.571384 148.49989 -61.97171 154.08347 -21.420834 -173.16878
23512500000 -31.233072 157.74588 -54.213631 24.068104 -54.965824 24.553276 -19.290863 97.598724
23526250000 -21.201277 30.147421 -60.977371 -86.048218 -62.494305 -86.891602 -21.639578 16.54669
23540000000 -18.729664 5.2543721 -57.052258 -158.61607 -56.991844 -157.55911 -29.965376 -73.278572
23553750000 -26.076866 -113.54227 -56.421535 86.58107 -57.422428 84.674904 -24.704569 133.8913
23567500000 -20.50631 111.9267 -57.116192 -19.80916 -57.897339 -13.157248 -22.276899 61.037796
23581250000 -16.600355 34.048435 -55.673546 -118.86537 -54.224705 -123.58109 -24.740799 0.079757415
23595000000 -20.217529 -20.847233 -54.925549 134.18367 -55.012733 133.43013 -42.066456 39.649433
23608750000 -24.836426 -168.20454 -59.183666 31.931175 -56.767334 26.925001 -23.48588 125.44137
23622500000 -18.417313 80.720406 -54.855431 -58.432446 -54.998844 -65.792 -19.818947 81.656479
23636250000 -15.00194 6.1470404 -53.097168 179.13124 -53.937748 -173.4733 -21.25386 46.521805
23650000000 -23.950405 -55.776009 -54.569809 65.853325 -54.832218 70.212883 -27.9217 22.448679
23663750000 -23.558241 153.66083 -55.13327 -41.246319 -55.969177 -32.584671 -29.642645 -163.70093
23677500000 -19.086321 53.361752 -55.312473 -116.85055 -55.440598 -114.12988 -21.776131 131.16685
23691250000 -16.815084 -25.249393 -55.587646 129.54288 -55.682957 121.60301 -21.304987 75.691086
23705000000 -29.08913 -127.30112 -56.725876 11.236394 -57.48616 12.371963 -24.593784 13.737638
23718750000 -20.589029 114.93455 -55.778301 -82.69236 -56.083584 -66.2061 -32.917706 -139.60236
23732500000 -18.211628 45.470387 -56.454708 168.25929 -56.890244 170.03 -24.134483 113.38199
23746250000 -20.693052 -21.125114 -56.132149 81.889908 -55.828037 85.260406 -21.242611 47.41407
23760000000 -26.733736 149.40175 -55.379173 -34.079845 -54.745979 -38.738926 -24.499201 -19.94482
23773750000 -20.650963 70.964912 -57.026588 -141.16733 -56.296078 -142.72792 -25.693991 163.46494
23787500000 -19.187199 6.0163078 -57.879597 141.86153 -58.130306 137.76402 -17.660967 82.692413
23801250000 -21.125278 -57.142693 -55.664249 35.215969 -56.335754 31.102291 -16.357307 18.294769
23815000000 -22.672192 106.5299 -56.48991 -99.717728 -57.020767 -98.682068 -23.637356 -47.745575
23828750000 -22.52137 50.511932 -55.721783 -150.67627 -56.053097 -156.00165 -20.72188 163.05257
23842500000 -29.796293 -1.638042 -54.05814 90.315643 -54.862926 87.282448 -16.507307 87.148605
23856250000 -28.564758 137.98849 -53.389309 -16.162069 -54.301361 -10.830544 -15.80596 20.808662
23870000000 -20.926983 73.590004 -54.542553 -134.64587 -54.588703 -134.23726 -27.560926 -84.291603
23883750000 -21.801302 20.628248 -52.421185 117.28414 -53.401058 117.37436 -22.123331 141.21626
23897500000 -27.88455 -11.757687 -54.256424 3.590076 -54.594013 -1.6493994 -19.52372 65.342133
23911250000 -26.238552 14.777254 -55.432777 -84.5196 -54.811836 -83.929306 -22.253395 -10.823204
23925000000 -20.525206 48.23185 -56.215824 154.00125 -55.292904 152.7484 -27.54682 -152.29863
23938750000 -25.220312 -24.582979 -56.590408 55.829124 -57.814465 67.269753 -21.080381 114.49931
23952500000 -40.355392 -106.65493 -55.845432 -16.971977 -54.464916 -8.8391447 -21.326323 45.794842
23966250000 -26.888931 25.242252 -56.626709 -142.489 -56.514133 -136.02533 -26.272295 -35.869434
23980000000 -22.044025 22.913544 -59.211197 115.02718 -56.38348 118.36153 -27.370396 140.2556
23993750000 -35.525826 -126.81514 -61.541954 31.798325 -58.91341 28.037527 -21.649101 74.060837
24007500000 -22.026182 111.4676 -57.297085 -62.90461 -56.795448 -71.1063 -20.031708 14.917261
24021250000 -18.974445 45.427509 -54.532799 -165.58931 -54.802555 -174.12222 -20.627876 -28.904617
24035000000 -25.376001 -2.279038 -55.235592 94.842781 -55.514446 89.202019 -24.822605 81.120247
24048750000 -37.391312 -159.76117 -52.922386 -21.502382 -54.434986 -16.552906 -30.832489 27.515783
24062500000 -24.428949 54.966106 -53.551517 -131.3293 -53.576485 -134.26395 -31.603409 141.95554
24076250000 -19.791935 -21.547773 -52.13839 142.34476 -52.644066 143.22476 -24.549179 98.621292
24090000000 -35.531822 -46.20406 -52.76009 20.141052 -53.18504 20.801941 -23.511547 47.41169
24103750000 -24.123056 122.12934 -53.001789 -83.381554 -54.261753 -76.701309 -38.742012 55.956718
24117500000 -19.870901 57.443317 -53.688187 168.88084 -52.664196 173.40187 -24.753834 112.28204
24131250000 -21.400169 -5.6533384 -52.411057 56.863087 -51.039623 61.771084 -21.255247 59.750057
24145000000 -31.284653 142.32339 -54.907673 -42.612644 -53.885361 -40.93243 -24.675774 17.58581
24158750000 -21.517292 93.641479 -55.095268 -162.31343 -54.554176 -158.53798 -26.515671 -145.2084
24172500000 -21.696646 38.580978 -54.864704 103.78109 -54.682621 99.126709 -20.993557 121.11337
24186250000 -34.548622 -24.648876 -56.935184 -13.110611 -57.343552 -7.8362598 -20.124374 56.434242
24200000000 -23.085642 112.59478 -55.873951 -77.988152 -55.629467 -76.457016 -24.678474 -16.309858
24213750000 -23.543669 45.518002 -60.784313 154.29904 -59.344631 157.36424 -23.136862 -167.9142
24227500000 -27.660643 -50.724098 -58.11058 59.856239 -56.544502 68.422798 -18.740683 114.29967
24241250000 -25.180822 176.77928 -55.534931 -28.758591 -55.472706 -36.220573 -20.308868 47.242836
24255000000 -19.777132 86.266907 -56.573677 -140.27448 -57.159298 -142.69698 -28.302273 -37.302532
24268750000 -23.404236 26.976141 -55.293697 138.41463 -56.552933 140.10478 -23.195116 151.24922
24282500000 -33.535412 -138.7598 -52.516739 21.408316 -53.442364 24.823053 -20.016565 81.263443
24296250000 -20.814583 116.47141 -54.483929 -79.520844 -55.251652 -79.464386 -21.814716 19.917263
24310000000 -18.335012 60.117973 -53.888206 -179.97226 -55.223515 -179.95372 -38.056492 -116.79736
24323750000 -20.586428 -14.009855 -53.180687 60.37888 -53.627823 57.3908 -20.969805 133.49142
24337500000 -28.678791 -107.56791 -55.006111 -32.227745 -55.114101 -29.052439 -19.330528 77.808174
24351250000 -24.624128 58.417831 -54.441254 -142.8512 -53.78503 -144.99002 -23.490433 34.798084
24365000000 -18.28965 34.564037 -53.855122 119.74189 -55.672604 128.76846 -35.349918 106.45432
24378750000 -24.550568 -60.183128 -53.246338 15.664721 -52.678749 16.950714 -26.2332 128.51001
24392500000 -22.734604 143.16945 -53.965145 -107.41071 -53.521893 -103.99747 -24.238684 111.3803
24406250000 -17.424595 56.961166 -57.521652 144.1434 -55.642864 148.88809 -22.586861 84.672852
24420000000 -19.102947 8.2269125 -53.151184 68.175941 -53.7682 60.003719 -24.952171 60.094887
24433750000 -26.483536 -112.18099 -55.557072 -42.632042 -55.468014 -40.689228 -33.671749 -16.800329
24447500000 -20.355228 112.09441 -58.575073 -139.12099 -57.186577 -145.3237 -28.100008 160.8351
24461250000 -16.139875 32.368271 -55.045902 113.80871 -54.427444 124.20547 -22.262693 87.588776
24475000000 -21.718016 -16.407249 -55.749313 -12.331229 -55.674812 -10.065781 -22.450695 27.999207
24488750000 -26.298784 -161.4809 -53.787586 -59.344032 -53.358116 -67.130615 -28.936348 -58.962257
24502500000 -19.591429 86.677452 -54.634167 168.25821 -55.123135 168.72946 -30.739243 103.19775
24516250000 -16.648739 8.1830673 -56.674179 68.117195 -55.149975 55.346031 -21.041265 4.0592146
24530000000 -26.667553 -43.497402 -52.245419 -28.197783 -52.960152 -26.428343 -22.021748 -7.2474189
24543750000 -21.954556 155.81436 -51.965248 -155.10628 -53.730099 -153.08949 -24.945631 -148.73
24557500000 -18.42531 85.612511 -53.23444 116.09148 -53.105526 112.10442 -18.574656 96.746864
24571250000 -21.189812 23.738626 -53.485867 -5.5878625 -52.991516 -4.783082 -15.051174 17.896471
24585000000 -41.646317 -128.94176 -56.034073 -114.58266 -57.23547 -111.12186 -21.726221 -31.977905
24598750000 -23.443243 102.8709 -56.001564 177.69397 -55.889015 178.94951 -20.414953 -153.2498
24612500000 -18.744476 36.478394 -52.642357 44.144184 -52.675953 43.166214 -17.769196 116.97253
24626250000 -18.192614 -24.518188 -55.834854 -62.587929 -54.895824 -54.239769 -18.670023 34.635422
24640000000 -28.94702 106.09003 -55.014355 -145.4214 -55.113747 -151.59772 -23.172997 -60.254749
24653750000 -23.668283 77.378899 -56.087658 105.79331 -55.587814 104.26225 -19.692249 170.19852
24667500000 -22.622543 35.839287 -58.144165 -2.8872077 -57.168381 12.03056 -17.312595 87.438713
24681250000 -22.867012 1.3744638 -54.549847 -97.199883 -54.721561 -101.54545 -18.746626 13.788183
24695000000 -23.298895 73.802994 -56.59647 144.99261 -55.951763 151.86002 -25.348146 -95.073395
24708750000 -27.241528 31.334326 -56.609787 53.961388 -56.866467 50.741508 -19.717449 158.9828
24722500000 -30.864944 51.084553 -56.72752 -48.29863 -54.906273 -47.629147 -18.624865 83.801735
24736250000 -22.357376 38.249481 -56.898773 -170.03209 -55.984257 -173.28865 -22.809988 12.486511
24750000000 -21.210499 44.642036 -57.290257 118.50757 -57.125439 115.04351 -31.182056 -124.25974
