!CSV A.01.01
!Keysight Technologies,N5224B,MY57181201,A.12.70.07
!Date: Friday, July 15, 2022 16:15:54
!Source: Standard

BEGIN CH1_DATA
Freq(Hz),S22(DB),S22(DEG)
22000000000,-23.754913,126.48412
22013750000,-20.895897,71.952583
22027500000,-23.007177,4.6678123
22041250000,-29.288492,-104.61013
22055000000,-23.082644,129.40047
22068750000,-20.193697,52.37413
22082500000,-20.288692,-17.842901
22096250000,-22.589708,-108.17022
22110000000,-21.971178,129.05479
22123750000,-18.330486,42.982285
22137500000,-16.450432,-31.853601
22151250000,-15.33124,-107.76634
22165000000,-21.722206,127.11289
22178750000,-17.991959,48.212032
22192500000,-17.20672,-22.027027
22206250000,-17.631395,-92.717918
22220000000,-21.11585,119.75732
22233750000,-19.349529,51.458508
22247500000,-21.647188,-28.558683
22261250000,-23.94474,-130.88927
22275000000,-20.333323,118.69402
22288750000,-18.046612,48.566097
22302500000,-19.317432,-26.269926
22316250000,-22.928638,-121.28538
22330000000,-20.047377,116.90127
22343750000,-18.572384,51.478718
22357500000,-20.925632,-29.153826
22371250000,-24.443045,-143.64221
22385000000,-19.278923,107.44669
22398750000,-18.997204,39.805912
22412500000,-21.672932,-42.99461
22426250000,-22.732016,-164.38208
22440000000,-18.698677,103.61665
22453750000,-17.538834,33.814915
22467500000,-19.69253,-40.291424
22481250000,-23.402182,-148.37268
22495000000,-19.049143,101.60706
22508750000,-18.056278,39.591084
22522500000,-22.009575,-31.682293
22536250000,-26.03023,-164.58293
22550000000,-19.009544,93.462318
22563750000,-19.417738,30.737389
22577500000,-24.172186,-65.434494
22591250000,-22.285686,165.20457
22605000000,-17.849255,86.779793
22618750000,-17.359682,18.995806
22632500000,-20.189674,-64.743637
22646250000,-22.586498,175.44804
22660000000,-18.022968,84.014503
22673750000,-18.32983,24.08672
22687500000,-24.469933,-54.597477
22701250000,-24.819349,148.67241
22715000000,-18.516676,75.366928
22728750000,-19.337702,16.056812
22742500000,-26.424658,-49.742565
22756250000,-29.467995,98.155479
22770000000,-17.884865,68.26519
22783750000,-19.390873,-3.4132602
22797500000,-22.745556,-99.271591
22811250000,-21.301661,146.47423
22825000000,-17.57967,65.658623
22838750000,-19.870394,-0.55298311
22852500000,-25.434671,-97.744255
22866250000,-22.096975,129.22997
22880000000,-18.09738,57.644161
22893750000,-20.092117,-24.860092
22907500000,-21.932238,-124.9255
22921250000,-20.67374,131.98952
22935000000,-18.431046,46.984871
22948750000,-21.742411,-32.642193
22962500000,-22.623928,-148.98296
22976250000,-19.422527,114.69528
22990000000,-18.369507,44.364079
23003750000,-21.676805,-24.348099
23017500000,-26.360451,-145.41263
23031250000,-21.275097,105.54433
23045000000,-18.656736,39.492931
23058750000,-25.152615,-39.399822
23072500000,-24.167032,172.39842
23086250000,-19.114777,89.170204
23100000000,-18.821301,30.713011
23113750000,-24.219004,-74.02681
23127500000,-20.696344,164.85539
23141250000,-17.983463,91.149109
23155000000,-18.796547,24.077015
23168750000,-24.590748,-64.977219
23182500000,-24.764593,162.67757
23196250000,-20.113811,78.749893
23210000000,-19.939161,17.237396
23223750000,-29.475306,-48.732964
23237500000,-25.773552,96.390587
23251250000,-18.927641,33.053303
23265000000,-20.32943,9.9007444
23278750000,-25.325058,-126.09966
23292500000,-18.636652,140.72824
23306250000,-17.002859,74.963448
23320000000,-20.550995,5.1577106
23333750000,-24.523739,-97.011826
23347500000,-22.732924,147.5168
23361250000,-20.875183,65.277443
23375000000,-21.331495,-1.6436391
23388750000,-25.978413,-111.74564
23402500000,-25.269541,139.39439
23416250000,-23.764013,49.224285
23430000000,-22.52533,-9.4841967
23443750000,-24.102201,-136.23877
23457500000,-21.633778,127.09556
23471250000,-20.588102,55.469421
23485000000,-23.509501,-12.828123
23498750000,-24.72047,-143.01273
23512500000,-21.841732,123.10622
23526250000,-20.978352,52.965904
23540000000,-25.06378,-18.604158
23553750000,-28.661207,-166.03215
23567500000,-21.958342,95.809578
23581250000,-21.322193,30.853243
23595000000,-25.676174,-33.178795
23608750000,-22.011633,155.8264
23622500000,-17.221855,92.243706
23636250000,-18.124567,35.851143
23650000000,-26.861115,-35.882656
23663750000,-23.057756,-179.9447
23677500000,-19.638226,111.93366
23691250000,-21.608746,49.728275
23705000000,-30.093616,-33.881947
23718750000,-28.030764,148.1922
23732500000,-23.059729,82.204803
23746250000,-23.279568,17.844809
23760000000,-32.687065,-38.606659
23773750000,-23.638874,125.30762
23787500000,-18.56254,65.218399
23801250000,-18.301405,8.6915359
23815000000,-32.555428,-30.324873
23828750000,-23.561611,143.65829
23842500000,-18.978333,80.794624
23856250000,-18.300392,27.233526
23870000000,-37.294304,5.696063
23883750000,-28.3806,131.77264
23897500000,-23.536661,71.38324
23911250000,-26.112576,22.281437
23925000000,-46.652973,37.669376
23938750000,-27.468945,129.40433
23952500000,-23.681791,75.440376
23966250000,-26.25111,22.941648
23980000000,-38.582478,5.9820185
23993750000,-26.682198,98.237473
24007500000,-20.59952,44.771114
24021250000,-17.899652,-13.416726
24035000000,-32.990028,30.042807
24048750000,-29.992599,136.03024
24062500000,-25.563419,95.538681
24076250000,-26.207067,52.773087
24090000000,-32.159855,49.365257
24103750000,-26.730164,111.00434
24117500000,-23.137592,77.139977
24131250000,-23.977858,37.216339
24145000000,-33.136711,40.44508
24158750000,-29.54538,151.6275
24172500000,-24.66457,103.52136
24186250000,-24.283518,55.668587
24200000000,-30.051853,28.325153
24213750000,-29.462486,169.72461
24227500000,-23.000824,118.85382
24241250000,-22.51841,70.067261
24255000000,-28.851328,29.214737
24268750000,-32.390522,141.48993
24282500000,-23.638247,95.991081
24296250000,-22.901249,52.355843
24310000000,-29.597763,21.986647
24323750000,-26.112148,151.92865
24337500000,-19.513681,102.75011
24351250000,-20.172314,54.231312
24365000000,-27.889137,7.491981
24378750000,-24.816874,-175.16663
24392500000,-19.427605,120.45545
24406250000,-19.486799,65.683762
24420000000,-26.781309,2.7052984
24433750000,-30.332001,-166.53464
24447500000,-23.734646,115.29082
24461250000,-22.971186,51.843197
24475000000,-27.267174,0.69941622
24488750000,-36.743671,158.28374
24502500000,-24.704865,51.606842
24516250000,-19.85128,-19.118565
24530000000,-27.778708,-12.974968
24543750000,-27.412191,164.59149
24557500000,-19.728355,78.789917
24571250000,-16.564859,8.8541574
24585000000,-27.357082,-16.793505
24598750000,-24.393784,-157.41684
24612500000,-21.38261,117.86723
24626250000,-21.689592,49.755287
24640000000,-27.730501,-33.665604
24653750000,-24.61797,173.85934
24667500000,-19.831511,97.949135
24681250000,-20.490143,33.324997
24695000000,-27.72121,-41.516197
24708750000,-22.1514,179.46367
24722500000,-19.221216,105.64404
24736250000,-20.720955,39.511581
24750000000,-28.083012,-47.070866
24763750000,-22.445753,-179.74118
24777500000,-19.809692,109.23947
24791250000,-21.645447,38.998951
24805000000,-29.173141,-57.906952
24818750000,-22.3615,159.18384
24832500000,-19.149004,86.196976
24846250000,-20.148733,19.864531
24860000000,-28.105595,-74.463676
24873750000,-19.605404,157.97984
24887500000,-17.038847,92.247986
24901250000,-19.046827,26.96752
24915000000,-30.213793,-81.878685
24928750000,-20.109211,153.94481
24942500000,-16.443905,83.805244
24956250000,-16.148001,22.978081
24970000000,-31.142521,-103.16708
24983750000,-22.228296,153.01385
24997500000,-19.78179,85.254433
25011250000,-22.187218,14.900241
25025000000,-29.823154,-110.36475
25038750000,-22.921652,130.37631
25052500000,-18.338898,48.870647
25066250000,-16.42256,-24.846939
25080000000,-28.801367,-107.08161
25093750000,-21.359325,134.69359
25107500000,-17.54541,62.703495
25121250000,-16.285086,-6.7638054
25135000000,-31.786173,-138.95958
25148750000,-22.130936,144.19962
25162500000,-21.181049,80.34639
25176250000,-26.245525,8.2148056
25190000000,-30.291149,-152.0242
25203750000,-20.546356,132.0891
25217500000,-19.70591,73.541229
25231250000,-23.093937,8.5211258
25245000000,-31.887896,-153.03909
25258750000,-23.833067,135.57961
25272500000,-22.22187,58.668449
25286250000,-22.863573,-18.47896
25300000000,-33.152817,-170.28561
25313750000,-21.925253,135.35765
25327500000,-20.599749,79.331436
25341250000,-23.060085,22.10829
25355000000,-28.360958,168.88901
25368750000,-22.177265,125.51846
25382500000,-21.290047,70.450317
25396250000,-26.882631,17.33584
25410000000,-29.708817,172.39912
25423750000,-22.927614,135.01054
25437500000,-22.005524,88.723946
25451250000,-26.798607,42.35693
25465000000,-33.633423,156.77238
25478750000,-23.985991,144.28232
25492500000,-21.504534,102.88578
25506250000,-24.410162,63.259007
25520000000,-33.317749,130.22374
25533750000,-25.136459,118.61502
25547500000,-24.971777,79.362671
25561250000,-30.790529,28.577333
25575000000,-30.641949,136.44131
25588750000,-21.741478,132.2533
25602500000,-20.982145,94.244377
25616250000,-24.619558,58.692635
25630000000,-31.49789,112.78671
25643750000,-23.939379,139.03775
25657500000,-20.81708,99.555664
25671250000,-18.998228,57.090572
25685000000,-30.214487,94.199303
25698750000,-32.739338,141.46053
25712500000,-27.637186,107.33847
25726250000,-27.591719,78.631058
25740000000,-32.565578,96.875557
25753750000,-33.088718,152.78654
25767500000,-27.520655,111.56454
25781250000,-28.748835,72.846161
25795000000,-35.181606,84.640747
25808750000,-29.900723,122.80507
25822500000,-23.208872,75.960915
25836250000,-21.359144,14.153385
25850000000,-32.229763,53.703323
25863750000,-29.326969,-174.63655
25877500000,-23.743254,137.77777
25891250000,-24.142014,86.80323
25905000000,-30.852312,43.735519
25918750000,-28.923244,165.68225
25932500000,-22.399076,117.57264
25946250000,-22.836571,62.318775
25960000000,-32.611988,23.766201
25973750000,-24.273958,-173.78468
25987500000,-20.484293,128.3073
26001250000,-21.205793,68.167816
26015000000,-32.763618,14.304649
26028750000,-23.627954,-179.42192
26042500000,-18.610634,117.0139
26056250000,-17.324381,59.220474
26070000000,-33.92469,13.807252
26083750000,-25.574457,-168.5887
26097500000,-21.372435,122.6835
26111250000,-21.758099,61.926395
26125000000,-32.233879,-22.852909
26138750000,-29.160744,175.45029
26152500000,-21.200361,78.220032
26166250000,-18.069685,-1.4147356
26180000000,-28.813164,-34.637276
26193750000,-24.029274,-165.3076
26207500000,-20.213476,112.3443
26221250000,-20.57435,32.67466
26235000000,-29.81822,-48.540852
26248750000,-20.966515,-168.84137
26262500000,-18.952803,127.00765
26276250000,-22.297009,57.142445
26290000000,-28.645023,-57.897118
26303750000,-21.07535,-176.7348
26317500000,-19.379536,114.10824
26331250000,-20.633427,43.575424
26345000000,-28.487148,-60.931572
26358750000,-23.014994,178.29906
26372500000,-20.151083,91.883987
26386250000,-18.863817,10.822369
26400000000,-27.779633,-80.184464
26413750000,-19.438627,171.77631
26427500000,-16.873194,100.17601
26441250000,-17.093967,33.548725
26455000000,-25.790966,-101.74594
26468750000,-18.908165,168.96599
26482500000,-16.725384,104.74883
26496250000,-18.117966,40.868343
26510000000,-24.822693,-101.8942
26523750000,-19.86841,177.28796
26537500000,-18.996334,106.8861
26551250000,-21.965414,26.465824
26565000000,-25.992359,-108.12911
26578750000,-18.423639,165.81056
26592500000,-16.072884,98.786026
26606250000,-17.731337,32.03334
26620000000,-24.805111,-120.17593
26633750000,-17.948164,160.64174
26647500000,-17.448582,93.869583
26661250000,-21.922028,13.339821
26675000000,-23.049332,-126.57185
26688750000,-17.007813,159.20876
26702500000,-17.078579,94.559799
26716250000,-21.563828,18.420929
26730000000,-23.525036,-132.05348
26743750000,-17.290592,153.41817
26757500000,-16.212189,91.184296
26771250000,-17.902834,30.549906
26785000000,-23.128872,-144.67587
26798750000,-18.553968,147.34746
26812500000,-19.259502,81.055061
26826250000,-24.124491,-4.9478555
26840000000,-21.240469,-149.45528
26853750000,-17.349257,145.65791
26867500000,-18.017811,81.894539
26881250000,-23.266886,-4.063827
26895000000,-21.285927,-151.61104
26908750000,-17.312384,135.26721
26922500000,-15.736579,70.014511
26936250000,-16.259628,6.3188925
26950000000,-21.410685,-162.50507
26963750000,-19.183044,136.73521
26977500000,-21.256071,72.066017
26991250000,-28.254013,-45.735386
27005000000,-20.923584,-169.33138
27018750000,-17.830645,131.59315
27032500000,-19.806995,69.276009
27046250000,-26.984531,-33.214024
27060000000,-20.48645,-171.40271
27073750000,-20.027203,122.4414
27087500000,-23.136118,40.933868
27101250000,-24.925314,-72.914322
27115000000,-20.308163,179.08273
27128750000,-19.285463,126.40871
27142500000,-23.375443,65.90831
27156250000,-38.36953,-56.432175
27170000000,-19.765173,172.55894
27183750000,-19.463451,117.8724
27197500000,-23.610319,57.258495
27211250000,-30.569092,-99.182243
27225000000,-19.886301,168.91985
27238750000,-21.395096,106.84658
27252500000,-25.700407,26.966713
27266250000,-25.855957,-106.8724
27280000000,-19.939369,162.55649
27293750000,-19.062828,110.02179
27307500000,-20.921463,58.080029
27321250000,-26.990944,26.442125
27335000000,-19.564928,157.00447
27348750000,-20.813379,104.66531
27362500000,-28.066545,43.206722
27376250000,-28.970932,-157.39865
27390000000,-20.052517,151.50006
27403750000,-21.941498,101.92278
27417500000,-32.495243,30.671761
27431250000,-26.60569,-160.10764
27445000000,-20.338737,145.21301
27458750000,-21.050085,84.078972
27472500000,-24.306948,15.249876
27486250000,-29.600042,-55.97308
27500000000,-19.605837,142.29478
27513750000,-23.282492,92.256104
27527500000,-38.360168,-18.164505
27541250000,-25.404106,172.42554
27555000000,-19.590639,139.73566
27568750000,-24.142458,79.718582
27582500000,-34.554981,-36.126892
27596250000,-24.130585,-177.59544
27610000000,-20.235146,132.29533
27623750000,-27.489429,58.470367
27637500000,-32.726063,-100.58377
27651250000,-22.226852,-179.7811
27665000000,-20.717764,127.55735
27678750000,-25.587214,85.142929
27692500000,-30.078716,124.97321
27706250000,-22.782385,113.78532
27720000000,-20.746647,129.46364
27733750000,-27.350504,75.289879
27747500000,-31.081553,-127.22193
27761250000,-22.985468,173.02551
27775000000,-20.78957,121.88492
27788750000,-28.576464,41.226902
27802500000,-26.707067,-113.59019
27816250000,-22.225124,170.83597
27830000000,-20.515532,116.08748
27843750000,-31.433193,73.169548
27857500000,-27.506151,167.62286
27871250000,-19.852943,118.29436
27885000000,-20.934416,118.98258
27898750000,-30.961786,70.199753
27912500000,-30.461933,-178.40894
27926250000,-22.530634,139.43874
27940000000,-21.960073,122.44949
27953750000,-29.247375,93.584084
27967500000,-28.041428,139.65239
27981250000,-21.590107,110.54564
27995000000,-21.640539,112.65608
28008750000,-28.9571,59.166786
28022500000,-30.085197,134.62854
28036250000,-21.675039,90.957237
28050000000,-21.206894,109.7891
28063750000,-33.51878,33.068565
28077500000,-26.286123,-169.13469
28091250000,-21.24264,133.78938
28105000000,-22.426123,115.29237
28118750000,-43.39465,84.180672
28132500000,-24.962234,-166.03432
28146250000,-21.748028,150.56013
28160000000,-22.654137,114.43354
28173750000,-29.363836,18.722313
28187500000,-27.803303,-111.62308
28201250000,-25.313406,162.2899
28215000000,-21.381191,112.16906
28228750000,-33.501331,-16.063793
28242500000,-22.628746,-147.8735
28256250000,-19.191706,150.1559
28270000000,-21.346872,112.80107
28283750000,-34.124229,8.9244699
28297500000,-25.225847,-147.46873
28311250000,-21.335003,153.24219
28325000000,-22.973389,114.31592
28338750000,-28.490921,-2.814245
28352500000,-25.07897,-123.66653
28366250000,-22.254547,169.5871
28380000000,-22.155565,112.60686
28393750000,-33.22142,-19.681011
28407500000,-22.518166,-145.35042
28421250000,-19.038832,156.29958
28435000000,-20.927588,111.21547
28448750000,-30.674465,15.648577
28462500000,-24.357702,-139.36903
28476250000,-20.550812,159.35023
28490000000,-21.284237,107.83364
28503750000,-33.644302,-39.202682
28517500000,-22.057442,-149.17859
28531250000,-19.496595,151.48198
28545000000,-21.753782,105.09715
28558750000,-37.043865,11.682548
28572500000,-23.765255,-179.84761
28586250000,-17.832886,114.07454
28600000000,-21.107735,108.58832
28613750000,-28.20422,-12.274351
28627500000,-21.333828,-126.32812
28641250000,-18.563707,165.54874
28655000000,-20.60454,106.37023
28668750000,-27.429064,-7.899848
28682500000,-21.450954,-133.19791
28696250000,-18.805679,155.9527
28710000000,-20.115162,99.977417
28723750000,-25.509188,-0.63620526
28737500000,-26.447845,-132.9173
28751250000,-22.196188,124.39451
28765000000,-20.778482,98.922005
28778750000,-27.69725,-25.621061
28792500000,-21.14072,-153.11552
28806250000,-17.243038,135.46686
28820000000,-20.559956,98.573807
28833750000,-25.365675,-22.848078
28847500000,-20.509146,-134.23018
28861250000,-18.134012,157.70819
28875000000,-19.924261,92.143959
28888750000,-21.516474,-16.783911
28902500000,-19.205109,-118.5388
28916250000,-18.365141,163.07285
28930000000,-19.346102,89.601295
28943750000,-25.441868,-28.325804
28957500000,-20.819513,-154.23901
28971250000,-16.810858,121.92916
28985000000,-20.254745,87.778137
28998750000,-23.454071,-43.076073
29012500000,-18.772335,-137.69937
29026250000,-17.565851,151.6588
29040000000,-20.471403,85.787659
29053750000,-21.839542,-37.277302
29067500000,-19.098858,-133.07715
29081250000,-17.670868,151.66504
29095000000,-19.701418,80.724388
29108750000,-24.426144,-39.504818
29122500000,-19.424444,-164.69984
29136250000,-15.546062,116.06777
29150000000,-20.101606,78.287544
29163750000,-22.956732,-52.521492
29177500000,-17.782394,-157.11862
29191250000,-15.718852,130.89357
29205000000,-20.772722,72.042801
29218750000,-22.410496,-56.334293
29232500000,-18.065521,-148.90108
29246250000,-17.494463,140.62306
29260000000,-20.552084,70.445038
29273750000,-25.177084,-65.379402
29287500000,-18.356983,-175.67354
29301250000,-14.532082,111.60896
29315000000,-20.132545,71.30304
29328750000,-24.178602,-47.264671
29342500000,-20.700336,-163.83047
29356250000,-17.22328,104.49452
29370000000,-21.349066,66.738571
29383750000,-21.420311,-78.631165
29397500000,-16.815025,-162.39897
29411250000,-15.776702,128.56303
29425000000,-21.864105,59.223499
29438750000,-23.847038,-63.66877
29452500000,-20.66802,-172.0878
29466250000,-17.496496,101.04039
29480000000,-21.806948,64.665367
29493750000,-20.741823,-64.60144
29507500000,-17.232786,-150.16342
29521250000,-17.005022,143.44197
29535000000,-22.227024,64.464722
29548750000,-22.545076,-79.015656
29562500000,-17.242151,-162.18367
29576250000,-17.416136,132.49153
29590000000,-23.414833,56.693901
29603750000,-20.710524,-94.626923
29617500000,-16.187252,-166.97794
29631250000,-17.033428,131.01169
29645000000,-23.482693,53.896191
29658750000,-22.473684,-98.953659
29672500000,-17.010971,178.79404
29686250000,-14.37898,109.79336
29700000000,-24.005224,64.378975
29713750000,-21.685541,-76.32515
29727500000,-18.219944,-151.36519
29741250000,-18.330898,142.97238
29755000000,-25.108547,61.52211
29768750000,-22.505487,-76.596504
29782500000,-19.025854,-156.27641
29796250000,-19.119854,133.74178
29810000000,-25.641615,53.924221
29823750000,-22.725248,-65.864571
29837500000,-20.20167,-149.96404
29851250000,-21.069103,140.793
29865000000,-26.134821,64.028046
29878750000,-23.060703,-68.514725
29892500000,-19.455883,-141.61678
29906250000,-20.881227,153.25317
29920000000,-26.176651,81.064331
29933750000,-26.150835,-70.795654
29947500000,-21.321358,-152.12592
29961250000,-21.260281,140.62428
29975000000,-26.156275,79.113556
