!Keysight Technologies,N5224B,MY57181201,A.12.70.07
!Date: Friday, July 15, 2022 16:15:42
!Correction: S11(Full 2 Port(1,2)) 
!S21(Full 2 Port(1,2)) 
!S12(Full 2 Port(1,2)) 
!S22(Full 2 Port(1,2)) 
!S2P File: Measurements: S11, S21, S12, S22:
# Hz S  dB   R 50
22000000000 -21.392307 132.79102 -24.564054 115.27139 -24.553513 115.22164 -23.713842 126.50095
22013750000 -17.952436 62.237339 -24.655825 13.535331 -24.623981 13.9682 -20.899654 71.863785
22027500000 -18.54114 -6.6485238 -24.703056 -89.197319 -24.602255 -88.445724 -22.99523 4.3080897
22041250000 -23.01198 -97.107384 -24.579784 168.56209 -24.462376 168.78462 -29.244406 -104.59647
22055000000 -20.986988 135.15164 -24.51354 66.677666 -24.548035 66.267387 -23.036751 129.38327
22068750000 -17.204596 51.098019 -24.47937 -35.724445 -24.594364 -36.085121 -20.17617 52.407021
22082500000 -16.208271 -20.71442 -24.383194 -138.12408 -24.603691 -138.82567 -20.32933 -18.039682
22096250000 -16.871124 -91.368584 -24.253757 119.42992 -24.632093 119.05935 -22.540167 -108.08389
22110000000 -20.076141 128.87582 -24.555655 16.253687 -24.53797 16.235369 -21.975597 129.0824
22123750000 -17.172701 57.039974 -24.630594 -85.798256 -24.648113 -85.358635 -18.338995 42.933769
22137500000 -17.969358 -16.265238 -24.409748 172.68544 -24.376152 173.39128 -16.464466 -31.81159
22151250000 -22.04204 -108.1975 -24.373138 69.290565 -24.261318 69.748405 -15.338561 -107.85086
22165000000 -19.512064 127.57095 -24.58161 -33.599472 -24.558977 -33.936226 -21.69031 127.35983
22178750000 -16.487072 48.510643 -24.586296 -135.09399 -24.543928 -135.56889 -17.986115 48.231091
22192500000 -15.783967 -18.824551 -24.440859 124.0393 -24.366709 123.10007 -17.193781 -22.036217
22206250000 -17.675817 -92.477699 -24.328823 20.738565 -24.258108 19.951458 -17.62038 -92.730942
22220000000 -19.341038 125.72166 -24.633671 -83.084785 -24.577833 -83.187462 -21.122196 119.79226
22233750000 -16.839844 45.103954 -24.733988 176.66133 -24.671928 176.29524 -19.34766 51.431438
22247500000 -15.979276 -33.150616 -24.562286 73.893669 -24.519888 74.203621 -21.667635 -28.575474
22261250000 -16.174339 -109.31139 -24.532946 -29.554556 -24.564754 -29.138044 -23.962824 -130.96054
22275000000 -18.291172 121.76678 -24.471405 -131.50861 -24.489183 -131.58458 -20.360929 118.74914
22288750000 -16.41926 47.923359 -24.523445 126.93064 -24.684298 126.02131 -18.025675 48.74509
22302500000 -17.054113 -26.013683 -24.392204 25.717356 -24.674978 24.551109 -19.345974 -26.337181
22316250000 -20.835545 -123.31497 -24.122452 -77.204216 -24.494898 -78.360809 -22.873224 -121.36305
22330000000 -17.939257 116.90329 -24.487896 179.51805 -24.520632 179.18059 -20.039785 116.77314
22343750000 -15.67311 37.588398 -24.56114 78.068733 -24.486465 78.3246 -18.573576 51.571854
22357500000 -15.779512 -33.342979 -24.331589 -24.658009 -24.146921 -24.318327 -20.961666 -29.223272
22371250000 -18.092243 -110.86783 -24.353008 -127.7645 -24.043201 -127.81728 -24.509996 -143.59975
22385000000 -17.953339 109.87559 -24.445454 130.09927 -24.420452 129.82642 -19.281881 107.40734
22398750000 -15.999511 36.127899 -24.408215 28.548864 -24.346319 27.728428 -19.005676 39.751541
22412500000 -15.971857 -38.496967 -24.075701 -72.792923 -24.101242 -73.993866 -21.633156 -43.214134
22426250000 -18.53014 -120.85793 -24.036495 -176.9151 -24.272491 -178.30865 -22.736519 -164.49568
22440000000 -17.519726 110.11735 -24.419199 80.248817 -24.421665 80.11657 -18.703068 103.56752
22453750000 -15.531445 37.266125 -24.408482 -21.8127 -24.503447 -21.109262 -17.535233 33.745659
22467500000 -16.728531 -35.406429 -24.45867 -124.32021 -24.431784 -123.12983 -19.685408 -40.205395
22481250000 -20.713928 -133.56039 -24.473927 133.31157 -24.326921 133.57686 -23.379128 -148.49702
22495000000 -17.0777 103.37875 -24.362482 30.517935 -24.363192 30.312536 -19.058065 101.64789
22508750000 -15.52696 23.868942 -24.426195 -69.090294 -24.389416 -69.581726 -18.031118 39.568996
22522500000 -15.421452 -56.085411 -24.258638 -171.13161 -24.151068 -172.34909 -22.008205 -31.820736
22536250000 -16.467602 -135.73088 -23.97278 84.452377 -23.974537 83.779755 -26.04797 -164.84071
22550000000 -16.92131 97.855568 -24.359304 -18.488588 -24.342098 -18.579662 -18.998974 93.542542
22563750000 -16.287603 28.656431 -24.537014 -120.56936 -24.483118 -120.26313 -19.420641 30.709244
22577500000 -19.076397 -49.046371 -24.386583 137.70198 -24.304161 137.98849 -24.142225 -65.562248
22591250000 -21.970726 -166.01512 -24.476599 34.493168 -24.291786 34.347633 -22.259457 165.21759
22605000000 -16.951878 93.49453 -24.441185 -67.544197 -24.452669 -67.662804 -17.854 86.753014
22618750000 -15.346746 21.264759 -24.371456 -168.36565 -24.342579 -168.68996 -17.35008 18.988922
22632500000 -16.434313 -51.14407 -24.126568 88.83963 -24.151066 88.66851 -20.200333 -64.924591
22646250000 -20.393898 -130.71916 -24.188 -13.452135 -24.300076 -13.514885 -22.592497 175.49588
22660000000 -16.458389 88.904129 -24.408516 -116.53588 -24.39543 -116.67333 -18.034468 84.071068
22673750000 -15.648364 11.960969 -24.268965 142.06128 -24.488235 142.39937 -18.345541 24.064091
22687500000 -16.301058 -67.43692 -24.066341 40.177372 -24.284622 40.401291 -24.456079 -54.672462
22701250000 -18.268301 -149.92064 -23.978193 -64.048615 -24.343725 -63.880669 -24.84157 148.26508
22715000000 -16.462465 82.194199 -24.365023 -164.33426 -24.375811 -164.44739 -18.51803 75.436142
22728750000 -16.722204 12.915201 -24.247385 93.999443 -24.173458 93.788315 -19.357388 16.186539
22742500000 -20.515987 -67.448135 -24.159111 -8.3023319 -24.060328 -9.0244455 -26.424088 -49.916977
22756250000 -23.403896 169.17352 -24.049812 -110.98854 -24.075722 -111.22108 -29.531824 98.179718
22770000000 -16.645842 76.459915 -24.229239 146.27393 -24.251467 146.22891 -17.88965 68.293022
22783750000 -16.233688 4.2300425 -24.166403 44.044571 -24.207697 44.408581 -19.387665 -3.4716179
22797500000 -17.570143 -68.551918 -24.146099 -59.743862 -24.173861 -59.132095 -22.71999 -99.246735
22811250000 -21.966368 -152.28477 -24.31196 -162.32961 -24.229082 -161.60741 -21.307264 146.328
22825000000 -16.455736 72.490295 -24.215557 96.490913 -24.235481 96.285858 -17.602015 65.532959
22838750000 -16.84343 2.8078768 -24.283892 -5.0641532 -24.186945 -5.6447811 -19.868591 -0.51296526
22852500000 -20.259396 -75.315643 -24.07369 -106.77678 -24.046511 -107.5919 -25.393827 -97.652985
22866250000 -24.801189 166.87715 -23.873428 150.36823 -24.09222 149.61185 -22.098166 128.95386
22880000000 -16.542503 65.040459 -24.315584 46.997898 -24.299093 47.095966 -18.080521 57.773312
22893750000 -17.576502 -2.7345958 -23.970337 -54.700798 -24.076292 -54.120186 -20.084324 -24.985596
22907500000 -21.894218 -77.489273 -23.964273 -157.81293 -23.994438 -157.42424 -21.959969 -124.88859
22921250000 -29.094744 146.4424 -24.332741 100.019 -24.166361 99.765724 -20.640972 131.96272
22935000000 -17.078922 60.710758 -24.086468 -1.6267958 -24.105465 -1.7360497 -18.410379 46.896202
22948750000 -17.65691 -9.4688377 -24.204685 -103.3908 -23.964365 -103.12173 -21.740612 -32.714115
22962500000 -20.521496 -82.302933 -24.174002 153.56091 -23.730473 153.98897 -22.586479 -149.16234
22976250000 -27.189495 173.05577 -24.240868 50.371094 -23.737726 50.387207 -19.387594 114.7576
22990000000 -16.945004 54.952206 -24.175632 -51.142075 -24.201326 -51.326992 -18.387959 44.31443
23003750000 -18.96093 -10.081451 -24.003698 -152.75336 -24.184216 -152.97504 -21.68741 -24.309631
23017500000 -25.793312 -104.70676 -23.915117 104.49217 -24.115288 104.08247 -26.372232 -145.21321
23031250000 -23.051172 103.99463 -23.970879 2.1444411 -24.196152 1.4061624 -21.255026 105.6595
23045000000 -17.350132 47.982574 -24.290451 -99.36602 -24.293207 -99.64238 -18.672796 39.440315
23058750000 -19.309067 -18.787384 -24.080318 158.93541 -24.017456 158.71191 -25.155624 -39.432259
23072500000 -25.494959 -88.098457 -23.925602 55.8787 -23.897272 55.06786 -24.175158 172.02403
23086250000 -33.701023 61.180355 -23.978022 -46.870007 -24.175192 -47.482807 -19.127464 89.157654
23100000000 -18.26615 44.484673 -24.118906 -148.1609 -24.125086 -148.46263 -18.827995 30.715633
23113750000 -21.037491 -22.162308 -23.982403 108.67997 -24.08497 108.49454 -24.258642 -73.861366
23127500000 -29.058449 -120.3763 -24.061325 6.2965136 -24.142525 5.7778969 -20.720251 164.79437
23141250000 -25.213484 80.01683 -24.199301 -95.699028 -24.279844 -96.493683 -17.963238 91.16819
23155000000 -18.06962 39.115936 -24.066509 162.76326 -24.089352 162.43002 -18.818048 24.068308
23168750000 -22.049101 -27.018551 -24.048719 60.224171 -23.939848 60.24485 -24.617117 -64.856895
23182500000 -33.229507 -168.58408 -24.229662 -42.950382 -23.9615 -42.425613 -24.732929 162.46777
23196250000 -21.628773 59.802254 -24.269058 -144.30026 -23.969969 -144.21306 -20.118925 78.754257
23210000000 -18.727007 30.710611 -24.010803 113.23209 -24.011858 113.25794 -19.951727 17.235422
23223750000 -21.808331 -48.861 -23.86437 11.179483 -23.982567 10.388982 -29.495033 -49.162472
23237500000 -27.247124 -143.76903 -23.934978 -91.664261 -24.212202 -92.896545 -25.756027 96.250252
23251250000 -30.563465 79.351402 -24.004326 166.38611 -24.352171 165.65221 -18.945797 32.806221
23265000000 -20.133005 27.59553 -24.05895 64.478584 -24.052485 64.575157 -20.307089 9.8871403
23278750000 -27.457214 -52.507053 -23.981838 -38.797089 -23.877239 -38.627007 -25.293589 -126.12006
23292500000 -25.991257 142.63724 -24.049007 -140.90823 -23.950636 -140.45924 -18.600016 140.71469
23306250000 -20.573298 67.765999 -24.090597 117.81978 -23.944674 118.33302 -16.988457 74.993538
23320000000 -20.178646 24.012827 -24.020372 15.440097 -24.066444 15.331043 -20.557352 5.0703111
23333750000 -25.581787 -43.883244 -23.868296 -87.258698 -23.989269 -87.500092 -24.562021 -97.140427
23347500000 -34.394852 123.29757 -23.876375 169.91556 -24.057562 169.84384 -22.748589 147.65781
23361250000 -21.883047 30.546041 -23.998777 68.016106 -24.125883 68.036667 -20.867046 65.322258
23375000000 -20.823328 19.065151 -24.093189 -33.322006 -24.023813 -33.4389 -21.338945 -1.7775722
23388750000 -28.041418 -57.424091 -24.065413 -136.30548 -23.954992 -135.7847 -26.041309 -111.36043
23402500000 -30.784416 97.505455 -24.190252 120.66548 -24.019516 121.40726 -25.191128 139.33755
23416250000 -22.549551 23.871647 -24.174881 19.030748 -24.100021 19.681383 -23.751019 49.184452
23430000000 -22.362522 12.272336 -24.02109 -82.220802 -24.029634 -82.389336 -22.49317 -9.7931786
23443750000 -39.047153 -64.714081 -23.925039 174.61421 -24.105158 174.38426 -24.121586 -135.9729
23457500000 -25.200897 91.656731 -24.039116 72.260117 -24.283382 71.830635 -21.671175 127.37224
23471250000 -20.822966 30.372913 -24.033016 -28.33234 -24.394245 -28.84856 -20.583776 55.338112
23485000000 -23.592266 11.95641 -23.980064 -131.11887 -23.945324 -131.4854 -23.473669 -12.905339
23498750000 -36.973671 -31.103411 -24.054399 125.81259 -23.925934 126.24583 -24.710039 -143.23044
23512500000 -27.588675 45.677391 -24.233999 23.058371 -24.003359 24.042997 -21.843056 123.0751
23526250000 -20.865036 -5.6610427 -24.308798 -77.967674 -23.851274 -77.31842 -20.974245 52.987411
23540000000 -25.014799 8.2813568 -23.954224 179.84169 -24.030682 179.79984 -25.069181 -18.239727
23553750000 -39.590775 126.26659 -24.026558 77.631584 -23.995651 77.079323 -28.741814 -165.98796
23567500000 -22.615572 73.313614 -24.055237 -24.395628 -24.018904 -25.056702 -21.960268 95.635994
23581250000 -20.361412 19.612875 -24.051262 -126.12209 -23.995825 -126.31802 -21.295383 30.754232
23595000000 -26.641479 6.6944013 -23.898306 131.65385 -23.925735 131.54341 -25.713533 -33.446484
23608750000 -32.099384 95.575394 -23.981728 28.016125 -23.918493 27.759932 -22.025408 155.88507
23622500000 -22.49073 57.139828 -24.193563 -73.442894 -24.147266 -74.328377 -17.22463 92.304214
23636250000 -18.850519 3.0228262 -23.936501 -174.55634 -24.110735 -175.69057 -18.104454 35.874866
23650000000 -28.22868 15.921904 -23.904392 82.274086 -23.895348 82.016144 -26.867083 -35.890762
23663750000 -39.752605 82.059181 -23.84705 -20.662312 -23.940529 -21.121489 -23.015652 -179.83461
23677500000 -25.836407 43.711967 -23.873281 -122.5701 -24.060848 -123.51884 -19.6199 111.84082
23691250000 -21.375015 -15.978046 -23.823006 135.93665 -24.151539 134.87869 -21.626049 49.625229
23705000000 -31.090008 11.730888 -23.969908 33.378422 -23.989857 33.107983 -30.046892 -34.124729
23718750000 -29.161928 110.48025 -24.074486 -69.867828 -23.980549 -69.493126 -28.038528 148.34746
23732500000 -22.069733 67.053864 -24.195452 -171.59662 -23.98579 -171.20622 -23.038918 82.244675
23746250000 -21.50572 15.420552 -24.3148 86.383507 -23.964464 86.922905 -23.262648 17.975664
23760000000 -31.827888 43.380459 -24.095325 -15.321409 -24.104563 -15.479257 -32.681458 -40.100674
23773750000 -28.352024 68.078728 -24.036425 -117.14043 -24.060841 -117.87908 -23.675486 125.18948
23787500000 -23.447334 31.040646 -24.10668 141.31651 -24.095881 140.05914 -18.555708 65.190216
23801250000 -21.190908 -18.344164 -23.96349 39.618896 -24.18087 37.989632 -18.30122 8.663043
23815000000 -30.018335 56.020821 -24.034456 -63.620831 -24.042612 -63.663887 -32.605305 -29.738152
23828750000 -29.959608 96.63475 -24.136292 -166.25848 -24.19137 -166.00655 -23.556984 143.81439
23842500000 -25.803352 76.261604 -24.181711 92.041321 -24.189941 92.377182 -18.975798 80.78611
23856250000 -26.449099 44.86787 -24.114555 -9.7393761 -24.062428 -9.1152515 -18.304661 27.246311
23870000000 -29.945837 56.135128 -23.912874 -112.11973 -23.889585 -112.17717 -37.364326 4.7039571
23883750000 -26.505112 68.587288 -23.959837 144.88452 -23.911442 144.78438 -28.472414 131.8127
23897500000 -21.615492 32.657398 -24.012234 43.055481 -24.001841 42.683205 -23.566643 71.329552
23911250000 -20.07066 -15.513639 -24.009089 -58.690674 -23.984192 -59.077763 -26.132462 22.212864
23925000000 -29.510464 71.971863 -23.925119 -161.53166 -23.93037 -161.90858 -46.895378 34.266346
23938750000 -27.404922 50.220829 -23.970602 96.005074 -24.01376 96.128174 -27.461348 129.532
23952500000 -25.280861 6.8819394 -24.041658 -5.947937 -24.072153 -5.7158737 -23.668457 75.322639
23966250000 -23.997524 -47.461418 -24.077343 -107.69626 -24.094374 -106.89283 -26.274591 23.037189
23980000000 -26.482161 69.82225 -23.964397 150.50577 -24.010487 150.48212 -38.646503 5.2039676
23993750000 -27.957062 75.690529 -23.884285 48.404663 -24.080238 48.06501 -26.666122 98.318375
24007500000 -26.289558 62.5812 -23.779732 -53.520016 -24.222683 -54.151024 -20.598783 44.837059
24021250000 -25.41378 45.289234 -23.554775 -155.51036 -24.147171 -155.10226 -17.904869 -13.320844
24035000000 -26.215946 65.453308 -23.968235 101.87816 -24.007095 101.55453 -32.93837 28.658773
24048750000 -26.66852 25.604147 -23.864351 -0.10943699 -23.975229 0.048697297 -30.016874 135.86954
24062500000 -26.215147 -7.8671989 -23.800734 -102.5619 -23.989334 -102.86715 -25.547337 95.57296
24076250000 -25.561916 -51.953423 -23.764938 155.49211 -23.945349 155.13853 -26.224463 52.639603
24090000000 -25.330334 62.703152 -23.919762 53.044647 -23.906734 52.741592 -32.287655 49.707951
24103750000 -28.438118 57.473373 -23.921951 -49.404987 -23.831381 -49.323975 -26.735943 111.17046
24117500000 -28.142349 59.288925 -23.938238 -151.88812 -23.701447 -151.42099 -23.16114 76.885994
24131250000 -25.360607 39.146866 -24.042257 106.36488 -23.645863 106.47643 -23.958561 37.066044
24145000000 -24.875681 61.115543 -24.035978 3.8619614 -24.044689 3.455992 -33.180386 40.646671
24158750000 -30.239187 59.404156 -24.011251 -98.119194 -23.913733 -98.377419 -29.548376 151.65788
24172500000 -27.939014 78.664825 -24.090055 159.07834 -23.969341 158.87547 -24.693384 103.4589
24186250000 -25.128675 72.928551 -24.344452 57.494267 -24.110958 57.449364 -24.294062 55.818035
24200000000 -24.523714 55.328178 -23.980871 -44.039135 -23.965271 -44.335716 -30.042004 28.39345
24213750000 -32.130043 -14.011661 -23.926176 -146.19527 -24.029785 -146.56419 -29.557663 169.3364
24227500000 -32.444798 175.87674 -23.890995 111.58238 -24.049084 111.32989 -22.993868 119.03056
24241250000 -26.800217 102.11382 -23.875166 9.177865 -24.082005 9.174367 -22.525368 69.974709
24255000000 -24.024296 52.46032 -23.964516 -92.605194 -23.986113 -92.730972 -28.856544 28.651623
24268750000 -37.460396 81.988533 -23.936068 165.87753 -23.989607 165.25047 -32.332027 141.75343
24282500000 -25.831167 116.74572 -23.8311 62.92598 -23.948177 62.149284 -23.62093 96.097733
24296250000 -21.662544 76.367805 -23.815166 -38.945324 -24.038378 -39.690136 -22.896532 52.371197
24310000000 -24.381044 48.118462 -23.905054 -140.51422 -23.927353 -140.63483 -29.631809 21.939602
24323750000 -28.201672 5.2078056 -23.781277 116.56159 -23.867315 116.46302 -26.099066 151.4951
24337500000 -30.583483 34.280235 -23.808834 14.634933 -23.768997 14.431056 -19.496918 102.71159
24351250000 -23.217623 -1.0017906 -23.781916 -87.638748 -23.734108 -87.82515 -20.156677 54.226582
24365000000 -23.895245 37.203213 -23.89389 170.05981 -23.985037 169.81425 -27.886137 7.7990441
24378750000 -38.649536 31.893814 -23.93615 67.450157 -23.880497 67.292946 -24.8353 -175.18375
24392500000 -26.292063 90.008163 -24.133663 -34.416573 -23.981007 -34.587284 -19.424665 120.32182
24406250000 -20.842884 35.129368 -24.240858 -136.11215 -24.053335 -136.2281 -19.494158 65.654694
24420000000 -24.472498 35.43615 -23.935448 122.28481 -23.962809 122.1265 -26.790943 3.1365471
24433750000 -37.933521 32.995762 -23.958439 19.827314 -23.950167 19.729574 -30.275738 -166.47809
24447500000 -24.862814 74.737267 -24.034731 -82.024055 -24.002956 -82.422859 -23.711878 115.10317
24461250000 -20.677776 27.993143 -24.010654 175.9743 -23.999451 175.71951 -23.023727 51.808235
24475000000 -24.677677 34.041168 -23.813997 73.964607 -23.867821 73.956367 -27.271921 1.0957628
24488750000 -35.242302 8.2687397 -23.916506 -28.297968 -23.918531 -29.114584 -36.567127 159.25565
24502500000 -27.581291 81.410965 -23.988777 -130.27715 -24.047245 -131.19841 -24.72673 51.663803
24516250000 -21.23049 18.453281 -23.909559 128.23177 -24.018045 127.64825 -19.855225 -19.036175
24530000000 -23.809269 27.740051 -23.871309 24.686029 -23.852612 24.679899 -27.739744 -13.232904
24543750000 -32.823303 -169.35721 -23.880358 -78.105377 -23.935848 -78.240097 -27.427008 164.32578
24557500000 -21.692104 114.6712 -23.99983 -179.3701 -24.041416 179.95879 -19.754641 78.574142
24571250000 -20.138601 61.797714 -23.995935 79.520927 -24.152117 78.360115 -16.546795 8.9453468
24585000000 -25.461243 15.06809 -23.868191 -23.622276 -23.859562 -23.681902 -27.262476 -16.863586
24598750000 -42.275089 98.423676 -23.845896 -125.48306 -23.851768 -125.97899 -24.375114 -157.30656
24612500000 -22.285995 64.500908 -23.83058 133.01477 -23.82666 132.57797 -21.387922 118.01033
24626250000 -18.225437 3.4565029 -23.66156 30.873186 -23.822184 30.476154 -21.70569 49.617527
24640000000 -26.336117 15.928982 -23.818384 -71.523949 -23.854713 -71.669647 -27.741465 -33.657192
24653750000 -31.743513 135.35088 -23.718056 -174.46599 -23.765469 -174.54359 -24.591497 173.6992
24667500000 -21.593447 77.957352 -23.917225 83.894081 -23.977005 83.545464 -19.826246 98.035721
24681250000 -17.966017 18.123484 -23.888025 -17.43799 -23.878376 -17.462318 -20.463182 33.365047
24695000000 -26.881584 16.631927 -23.873514 -120.27645 -23.87961 -120.41345 -27.701878 -41.672955
24708750000 -32.959599 160.01602 -23.992294 136.90565 -23.868366 136.9897 -22.121387 179.35869
24722500000 -21.642542 80.722832 -24.164833 34.975067 -23.934572 35.378071 -19.209663 105.65462
24736250000 -17.956573 18.104471 -24.209257 -65.995834 -23.937305 -65.82457 -20.711273 39.527981
24750000000 -27.692663 3.9248872 -23.903198 -167.84338 -23.915714 -167.92606 -28.086855 -47.287941
