!Keysight Technologies,N5224B,MY57181201,A.12.70.07
!Date: Friday, July 15, 2022 16:11:22
!Correction: S11(Full 2 Port(1,2)) 
!S21(Full 2 Port(1,2)) 
!S12(Full 2 Port(1,2)) 
!S22(Full 2 Port(1,2)) 
!S2P File: Measurements: S11, S21, S12, S22:
# Hz S  dB   R 50
22000000000 -19.685812 165.87224 -54.285652 -171.32932 -54.366478 -168.07063 -20.655411 150.40623
22013750000 -15.869711 79.436882 -53.291458 87.224472 -53.954117 86.934753 -17.697054 76.083046
22027500000 -15.288496 1.8891454 -56.510979 -36.5051 -56.243626 -36.849865 -18.990324 -1.8384145
22041250000 -18.002632 -91.777481 -55.130161 -108.40524 -55.934719 -113.42793 -21.997616 -114.48316
22055000000 -17.241703 149.864 -55.995262 133.58521 -56.99966 131.26102 -18.971119 130.62599
22068750000 -14.551241 57.627857 -56.092464 47.76474 -54.932747 37.333939 -17.20138 47.794491
22082500000 -13.514684 -21.451353 -55.376728 -52.445248 -55.654488 -63.360512 -17.867542 -33.782082
22096250000 -14.464954 -102.57076 -54.815178 -169.39078 -54.900089 -173.06009 -19.889532 -131.49414
22110000000 -16.354889 129.93433 -54.69754 79.536095 -55.007248 84.39222 -18.981934 112.5864
22123750000 -14.424306 49.23106 -55.193165 -4.0202513 -56.431267 -0.37024292 -16.997955 29.866526
22137500000 -15.897066 -32.108055 -53.210571 -107.42561 -52.567986 -106.95787 -15.775126 -47.285297
22151250000 -18.554226 -134.58685 -53.604305 123.06997 -53.194862 131.40578 -15.985505 -122.51154
22165000000 -16.454433 112.38701 -56.289658 16.673042 -56.425529 14.878968 -20.706455 97.612396
22178750000 -14.79286 33.052975 -52.802406 -61.224613 -53.025875 -62.287605 -19.224453 28.859135
22192500000 -15.586511 -40.551945 -55.301441 177.09756 -55.59317 -179.91263 -19.294563 -32.682217
22206250000 -19.546652 -118.36633 -55.315285 101.93552 -55.480427 94.462296 -21.274963 -93.231438
22220000000 -17.83144 97.435295 -56.411282 -23.059402 -55.157333 -25.138714 -23.977182 91.003464
22233750000 -17.351982 20.332125 -52.640587 -120.72283 -53.57439 -123.74673 -23.888988 47.776573
22247500000 -17.884048 -53.237396 -53.476524 125.32658 -54.021076 127.51937 -26.697233 -9.3375053
22261250000 -20.082993 -123.82044 -56.183662 28.820051 -57.040592 27.718632 -30.823767 -106.32291
22275000000 -21.032614 92.932304 -56.346291 -78.283623 -56.327118 -82.557007 -24.798803 125.10046
22288750000 -20.078035 35.099838 -53.695972 -170.07162 -53.827835 -177.50316 -20.080667 65.323326
22302500000 -22.362196 -18.274988 -52.005276 75.191437 -53.393238 71.324692 -19.650892 -5.9100275
22316250000 -28.184961 -93.102005 -58.188026 -43.274803 -58.290176 -53.308163 -22.730089 -91.072227
22330000000 -23.284878 113.8562 -54.841618 -111.53638 -55.630051 -114.12254 -21.035494 139.79459
22343750000 -19.214108 48.680008 -54.192719 141.41161 -54.388428 143.60342 -18.250364 67.218391
22357500000 -17.590729 -13.669724 -53.203594 32.05492 -52.691284 27.036148 -18.885929 -8.9375753
22371250000 -18.106262 -82.001205 -53.309502 -75.688568 -52.197289 -75.183075 -21.780195 -116.34285
22385000000 -20.813757 134.33841 -55.970436 167.30087 -56.476444 166.78821 -18.810724 126.01932
22398750000 -16.789724 56.591503 -54.398632 72.458939 -53.820496 71.784393 -16.839344 51.90028
22412500000 -15.404706 -19.406578 -53.813335 -32.597027 -53.705997 -35.936562 -18.744715 -33.829895
22426250000 -16.532087 -99.63707 -56.498505 -146.41003 -56.05629 -139.841 -19.609423 -144.97742
22440000000 -17.182735 133.44879 -55.973351 141.05804 -56.36731 139.46246 -16.348925 112.35546
22453750000 -14.273872 52.147194 -54.124584 10.044804 -54.059723 15.302274 -15.191583 35.553249
22467500000 -14.478638 -24.383495 -56.006332 -71.031181 -55.838974 -83.060432 -16.765024 -47.2906
22481250000 -17.038651 -118.9806 -54.678482 178.95583 -53.788803 177.42789 -19.260096 -156.12773
22495000000 -15.150296 119.28066 -56.669514 73.379654 -55.493347 74.108421 -16.075315 98.313324
22508750000 -13.429703 33.510242 -54.856407 -21.904297 -55.54739 -27.805548 -16.302786 25.643072
22522500000 -12.911839 -51.214455 -53.060314 -139.0006 -53.570744 -144.08388 -20.437698 -59.066372
22536250000 -13.564219 -137.42279 -58.431988 108.47124 -57.055058 110.89037 -21.349091 167.98682
22550000000 -14.078357 103.32279 -53.856373 25.456575 -54.905308 21.006521 -17.049055 77.393219
22563750000 -13.467001 25.677773 -57.29652 -94.384735 -57.344952 -100.08241 -19.282207 6.1704831
22577500000 -15.799643 -62.08688 -59.327324 169.74678 -59.816414 174.89455 -24.084122 -105.60592
22591250000 -17.236029 -175.70563 -55.784126 64.801178 -56.230461 66.797485 -20.598089 140.86896
22605000000 -14.031576 86.870216 -60.175564 -20.240082 -58.264301 -15.594924 -17.684612 66.705406
22618750000 -13.462441 7.7951646 -54.793156 -127.57847 -55.170044 -124.75314 -19.67165 0.97180581
22632500000 -15.500364 -73.385231 -60.852955 131.01089 -59.239246 135.85033 -25.08798 -77.726707
22646250000 -20.295877 -166.08672 -55.622849 34.863476 -56.904438 29.739948 -26.151085 144.75322
22660000000 -14.792128 71.116211 -55.793098 -65.279137 -57.59787 -67.392525 -20.842947 70.9002
22673750000 -15.234806 -9.2849712 -54.471283 -172.24869 -53.960148 -177.80209 -22.212704 32.675236
22687500000 -17.390369 -89.796982 -57.418659 73.44397 -57.227612 70.49929 -27.46974 -4.9299426
22701250000 -21.010384 -176.16446 -54.455399 -27.659216 -55.153065 -36.001144 -34.900776 131.90428
22715000000 -16.879654 59.731773 -54.70702 -130.214 -55.822289 -128.46149 -21.874712 82.86776
22728750000 -19.417755 -5.6913929 -57.524799 122.43839 -56.416229 111.10223 -20.441429 40.035656
22742500000 -27.298418 -92.413849 -56.52821 23.746851 -56.741245 25.823488 -23.274082 -15.279528
22756250000 -26.872017 112.53654 -57.140549 -81.519661 -58.063469 -82.007614 -41.828518 -25.988523
22770000000 -19.450792 59.850502 -54.58086 172.94594 -54.241325 172.81721 -18.891354 84.740829
22783750000 -20.427561 2.3050284 -55.250282 55.738476 -56.32188 56.214092 -18.804029 16.276094
22797500000 -21.539825 -52.299145 -59.061295 -29.573818 -59.505245 -32.422977 -20.943295 -74.094681
22811250000 -25.684389 -106.39266 -55.736542 -127.31348 -56.700562 -129.43581 -20.761209 167.54854
22825000000 -20.771322 78.182762 -55.511593 139.84323 -55.103149 133.34863 -16.827648 79.271774
22838750000 -19.527313 24.74913 -57.587399 10.166979 -57.144196 4.0592041 -17.47765 10.241556
22852500000 -20.675985 -38.696087 -55.201504 -95.031158 -54.946701 -93.572495 -21.416691 -85.286713
22866250000 -26.340322 -125.73898 -55.978085 -171.52505 -55.70332 -162.62798 -20.09132 149.13905
22880000000 -18.564287 87.971069 -55.586716 71.721909 -55.328144 68.016731 -16.073195 66.267067
22893750000 -16.915501 22.895266 -57.842926 -26.895393 -56.340607 -33.768108 -17.207888 -19.39636
22907500000 -18.465834 -49.759361 -58.363205 -131.81764 -57.740467 -129.00012 -18.082323 -121.83988
22921250000 -24.51442 -149.03003 -55.069042 116.77822 -54.694504 120.3728 -17.71855 136.07831
22935000000 -16.222609 82.701447 -56.12048 12.063429 -57.499397 4.8109121 -15.714499 47.098454
22948750000 -15.225553 6.4976301 -55.679813 -92.263878 -56.013905 -98.36779 -18.064791 -43.788811
22962500000 -16.765114 -73.873779 -56.781582 170.27425 -56.405735 167.88042 -18.711926 -156.05252
22976250000 -20.585083 -171.33432 -58.585331 54.449566 -57.855335 50.756458 -16.696222 108.28384
22990000000 -14.863555 68.679031 -57.903416 -40.807564 -59.439491 -48.732162 -16.290607 31.55905
23003750000 -15.502566 -6.0118937 -56.678787 -140.8506 -57.546101 -141.57597 -20.253132 -54.466141
23017500000 -19.47489 -102.30824 -59.000492 123.76009 -59.624146 121.39331 -22.519531 178.55765
23031250000 -19.251913 129.8154 -62.560841 8.7480907 -61.508205 12.289924 -19.121561 83.423264
23045000000 -14.352564 52.154205 -63.739037 -52.186687 -65.004044 -48.795055 -18.570242 18.694429
23058750000 -15.530766 -26.784395 -57.448429 -159.06279 -56.831448 -154.8188 -26.08551 -96.366432
23072500000 -20.026602 -117.84519 -59.192448 72.545746 -57.070522 80.450798 -21.644386 134.19687
23086250000 -22.760221 102.10314 -58.254044 5.0734506 -58.358089 6.4290676 -19.412069 66.458908
23100000000 -14.82718 33.977406 -57.169647 -101.98006 -57.338139 -99.645699 -21.72506 13.05097
23113750000 -17.979204 -49.762314 -54.694389 133.63432 -54.671108 134.38924 -28.59358 -126.05342
23127500000 -21.890396 -169.45851 -55.172451 32.812855 -55.155689 26.397955 -22.896059 133.99263
23141250000 -18.735588 70.960304 -56.690498 -80.981651 -57.073788 -76.464714 -21.378691 81.47065
23155000000 -16.381243 16.143784 -54.664619 -173.5562 -54.596863 -175.12849 -23.034409 31.400234
23168750000 -22.221771 -75.774376 -56.829796 74.056015 -58.442257 80.681885 -30.262312 -18.426605
23182500000 -23.595739 133.4584 -57.338375 -37.981045 -56.948139 -31.011696 -36.401505 160.34398
23196250000 -17.61924 42.953102 -57.058968 -148.60271 -56.1506 -141.85979 -24.705118 92.905212
23210000000 -19.796982 -0.50460017 -57.82502 137.8692 -58.229408 133.74103 -20.766779 40.542713
23223750000 -25.605444 -92.071114 -55.018612 22.264395 -55.590397 22.404823 -25.523064 -2.7487974
23237500000 -30.308649 123.18954 -60.448997 -58.492073 -64.342682 -70.174454 -35.887566 56.693172
23251250000 -25.387121 2.3757334 -56.44656 179.70465 -57.207603 -175.04872 -21.784697 43.661236
23265000000 -25.241907 1.3149282 -55.880558 60.697701 -56.539452 71.977364 -19.05324 30.639734
23278750000 -36.097694 130.76505 -58.809666 -26.345011 -59.594547 -21.767109 -25.242794 -87.137436
23292500000 -25.115112 78.605927 -58.440922 -107.59287 -59.668865 -111.2616 -19.019186 157.79497
23306250000 -23.835613 34.2785 -56.0424 152.45493 -56.5368 150.82489 -15.993051 88.869736
23320000000 -27.101131 47.314037 -56.761959 36.014133 -55.435993 37.690948 -18.078564 15.895844
23333750000 -26.192408 26.757072 -54.436619 -79.496849 -54.099247 -75.19014 -20.668169 -83.498268
23347500000 -26.685492 -3.9900155 -56.291988 175.04912 -56.271976 174.49171 -19.823875 165.27484
23361250000 -28.022964 -13.18821 -53.91906 69.970306 -53.892754 76.181694 -18.096563 75.121185
23375000000 -22.315054 58.577663 -54.574757 -39.192631 -54.827213 -39.424442 -18.058426 -2.160332
23388750000 -22.977304 2.6909065 -56.267101 -132.15152 -55.365997 -141.27678 -20.549936 -108.89878
23402500000 -29.431505 -57.567696 -54.497543 111.01427 -54.418465 111.90723 -20.318073 143.1593
23416250000 -33.525002 50.202682 -59.518921 17.454845 -60.895874 7.7808142 -19.436518 48.025082
23430000000 -19.732912 46.253052 -59.058796 -86.13176 -58.40918 -73.763802 -19.141701 -27.038994
23443750000 -23.634077 -21.125906 -55.99881 145.6015 -58.013535 140.34636 -19.80504 -144.90379
23457500000 -34.045631 169.29939 -62.101059 82.233887 -60.992176 80.384712 -17.997536 116.82153
23471250000 -21.606958 69.33728 -54.83392 -21.270578 -55.748001 -27.164898 -18.211788 36.511856
23485000000 -18.618546 26.952677 -58.585068 -122.84886 -58.222279 -125.56033 -22.282177 -49.689995
23498750000 -23.079042 -48.013477 -59.963181 140.47365 -59.141483 128.93713 -21.527338 -174.10754
23512500000 -31.295664 158.19128 -56.537426 23.496696 -55.390537 30.88826 -19.556156 98.187698
23526250000 -21.271805 30.233622 -61.21516 -80.565781 -62.264626 -89.682457 -21.616232 18.138285
23540000000 -18.714819 5.2781825 -56.33572 -157.39389 -57.6493 -151.3306 -30.214027 -71.152718
23553750000 -26.196602 -112.81439 -56.904579 96.222412 -56.528996 101.33976 -24.939995 136.84477
23567500000 -20.557289 111.9863 -56.673817 -10.354297 -56.398682 -4.9063654 -22.082487 61.689724
23581250000 -16.612776 34.206448 -53.69635 -117.61223 -53.962795 -121.99654 -24.696335 0.41661867
23595000000 -20.216785 -20.74921 -54.999832 135.53777 -55.845188 130.71284 -43.912537 23.008211
23608750000 -24.826571 -167.82787 -57.74255 31.245087 -57.012764 32.770214 -23.264175 124.37664
23622500000 -18.402479 80.949196 -55.55904 -65.417984 -55.575867 -66.096863 -19.848179 81.219688
23636250000 -15.017672 6.2231021 -53.85508 173.57164 -53.479073 -178.2394 -21.429773 45.553677
23650000000 -23.938688 -55.394901 -55.364296 72.485001 -54.761482 80.349625 -27.629435 26.583847
23663750000 -23.564907 154.08487 -54.952698 -39.993435 -55.116344 -39.598698 -29.830782 -161.26884
23677500000 -19.100443 53.517822 -55.036194 -118.15105 -55.046848 -121.20325 -21.828894 132.07336
23691250000 -16.793257 -24.982588 -55.315624 121.16061 -55.106979 120.16328 -20.984009 76.15699
23705000000 -29.110447 -126.4216 -56.297699 6.3554783 -57.123726 10.173632 -24.608952 11.832891
23718750000 -20.598278 115.18502 -55.601574 -85.533806 -57.271763 -80.192657 -32.650627 -138.87396
23732500000 -18.196934 45.604237 -56.696175 162.54219 -56.39632 161.85487 -23.764164 112.23309
23746250000 -20.680666 -20.772913 -55.786407 79.76889 -56.85326 79.460663 -21.323601 46.332424
23760000000 -26.731033 149.84836 -56.495129 -31.716551 -56.252609 -29.383553 -24.608732 -20.396168
23773750000 -20.704769 71.073906 -57.436859 -134.70091 -56.795853 -141.74998 -25.593082 161.08658
23787500000 -19.206657 6.1327167 -58.245289 155.60918 -56.934879 142.12263 -17.834673 82.540512
23801250000 -21.100792 -57.233829 -55.132 36.401726 -54.80653 30.801315 -16.333712 18.284977
23815000000 -22.73896 106.86388 -55.287395 -93.222481 -55.863316 -96.965401 -23.827782 -47.128113
23828750000 -22.501368 50.941673 -55.058128 -155.19933 -55.413242 -159.03174 -20.827591 164.41718
23842500000 -29.702686 -1.9588016 -53.840118 81.408562 -54.364258 78.476074 -16.436077 87.124817
23856250000 -28.6166 138.3602 -53.777534 -25.960947 -54.869186 -33.918072 -15.799547 20.953054
23870000000 -20.912207 73.836235 -54.118137 -130.39653 -54.878338 -128.57709 -27.011143 -84.391525
23883750000 -21.809416 20.662987 -53.970612 111.02829 -53.126129 112.30938 -21.959307 140.2912
23897500000 -27.828236 -11.545743 -57.291523 -2.24103 -56.088589 7.2596674 -19.445292 65.234383
23911250000 -26.264645 14.258798 -56.06543 -64.26828 -55.68277 -78.580666 -22.152475 -12.700979
23925000000 -20.510181 48.326107 -56.000484 160.37326 -57.306831 152.77557 -27.536045 -156.53204
23938750000 -25.180641 -24.559275 -56.004486 72.580421 -57.350731 75.677704 -21.052904 113.86291
23952500000 -40.001057 -106.05949 -54.971642 -15.202125 -54.598064 -21.824907 -21.481827 44.474529
23966250000 -26.938437 24.905006 -55.183628 -146.35237 -55.92197 -150.44435 -26.871672 -34.777534
23980000000 -21.999527 23.023663 -56.747433 127.12313 -57.555851 133.5522 -27.506767 139.4281
23993750000 -35.588558 -125.6221 -60.184669 22.967623 -60.885414 23.216524 -21.894007 73.143448
24007500000 -22.057655 111.53844 -58.174454 -56.772602 -57.679443 -48.830093 -20.16959 16.703899
24021250000 -18.980696 45.612576 -53.564541 -160.48854 -54.986752 -162.66527 -20.490211 -28.869284
24035000000 -25.354321 -2.1614501 -55.028694 92.769424 -55.656761 90.018417 -25.060551 80.395676
24048750000 -37.416103 -160.19621 -52.398762 -15.94562 -52.238281 -16.474545 -30.873665 32.838875
24062500000 -24.500795 55.048889 -53.884079 -130.93147 -53.437634 -135.577 -32.333393 141.38901
24076250000 -19.816584 -21.486628 -52.701393 140.32306 -52.930695 142.38959 -24.710995 99.292435
24090000000 -35.434025 -44.918449 -51.843807 17.811947 -51.108971 14.015251 -23.342672 49.206985
24103750000 -24.190767 122.39776 -54.953972 -92.540314 -54.9417 -95.266869 -38.7812 44.275112
24117500000 -19.886414 57.622673 -53.728027 163.96294 -54.454239 169.88481 -24.690458 113.38156
24131250000 -21.36216 -5.5476189 -53.145294 59.028278 -51.980705 65.175804 -21.132565 61.004681
24145000000 -31.412338 142.75357 -54.066441 -56.286217 -54.330612 -46.256535 -24.468761 15.047191
24158750000 -21.51947 93.679253 -56.652088 -145.27211 -56.041946 -148.7874 -26.239889 -147.61037
24172500000 -21.679743 38.855156 -53.877575 109.00352 -53.492931 110.66045 -20.863953 120.55533
24186250000 -34.370075 -23.972193 -57.156929 0.98522836 -56.412834 -0.34690192 -20.178301 55.023598
24200000000 -23.139772 112.96935 -53.688023 -72.362267 -54.501446 -75.877281 -24.978146 -16.200575
24213750000 -23.545502 45.687984 -57.143997 154.91617 -56.487698 157.64458 -23.178734 -168.74632
24227500000 -27.608511 -50.321896 -55.145382 60.151497 -55.131348 56.991276 -18.928783 113.66219
24241250000 -25.222105 176.75645 -55.542068 -35.522671 -56.114986 -38.200596 -20.358377 48.273087
24255000000 -19.77824 86.375427 -55.502956 -153.93178 -55.940525 -147.54411 -28.262079 -36.846668
24268750000 -23.379343 27.282034 -56.963291 126.32376 -58.291439 139.36002 -23.299875 151.61353
24282500000 -33.716545 -138.23926 -53.360764 18.749947 -53.49641 21.018108 -19.935455 82.318222
24296250000 -20.874353 116.70068 -55.199383 -89.517746 -55.325241 -87.789879 -21.749392 19.454729
24310000000 -18.377665 60.301796 -55.666725 -175.78146 -54.845787 -172.88469 -38.005985 -118.03608
24323750000 -20.58758 -13.709731 -52.840858 61.100136 -52.999641 63.705769 -20.8104 133.5043
24337500000 -28.691023 -107.28168 -57.076385 -30.688238 -57.028805 -32.601082 -19.372263 76.951447
24351250000 -24.658243 58.757866 -55.894711 -141.608 -54.375061 -138.14774 -23.603062 35.314583
24365000000 -18.319759 34.793842 -54.628109 114.03111 -55.924217 113.41063 -34.604141 109.65382
24378750000 -24.516195 -60.15657 -53.724377 18.25144 -54.491154 17.785244 -26.640308 127.89905
24392500000 -22.741737 143.38637 -54.392921 -105.4399 -54.354408 -101.17558 -24.144207 111.94093
24406250000 -17.465176 57.1903 -56.864971 156.89725 -56.631939 161.28528 -22.5208 85.589981
24420000000 -19.072212 8.2419844 -54.705177 66.540947 -54.198132 64.322983 -24.991381 57.569138
24433750000 -26.437487 -111.99908 -55.516342 -33.336624 -55.950935 -37.543526 -34.13525 -14.984125
24447500000 -20.378492 112.24799 -57.366524 -138.55025 -56.169113 -144.96536 -27.859158 161.04797
24461250000 -16.146404 32.462467 -54.244736 118.97706 -54.623974 120.09856 -22.318243 85.955498
24475000000 -21.695686 -16.281803 -54.841766 1.2297605 -54.866451 -10.300328 -22.549961 29.345224
24488750000 -26.290195 -160.98112 -54.546818 -70.649849 -54.603794 -68.31749 -29.089722 -59.921299
24502500000 -19.604208 87.100555 -54.609898 171.56212 -54.426624 173.49928 -31.03688 99.909218
24516250000 -16.625687 8.3181791 -55.043713 60.512917 -55.583408 64.082817 -21.273222 4.9704075
24530000000 -26.624117 -43.272377 -52.100082 -27.25602 -52.366402 -29.038656 -21.967691 -7.6530948
24543750000 -21.960901 156.21011 -52.832451 -156.22736 -52.572079 -154.38077 -24.972786 -147.01576
24557500000 -18.38554 85.76284 -53.848377 108.42404 -53.650448 105.74663 -18.384069 97.859352
24571250000 -21.159403 23.901533 -52.988945 -3.3979373 -53.336216 -1.0478768 -15.032889 17.360971
24585000000 -41.378876 -126.97186 -56.09269 -132.3313 -56.707153 -121.72968 -21.517546 -32.296787
24598750000 -23.415194 102.88003 -57.495975 163.77663 -57.201824 173.50487 -20.219421 -154.98376
24612500000 -18.736088 36.578945 -54.123035 46.335426 -54.0825 49.769039 -17.909538 116.35591
24626250000 -18.198025 -24.493694 -54.280949 -49.405476 -54.568062 -55.955647 -18.621363 33.905533
24640000000 -28.917877 105.83865 -56.694374 -146.40485 -55.487057 -146.62906 -23.46139 -61.850834
24653750000 -23.650963 77.58609 -55.990822 113.7079 -56.432663 111.92545 -19.846195 170.48012
24667500000 -22.584402 35.903282 -55.807575 -3.0696535 -56.607651 0.76999027 -17.328234 86.929184
24681250000 -22.815718 1.1136538 -54.217155 -94.967819 -53.995083 -94.0009 -18.944424 14.227762
24695000000 -23.337484 74.067764 -54.735226 158.04015 -55.909962 152.72958 -25.307356 -93.11264
24708750000 -27.19158 31.974421 -55.366447 44.200779 -55.156006 47.302261 -19.754427 158.50314
24722500000 -30.901312 50.639458 -55.698776 -46.30637 -55.93623 -48.989067 -18.613598 85.072273
24736250000 -22.360422 38.094578 -56.500065 -174.57622 -57.123985 -165.93309 -22.638514 11.719867
24750000000 -21.209267 44.917538 -57.142052 110.73656 -56.744743 112.15673 -31.399599 -124.6664
