!Keysight Technologies,N5224B,MY57181201,A.12.70.07
!Date: Friday, July 15, 2022 16:07:52
!Correction: S11(Full 2 Port(1,2)) 
!S21(Full 2 Port(1,2)) 
!S12(Full 2 Port(1,2)) 
!S22(Full 2 Port(1,2)) 
!S2P File: Measurements: S11, S21, S12, S22:
# Hz S  dB   R 50
22000000000 -21.151464 122.58536 -24.685518 69.159233 -24.537273 68.923523 -26.326559 124.67178
22013750000 -18.210838 54.765182 -24.521727 -33.123409 -24.514029 -32.53828 -21.914749 80.079689
22027500000 -19.77836 -11.470468 -24.740679 -136.45801 -24.562485 -135.98616 -23.098942 17.527935
22041250000 -24.994461 -100.06732 -24.756346 121.91972 -24.585587 121.90299 -28.66251 -80.829964
22055000000 -21.926556 125.73177 -24.511717 20.10434 -24.464109 19.619087 -24.09654 138.31258
22068750000 -18.414085 48.460102 -24.609215 -82.904953 -24.688305 -83.802559 -20.406132 63.738922
22082500000 -16.941944 -19.358147 -24.520044 175.45395 -24.726475 174.66908 -19.381117 -11.048991
22096250000 -17.816229 -87.779655 -24.363777 72.331352 -24.700701 71.478569 -21.585447 -101.83736
22110000000 -21.61692 131.11629 -24.821774 -29.54484 -24.815647 -30.242777 -21.562897 137.38788
22123750000 -18.11408 59.388992 -24.682507 -131.89532 -24.711906 -132.29517 -17.902058 49.333946
22137500000 -18.550514 -7.7992983 -24.597082 126.53036 -24.579151 126.51846 -15.617408 -28.693222
22151250000 -22.099588 -98.008202 -24.549757 23.429804 -24.50351 23.731724 -14.635044 -107.49937
22165000000 -20.754957 133.54501 -24.645622 -79.326042 -24.642925 -79.999237 -20.230089 130.77132
22178750000 -16.710403 56.175686 -24.686779 179.58548 -24.667294 178.79129 -17.325922 49.387379
22192500000 -15.384102 -13.870068 -24.372528 78.014816 -24.331701 77.449821 -16.235037 -22.489742
22206250000 -16.854124 -87.022659 -24.343252 -25.773722 -24.215025 -26.323143 -16.887163 -97.740456
22220000000 -18.679462 134.25113 -24.451252 -128.82219 -24.473291 -129.21352 -19.474382 119.97105
22233750000 -16.294657 49.529034 -24.578016 128.70656 -24.504124 128.98206 -18.468449 45.677483
22247500000 -15.152639 -29.13232 -24.471769 26.980999 -24.44968 27.181711 -20.678455 -33.320389
22261250000 -15.221047 -111.24683 -24.46137 -76.714348 -24.434292 -76.44342 -22.191896 -140.68521
22275000000 -17.587923 124.24864 -24.424965 -179.42041 -24.438902 -179.71928 -19.160263 112.5338
22288750000 -15.537844 47.456131 -24.47793 78.94709 -24.625269 78.218643 -17.634743 40.369041
22302500000 -16.686445 -29.26438 -24.440342 -22.857004 -24.657221 -23.705999 -19.772787 -34.237865
22316250000 -19.836876 -124.94389 -24.134188 -126.02991 -24.46204 -127.12792 -23.059278 -134.39737
22330000000 -17.262516 114.90374 -24.566551 131.31323 -24.609447 130.82895 -19.838572 105.97834
22343750000 -15.324106 37.056656 -24.582554 29.319683 -24.537893 29.709127 -19.354963 42.446964
22357500000 -15.269869 -36.298824 -24.650188 -74.2295 -24.410944 -73.939362 -23.111629 -34.185417
22371250000 -17.918148 -115.32739 -24.637234 -175.5191 -24.284616 -175.93661 -26.167347 -153.92131
22385000000 -17.180849 108.60237 -24.659868 82.420937 -24.688511 81.569893 -20.295797 98.107803
22398750000 -15.396478 31.248016 -24.602299 -18.369423 -24.624498 -19.148329 -20.602869 39.241505
22412500000 -15.969059 -43.855404 -24.162985 -121.00163 -24.213024 -122.04383 -24.090437 -39.763088
22426250000 -18.615566 -128.69775 -24.252071 135.01668 -24.519901 133.84227 -25.577742 -160.15976
22440000000 -17.283045 101.96233 -24.6478 32.418449 -24.740126 32.616112 -20.060501 105.27151
22453750000 -15.833184 31.55158 -24.563118 -69.786903 -24.724939 -68.62851 -18.474405 40.602436
22467500000 -17.867155 -41.508545 -24.700813 -172.31171 -24.760496 -170.95482 -19.880884 -29.391531
22481250000 -22.735615 -138.02272 -24.737288 85.211952 -24.644312 85.984856 -23.5341 -130.31714
22495000000 -17.768635 97.458687 -24.699844 -16.691469 -24.740101 -16.423138 -19.262281 110.6788
22508750000 -16.697359 20.668793 -24.601727 -116.67012 -24.530718 -116.90376 -17.776457 47.088428
22522500000 -16.506489 -54.466572 -24.452414 141.18007 -24.414476 140.69377 -20.276546 -22.986546
22536250000 -17.449089 -130.81734 -24.282288 37.155331 -24.262787 36.403011 -24.205734 -147.51384
22550000000 -18.033234 99.953217 -24.726643 -65.576584 -24.659269 -65.293327 -18.197893 101.4338
22563750000 -16.928768 33.610813 -24.583946 -165.86333 -24.59104 -165.19885 -18.302784 33.028908
22577500000 -19.451496 -40.109573 -24.412407 89.808937 -24.31403 90.503143 -22.400009 -58.553688
22591250000 -22.626892 -154.76527 -24.611567 -12.807583 -24.3729 -12.935791 -20.950247 176.14865
22605000000 -17.270735 98.351471 -24.392519 -115.14619 -24.389599 -114.83002 -16.744671 90.156746
22618750000 -15.549201 25.514086 -24.530224 143.88409 -24.484592 143.84816 -16.356216 17.117846
22632500000 -16.175758 -46.346279 -24.07143 41.127495 -24.050966 41.096489 -19.393236 -67.606743
22646250000 -19.600925 -124.184 -24.137333 -61.854946 -24.20837 -61.91193 -21.007643 179.49471
22660000000 -16.433441 94.039307 -24.440533 -164.88084 -24.411526 -164.51575 -16.791288 82.923767
22673750000 -15.542008 16.041069 -24.180601 92.862617 -24.26507 93.357849 -17.680897 18.440355
22687500000 -15.758076 -61.568466 -24.184643 -9.5072355 -24.331705 -9.6616802 -23.493525 -65.51474
22701250000 -17.25046 -145.63383 -24.067381 -112.41878 -24.387539 -112.54234 -22.792952 147.8047
22715000000 -15.946869 87.571564 -24.362564 145.58426 -24.274786 145.39497 -17.368097 71.137764
22728750000 -15.763878 16.024546 -24.46524 43.713196 -24.27886 43.033134 -19.137959 6.9660897
22742500000 -18.86434 -66.382729 -24.261568 -58.744572 -24.137829 -59.962067 -27.132992 -68.692253
22756250000 -21.031483 172.89714 -24.412731 -161.46083 -24.416033 -161.76799 -25.742102 97.432022
22770000000 -15.530429 77.04882 -24.535719 96.515327 -24.52684 95.915985 -17.538849 60.453888
22783750000 -15.267159 1.8649714 -24.41663 -6.1836066 -24.442726 -6.2243428 -19.794151 -13.682951
22797500000 -16.769121 -76.005638 -24.540638 -109.49187 -24.561371 -109.41206 -23.619373 -113.88993
22811250000 -21.497063 -166.6255 -24.759153 147.35042 -24.733259 147.78258 -21.669643 133.90776
22825000000 -15.885044 68.358772 -24.648457 48.13908 -24.708807 47.700863 -18.468132 58.298965
22838750000 -16.583183 -4.0336828 -24.478382 -54.042542 -24.523636 -54.714706 -21.585503 -2.7284966
22852500000 -20.338251 -84.008438 -24.431681 -156.99747 -24.445236 -157.49345 -29.658646 -106.30033
22866250000 -24.221403 150.83841 -24.217379 100.40195 -24.43491 99.588387 -24.486929 117.6384
22880000000 -16.527885 59.193317 -24.632858 -2.2100224 -24.676884 -2.5339475 -19.664928 58.231552
22893750000 -17.765572 -8.2270985 -24.368246 -104.54254 -24.494982 -103.91606 -22.046175 -18.739231
22907500000 -23.006308 -85.490494 -24.349377 151.86092 -24.342367 152.6404 -24.167624 -116.51422
22921250000 -28.630981 120.12402 -24.80426 50.48103 -24.639387 50.476654 -23.387154 138.52101
22935000000 -17.412291 53.908604 -24.594427 -51.448032 -24.543285 -51.410339 -19.452885 58.937744
22948750000 -18.690422 -14.637815 -24.685652 -153.28642 -24.429806 -152.80571 -21.968798 -18.054499
22962500000 -22.69171 -84.247658 -24.803841 103.95242 -24.330118 104.63934 -23.985785 -134.75626
22976250000 -33.268368 164.26131 -24.847752 1.4854245 -24.306314 1.5317111 -20.437941 127.61266
22990000000 -18.53763 52.768131 -24.734076 -100.09613 -24.656046 -100.33415 -17.853706 56.770409
23003750000 -20.662935 -5.1064653 -24.669247 158.4478 -24.791311 157.96797 -20.011919 -16.333073
23017500000 -29.620594 -82.667648 -24.501448 56.799511 -24.678684 56.525524 -24.576385 -124.77469
23031250000 -26.85076 101.3098 -24.46612 -45.364906 -24.686165 -46.360966 -20.536966 117.92038
23045000000 -18.480963 54.853176 -24.638889 -147.1091 -24.610113 -147.37509 -17.460196 46.153091
23058750000 -19.348721 -7.7922153 -24.478052 110.20333 -24.388685 109.69048 -22.045864 -36.285328
23072500000 -23.845039 -71.930786 -24.510075 8.3821316 -24.466471 7.1400471 -22.576555 -177.50258
23086250000 -53.067017 74.716431 -24.219357 -93.537308 -24.459652 -95.001976 -18.179901 95.871948
23100000000 -17.965429 52.104214 -24.324816 163.54938 -24.406654 163.30171 -17.409037 31.428579
23113750000 -20.096579 -15.795116 -24.177155 60.741692 -24.265825 60.163887 -21.897392 -73.363731
23127500000 -27.508053 -104.49852 -24.212082 -42.819675 -24.398438 -43.802082 -19.357668 169.09204
23141250000 -25.854237 93.312737 -24.405363 -144.04855 -24.573357 -144.673 -16.784697 91.028221
23155000000 -17.740984 44.487846 -24.154099 113.31523 -24.287348 113.42166 -17.951862 18.707216
23168750000 -20.995567 -21.190617 -24.224115 9.6867599 -24.152298 9.9405756 -22.924356 -72.453835
23182500000 -31.177994 -138.43443 -24.408922 -93.369186 -24.238951 -91.953011 -22.26033 158.46497
23196250000 -22.514778 71.87381 -24.648808 164.81575 -24.293812 165.21788 -19.122671 72.901184
23210000000 -17.635195 36.243507 -24.302002 62.722324 -24.34948 63.339378 -19.548403 9.8024178
23223750000 -19.86088 -45.979988 -24.21034 -40.355598 -24.338852 -40.042709 -29.485725 -79.149597
23237500000 -23.514467 -140.95113 -24.368113 -142.82138 -24.613024 -143.43164 -23.297827 97.842987
23251250000 -26.179426 94.659828 -24.447756 114.75198 -24.76178 115.04501 -17.846695 27.602369
23265000000 -18.225027 24.772629 -24.620571 13.965597 -24.517698 14.466452 -21.148142 0.36696699
23278750000 -24.115908 -68.843445 -24.53063 -89.238487 -24.394306 -88.549049 -24.489443 -140.75154
23292500000 -22.958315 146.5912 -24.644028 168.74759 -24.43099 169.20068 -18.352142 130.63464
23306250000 -18.650814 66.715927 -24.52194 67.524818 -24.30106 68.145996 -17.813152 66.902428
23320000000 -19.379553 12.421636 -24.654787 -34.769768 -24.57107 -34.697414 -22.717964 1.6460167
23333750000 -25.881283 -69.768875 -24.352184 -137.09314 -24.346182 -137.28091 -27.775986 -107.76062
23347500000 -27.630421 113.0763 -24.444855 119.52119 -24.503115 118.95698 -25.349304 134.32965
23361250000 -20.162024 25.475256 -24.531731 18.037415 -24.634983 17.849546 -23.206091 64.150696
23375000000 -21.513664 5.1329656 -24.467293 -84.363983 -24.425816 -84.83094 -24.127012 6.6465516
23388750000 -32.261765 -84.218239 -24.695311 172.69621 -24.660269 172.87082 -30.669426 -84.735626
23402500000 -27.420269 82.333069 -24.768976 70.903831 -24.616907 71.74128 -28.810928 150.16849
23416250000 -21.330252 11.108472 -24.747173 -31.67598 -24.692358 -31.170307 -27.5861 63.712101
23430000000 -24.639217 5.5218034 -24.639208 -133.52846 -24.667328 -133.54195 -22.689144 9.5989332
23443750000 -44.753304 121.98586 -24.639687 123.51917 -24.829483 123.15852 -26.433731 -113.01705
23457500000 -23.957184 72.884102 -24.846004 22.368507 -25.121492 22.236687 -22.627272 145.3631
23471250000 -21.578339 19.249914 -24.774773 -78.432877 -25.124577 -78.38504 -20.489613 69.023422
23485000000 -26.56813 19.872395 -24.77113 179.42603 -24.785063 179.48499 -21.696674 1.6843889
23498750000 -31.569073 30.348276 -24.613129 76.150421 -24.513741 76.857376 -24.208057 -122.56738
23512500000 -26.387743 23.334837 -25.080439 -26.910587 -24.832558 -25.66287 -20.862164 139.36501
23526250000 -22.097254 -18.071609 -25.017208 -126.22414 -24.513166 -125.05934 -19.634144 59.876595
23540000000 -25.439083 31.658245 -24.571938 130.38173 -24.452791 130.35567 -22.175613 -12.338246
23553750000 -33.882374 48.596756 -24.739882 28.661127 -24.577908 27.678724 -25.568642 -146.80345
23567500000 -26.051773 66.091652 -24.54705 -74.241776 -24.468916 -75.204391 -20.978996 105.994
23581250000 -21.652674 28.073675 -24.790882 -176.15262 -24.629028 -176.50929 -19.417295 34.55603
23595000000 -24.854591 24.217861 -24.534704 82.712807 -24.508795 82.267998 -23.407877 -37.064751
23608750000 -35.276707 31.637119 -24.561031 -22.504717 -24.429459 -22.927631 -20.737951 166.36848
23622500000 -24.379995 63.017941 -24.793644 -123.35861 -24.745256 -124.72231 -16.139709 93.255554
23636250000 -19.293825 10.973715 -24.668051 135.33504 -24.83848 133.93149 -17.105104 31.429802
23650000000 -25.156052 15.54929 -24.570971 33.560062 -24.594923 32.416286 -25.450489 -51.66589
23663750000 -43.94915 -24.190969 -24.38718 -70.871826 -24.574383 -71.992577 -21.012026 177.9856
23677500000 -27.701769 57.539162 -24.552303 -172.41399 -24.882942 -173.73888 -18.689104 103.49475
23691250000 -21.736258 -5.8948641 -24.382912 85.727264 -24.754955 84.455009 -21.307758 37.20924
23705000000 -26.990997 10.51056 -24.719002 -16.437492 -24.864092 -17.181816 -30.745136 -75.142944
23718750000 -32.442944 144.54286 -24.671577 -119.33605 -24.697681 -119.07689 -25.447546 137.8084
23732500000 -21.740797 80.44413 -24.91444 137.65083 -24.813869 138.24046 -21.741451 68.608871
23746250000 -19.804684 23.965227 -25.061096 37.44912 -24.777611 37.837765 -24.140999 1.2399805
23760000000 -29.471645 -6.8805704 -24.727428 -65.402489 -24.812309 -65.363594 -37.831547 -103.27065
23773750000 -31.240248 114.30331 -24.847557 -166.81169 -24.936384 -166.74414 -22.008755 109.89284
23787500000 -21.580442 48.24242 -24.666433 92.035049 -24.7225 91.036644 -18.757843 55.099384
23801250000 -18.797079 -16.932341 -24.688219 -10.502515 -24.993317 -11.376854 -19.899618 1.5814794
23815000000 -44.849442 -6.020689 -24.704994 -112.26347 -24.706985 -112.04826 -38.564407 36.878571
23828750000 -24.793259 114.71323 -24.672651 143.21507 -24.725098 143.77711 -25.054855 119.34116
23842500000 -22.585684 59.641403 -25.078535 42.901749 -25.139286 43.785877 -21.111208 79.081512
23856250000 -27.7745 10.21811 -24.658291 -58.557289 -24.591763 -57.687935 -19.909496 34.666618
23870000000 -31.134218 106.46838 -24.6101 -162.11226 -24.555841 -161.9725 -29.238699 43.141735
23883750000 -22.671431 71.048813 -24.495659 96.469048 -24.524389 96.328392 -34.808239 109.52798
23897500000 -20.319063 20.10556 -24.476122 -7.5740838 -24.485104 -7.3945141 -27.300898 87.840988
23911250000 -20.845922 -27.770727 -24.711533 -108.7842 -24.667009 -108.46973 -25.372353 48.158085
23925000000 -26.453867 90.756317 -24.590687 148.75116 -24.582201 148.9474 -30.740629 23.812305
23938750000 -24.55901 44.643616 -24.494093 46.304317 -24.54719 46.359989 -31.069759 162.93526
23952500000 -24.017935 -10.954551 -24.620487 -56.794861 -24.674522 -55.593441 -23.892494 95.079407
23966250000 -25.340998 -64.113869 -24.792122 -157.81038 -24.736382 -156.90422 -23.256874 38.026043
23980000000 -24.184162 75.841972 -24.65587 100.37679 -24.558174 100.09916 -30.251598 -19.270012
23993750000 -26.383587 51.65871 -24.632292 -1.7637633 -24.723085 -2.2471004 -28.907333 131.3576
24007500000 -30.787357 59.486046 -24.486458 -103.85836 -24.86796 -103.98045 -19.849882 56.561863
24021250000 -25.997688 66.973709 -24.322424 154.04102 -24.828121 154.44101 -16.634796 -7.8259397
24035000000 -23.154648 59.456799 -24.950468 52.50592 -24.951229 52.17268 -33.197544 -30.338919
24048750000 -25.201775 3.6244454 -24.502106 -49.016445 -24.589172 -49.304932 -26.441103 151.19592
24062500000 -29.924961 -31.383562 -24.483185 -153.02574 -24.579708 -153.28291 -22.446827 88.811783
24076250000 -28.849541 -31.182306 -24.460762 106.74271 -24.638683 105.85854 -25.147753 29.373093
24090000000 -23.665976 45.647633 -24.479694 2.5619035 -24.528131 2.0930188 -48.96627 116.53913
24103750000 -34.933762 34.09911 -24.680958 -98.523102 -24.604151 -98.627373 -23.648653 113.34594
24117500000 -26.653997 86.929382 -24.499056 158.54065 -24.365002 158.35732 -21.414047 65.623558
24131250000 -22.660278 42.208378 -24.700323 56.1036 -24.39402 56.417587 -25.289013 16.422647
24145000000 -25.701752 39.311436 -24.483849 -45.837868 -24.57048 -45.68153 -35.780579 107.83618
24158750000 -33.039433 93.888145 -24.780294 -150.57642 -24.756659 -150.31287 -27.504576 120.31846
24172500000 -24.922056 89.655792 -25.006701 109.54369 -24.832857 109.83666 -26.207102 85.455193
24186250000 -23.742285 56.572147 -24.869055 7.3785162 -24.687462 7.4950953 -28.729826 55.614624
24200000000 -26.964851 46.963573 -24.823238 -95.018639 -24.890362 -95.134552 -28.485197 69.118851
24213750000 -46.642204 -47.065483 -24.683165 163.46712 -24.762568 163.53818 -34.152348 123.7682
24227500000 -32.468079 127.12521 -24.85943 60.791958 -24.958961 60.742409 -26.002153 125.81866
24241250000 -29.760773 80.946213 -24.964716 -40.32148 -25.093155 -40.131958 -23.643696 88.096764
24255000000 -27.592373 56.551281 -24.705509 -140.96434 -24.698462 -141.27751 -24.940144 51.310963
24268750000 -30.188732 104.21884 -24.69277 115.66625 -24.709709 115.44498 -40.173988 57.642693
24282500000 -25.332504 92.216057 -24.813587 13.477899 -24.746284 12.566966 -26.326876 118.14487
24296250000 -24.57292 67.149178 -24.700489 -87.752335 -24.775871 -88.375397 -22.044168 70.11676
24310000000 -25.250917 68.521011 -24.725819 170.7807 -24.653736 170.07721 -24.477093 29.16194
24323750000 -25.755503 31.036209 -24.603935 69.013718 -24.597151 68.186569 -28.799957 -178.8878
24337500000 -26.192648 5.0890546 -24.285595 -33.361507 -24.205229 -34.071358 -19.450027 115.69888
24351250000 -25.559559 -18.441896 -24.34688 -137.45561 -24.297871 -138.10249 -18.187771 61.727638
24365000000 -23.046444 59.996307 -24.570723 122.17034 -24.604319 121.03986 -23.918274 -1.4783717
24378750000 -28.684818 20.343197 -24.393665 18.248035 -24.418879 17.593786 -22.61528 -158.63667
24392500000 -31.690475 87.117821 -24.69393 -83.439728 -24.643219 -84.222206 -17.822645 124.05386
24406250000 -23.028492 49.494736 -24.523705 175.19054 -24.462137 174.26228 -17.578094 60.860168
24420000000 -21.725626 44.403645 -24.342697 71.379967 -24.468756 71.178703 -25.070337 -23.03554
24433750000 -29.966362 -13.555089 -24.519098 -30.369217 -24.635908 -30.793997 -25.888901 -164.01923
24447500000 -28.8939 96.041832 -24.540661 -132.96498 -24.625317 -132.97868 -20.965302 108.03211
24461250000 -20.398994 41.651958 -24.589279 125.18547 -24.645367 125.2157 -21.50388 38.162518
24475000000 -21.460291 29.74473 -24.470581 22.284784 -24.582331 22.528294 -28.063665 -38.722847
24488750000 -30.276731 -53.552029 -24.640348 -79.367348 -24.703434 -79.274773 -28.889042 141.16335
24502500000 -26.194262 105.98184 -24.768196 179.20116 -24.844275 179.04401 -22.198339 49.992184
24516250000 -19.647198 29.987181 -24.613581 77.687752 -24.81418 77.784241 -18.407946 -26.588682
24530000000 -22.179117 11.053496 -24.508438 -25.74115 -24.483494 -25.335131 -32.00898 -46.833138
24543750000 -27.60692 -156.8002 -24.704241 -128.98204 -24.676086 -128.84955 -25.224743 139.55568
24557500000 -19.605814 116.12834 -24.739952 130.0421 -24.691303 129.93521 -19.520811 65.466606
24571250000 -18.883762 55.53717 -24.671846 29.031374 -24.729038 28.119295 -17.29681 0.55512953
24585000000 -25.30694 -5.765563 -24.770763 -73.782074 -24.70944 -73.608688 -32.832298 -2.6259537
24598750000 -31.906645 159.08167 -24.528656 -176.55208 -24.436565 -176.70377 -28.424164 -178.32933
24612500000 -20.708672 66.462013 -24.743889 82.42601 -24.625223 81.678116 -24.732021 119.32008
24626250000 -16.987997 1.1466452 -24.544395 -18.158701 -24.633829 -18.862751 -24.316118 59.607487
24640000000 -29.32584 -7.5200119 -24.638687 -122.3426 -24.60873 -122.58302 -30.315178 11.509196
24653750000 -27.642879 137.21985 -24.658941 136.58044 -24.764919 136.09071 -29.498474 173.9642
24667500000 -20.002892 70.45108 -24.57045 33.975361 -24.624857 33.557117 -22.306973 105.14816
24681250000 -17.605602 9.3851194 -24.747337 -66.913979 -24.798811 -67.339745 -21.308929 49.790707
24695000000 -31.745365 11.62533 -24.611288 -169.07597 -24.653017 -169.29321 -26.194016 -8.6048393
24708750000 -28.459118 126.41953 -24.684277 87.24041 -24.632713 87.230644 -23.748266 -161.87766
24722500000 -21.117035 66.970985 -24.759497 -13.511078 -24.617142 -12.825839 -19.452347 120.22805
24736250000 -18.606693 8.7818317 -24.763182 -116.08707 -24.581419 -115.25368 -19.302729 53.222702
24750000000 -32.224354 37.729836 -24.574409 142.41763 -24.637516 142.7558 -24.372433 -28.752504
