!CSV A.01.01
!Keysight Technologies,N5224B,MY57181201,A.12.70.07
!Date: Tuesday, July 26, 2022 16:19:00
!Source: Standard

BEGIN CH1_DATA
Freq(Hz),S21(DB),S21(DEG)
22000000000,-1.539269,174.36211
22055000000,-1.593816,173.81288
22110000000,-1.3658881,174.46298
22165000000,-1.4211851,171.84317
22220000000,-1.7695618,172.23581
22275000000,-1.40824,174.02966
22330000000,-1.1390432,170.73837
22385000000,-1.2856873,169.76147
22440000000,-1.1769357,169.13354
22495000000,-1.3543836,167.89259
22550000000,-1.1349738,168.79092
22605000000,-1.0580386,168.22192
22660000000,-0.87595749,167.44435
22715000000,-0.94295627,165.0099
22770000000,-0.89743012,164.6273
22825000000,-0.85861313,163.71371
22880000000,-1.0705262,163.46851
22935000000,-0.89778048,163.24348
22990000000,-0.84774518,161.57338
23045000000,-0.81865638,161.33183
23100000000,-0.62801909,161.35768
23155000000,-0.65229738,158.81114
23210000000,-0.7647596,158.00079
23265000000,-0.75272143,157.74628
23320000000,-0.72963828,156.65581
23375000000,-0.7831952,156.42699
23430000000,-0.51544231,155.56413
23485000000,-0.49845362,153.62695
23540000000,-0.63485086,153.2332
23595000000,-0.58082724,152.3078
23650000000,-0.60086042,151.10162
23705000000,-0.7064364,150.82042
23760000000,-0.58729333,150.86687
23815000000,-0.49334094,148.94859
23870000000,-0.45606127,147.70621
23925000000,-0.48073688,146.6866
23980000000,-0.61616188,145.70784
24035000000,-0.67295718,145.29022
24090000000,-0.6368525,144.59122
24145000000,-0.66819131,144.23607
24200000000,-0.50982034,142.54285
24255000000,-0.65667981,140.8183
24310000000,-0.61287099,140.49052
24365000000,-0.75440747,139.61021
24420000000,-0.86271781,139.28493
24475000000,-0.75867522,139.2059
24530000000,-0.73157042,137.75168
24585000000,-0.70937246,136.48293
24640000000,-0.7876659,135.08885
24695000000,-0.87235165,133.96918
24750000000,-1.0172889,133.12881
24805000000,-1.0575891,134.06898
24860000000,-1.0165347,133.06847
24915000000,-0.88399118,132.05373
24970000000,-0.99067217,131.21112
25025000000,-1.059943,129.79097
25080000000,-1.2870871,128.571
25135000000,-1.3546901,128.61636
25190000000,-1.4298104,127.71126
25245000000,-1.4873769,127.96259
25300000000,-1.4556994,127.27368
25355000000,-1.280355,125.88871
25410000000,-1.4296553,124.18069
25465000000,-1.6819408,124.12505
25520000000,-1.7436162,123.7902
25575000000,-1.8255439,123.00887
25630000000,-1.7194648,123.10883
25685000000,-1.6577271,121.96963
25740000000,-1.8040841,121.70105
25795000000,-1.9153104,121.32047
25850000000,-1.8961145,119.65424
25905000000,-2.1349232,118.87383
25960000000,-2.1896977,119.11005
26015000000,-2.2705867,118.8156
26070000000,-2.1963501,119.21677
26125000000,-2.2918398,117.405
26180000000,-1.9289478,117.71912
26235000000,-2.3722355,114.97055
26290000000,-2.5988758,117.2014
26345000000,-2.5076201,116.02019
26400000000,-2.925374,115.87693
26455000000,-2.6128922,117.54416
26510000000,-2.6241324,114.26718
26565000000,-2.7778785,114.87685
26620000000,-2.58797,113.76448
26675000000,-2.8644404,112.98074
26730000000,-2.9523849,114.08083
26785000000,-3.0236471,113.95976
26840000000,-3.0696051,114.08685
26895000000,-2.9309523,113.09772
26950000000,-2.95364,113.76809
27005000000,-2.7197716,112.75883
27060000000,-3.0204544,109.29176
27115000000,-3.2850778,110.67777
27170000000,-3.2903023,112.0076
27225000000,-3.1735883,112.13985
27280000000,-3.1379619,110.80342
27335000000,-3.2598612,109.85119
27390000000,-3.2535799,110.01939
27445000000,-3.1258557,108.42728
27500000000,-3.4874763,109.24635
27555000000,-3.2999232,109.77853
27610000000,-3.3525808,108.93154
27665000000,-3.4016681,109.37354
27720000000,-3.3183563,108.85522
27775000000,-3.4045668,109.42783
27830000000,-3.1930532,106.10152
27885000000,-3.7219231,104.51854
27940000000,-3.6911173,107.58772
27995000000,-3.4018114,107.48706
28050000000,-3.3991897,106.2233
28105000000,-3.47458,106.11977
28160000000,-3.463376,105.50752
28215000000,-3.4453096,105.02271
28270000000,-3.7987814,105.0503
28325000000,-3.6950946,105.90942
28380000000,-3.5950058,103.07646
28435000000,-3.6702063,103.46696
28490000000,-3.4827747,103.11888
28545000000,-3.8036008,101.60567
28600000000,-3.6726224,104.40274
28655000000,-3.5995965,101.16473
28710000000,-3.7415264,103.23423
28765000000,-3.7097268,101.92965
28820000000,-3.7382383,101.97482
28875000000,-3.7769587,101.55325
28930000000,-3.650439,101.97405
28985000000,-3.6636975,102.10359
29040000000,-3.7825632,100.85353
29095000000,-3.8997648,100.84935
29150000000,-3.6497085,99.67466
29205000000,-3.9088995,99.537636
29260000000,-3.832351,99.526253
29315000000,-3.7836857,99.357422
29370000000,-3.7076583,99.962341
29425000000,-3.7030263,99.644691
29480000000,-3.7400494,98.564476
29535000000,-3.9322171,97.854408
29590000000,-3.8242624,96.479233
29645000000,-3.7520208,98.627838
29700000000,-3.6050057,97.585571
29755000000,-3.9214857,99.532608
29810000000,-3.7161458,96.992096
29865000000,-4.1892529,97.005424
29920000000,-3.8331213,96.635941
29975000000,-3.9435344,94.102631
30030000000,-4.158916,96.45108
30085000000,-3.8133457,97.493393
30140000000,-3.6264346,95.9151
30195000000,-3.7425058,95.613853
30250000000,-3.7406738,94.975563
30305000000,-3.9125094,95.202347
30360000000,-3.8394115,93.895332
30415000000,-4.0309734,93.619141
30470000000,-3.7977328,95.329903
30525000000,-3.734262,94.524628
30580000000,-3.567698,94.437256
30635000000,-3.6068881,93.072456
30690000000,-3.8861375,92.082291
30745000000,-3.8030598,93.843536
30800000000,-3.9248948,91.359604
30855000000,-3.739712,93.301079
30910000000,-3.4809718,92.169151
30965000000,-3.6101677,92.542458
31020000000,-3.5362616,91.832634
31075000000,-3.661094,89.041115
31130000000,-3.7092247,91.733086
31185000000,-3.3804114,90.193108
31240000000,-3.7260919,91.246284
31295000000,-3.4401546,91.076797
31350000000,-3.6375313,89.90873
31405000000,-3.4024494,90.802383
31460000000,-3.4180598,88.250816
31515000000,-3.3751113,87.99411
31570000000,-3.5432429,88.187187
31625000000,-3.4542196,87.957016
31680000000,-3.3463526,88.768234
31735000000,-3.4532404,88.410118
31790000000,-3.1577137,89.209206
31845000000,-3.2264884,84.61837
31900000000,-3.2159288,85.841896
31955000000,-3.1628659,84.912338
32010000000,-3.3085968,86.472023
32065000000,-2.8317802,87.889122
32120000000,-3.0462914,85.04541
32175000000,-3.1230738,86.743111
32230000000,-2.9982629,84.694862
32285000000,-2.8412571,82.564415
32340000000,-2.8578632,82.603798
32395000000,-2.8525093,82.36219
32450000000,-2.7853963,84.066391
32505000000,-2.6071496,82.449295
32560000000,-3.0148304,82.995232
32615000000,-2.5391088,82.787392
32670000000,-2.583497,80.600548
32725000000,-2.6431124,78.578583
32780000000,-2.6690519,80.255608
32835000000,-2.4512432,79.479027
32890000000,-2.4900751,80.392593
32945000000,-2.4073424,78.839081
33000000000,-2.4345925,79.805786
END

