!CSV A.01.01
!Keysight Technologies,N5224B,MY57181201,A.12.70.07
!Date: Wednesday, July 20, 2022 16:51:19
!Source: Standard

BEGIN CH1_DATA
Freq(Hz),S11(DB),S11(DEG)
22000000000,-15.285136,96.433662
22055000000,-16.543726,-105.03665
22110000000,-16.605362,67.148865
22165000000,-15.050788,-131.28365
22220000000,-16.932533,35.070667
22275000000,-24.847359,-172.1483
22330000000,-22.216398,55.902126
22385000000,-22.077265,-95.792206
22440000000,-14.030744,51.624187
22495000000,-17.591984,-144.34741
22550000000,-12.796895,28.80969
22605000000,-14.278829,154.13351
22660000000,-16.256128,-6.6210012
22715000000,-17.646376,115.72781
22770000000,-28.491619,-1.5339891
22825000000,-24.181793,151.34145
22880000000,-18.755028,17.260025
22935000000,-19.736286,141.53371
22990000000,-16.276421,-18.987051
23045000000,-15.039329,95.36116
23100000000,-19.084305,-99.85804
23155000000,-18.030888,53.563236
23210000000,-22.003529,-162.7054
23265000000,-22.108475,14.655357
23320000000,-28.349987,85.856705
23375000000,-26.777636,94.712456
23430000000,-26.713734,-62.457634
23485000000,-17.318134,54.52948
23540000000,-21.636543,161.36476
23595000000,-18.939707,20.781588
23650000000,-14.55816,131.03793
23705000000,-21.563055,-132.91937
23760000000,-19.782295,63.664242
23815000000,-25.087048,141.76988
23870000000,-28.307821,-11.280107
23925000000,-19.54591,59.457726
23980000000,-23.350107,150.49229
24035000000,-22.608351,-2.8185866
24090000000,-19.127928,93.433708
24145000000,-36.473148,167.59091
24200000000,-23.249046,25.862097
24255000000,-26.666393,81.695869
24310000000,-23.900372,-100.85221
24365000000,-17.451859,40.454796
24420000000,-18.108953,145.49974
24475000000,-19.820044,-21.410135
24530000000,-17.764402,91.202072
24585000000,-38.539093,-127.44621
24640000000,-19.893839,90.16465
24695000000,-22.00684,118.37098
24750000000,-15.41887,169.73781
24805000000,-20.33308,7.9772272
24860000000,-17.134808,121.68037
24915000000,-19.081564,-69.934738
24970000000,-17.132963,71.611412
25025000000,-23.494812,179.50937
25080000000,-22.174706,49.230206
25135000000,-21.06686,113.05269
25190000000,-19.814926,158.46622
25245000000,-25.03447,14.024426
25300000000,-17.728308,111.29877
25355000000,-22.157286,-124.89848
25410000000,-18.868948,61.561951
25465000000,-21.202023,139.03722
25520000000,-30.275743,-1.5278014
25575000000,-19.716377,51.794106
25630000000,-19.502489,150.89043
25685000000,-22.599546,-17.050476
25740000000,-17.545918,117.4839
25795000000,-20.776648,-85.648453
25850000000,-19.407242,66.069756
25905000000,-26.820644,139.31319
25960000000,-25.098,145.03752
26015000000,-23.785549,-2.1323249
26070000000,-15.255239,127.13048
26125000000,-19.142368,-66.161652
26180000000,-13.425884,91.146904
26235000000,-18.926178,-128.36755
26290000000,-16.297112,61.843361
26345000000,-19.635017,166.24518
26400000000,-20.827055,93.487648
26455000000,-26.415865,-173.72824
26510000000,-15.490957,94.906776
26565000000,-16.962313,-131.26086
26620000000,-14.878187,65.433167
26675000000,-13.509746,-171.45787
26730000000,-20.593819,10.334002
26785000000,-15.639542,149.88406
26840000000,-28.276241,-130.62531
26895000000,-21.520206,-148.53748
26950000000,-32.147919,-128.15489
27005000000,-20.145494,-173.7291
27060000000,-18.279236,43.093773
27115000000,-16.328125,153.71991
27170000000,-23.282135,-40.679798
27225000000,-18.318922,107.27402
27280000000,-20.826826,-131.54173
27335000000,-22.291016,-8.5365887
27390000000,-23.849741,96.156693
27445000000,-21.347614,-153.10117
27500000000,-24.599401,71.616447
27555000000,-18.765638,148.35451
27610000000,-29.827135,-157.52744
27665000000,-21.824583,80.541786
27720000000,-16.170996,157.89005
27775000000,-24.613813,-91.852432
27830000000,-17.250746,123.1505
27885000000,-16.283796,-141.28859
27940000000,-28.277588,26.594145
27995000000,-21.428791,-146.95383
28050000000,-22.100021,-56.326797
28105000000,-27.686357,57.052444
28160000000,-18.871429,127.91837
28215000000,-22.093874,-105.81243
28270000000,-16.140354,90.392616
28325000000,-15.206217,-150.37645
28380000000,-27.914797,-30.544838
28435000000,-20.039471,-143.09882
28490000000,-19.958185,-77.471336
28545000000,-37.409737,-8.7657518
28600000000,-17.78233,122.48662
28655000000,-20.756786,-120.81762
28710000000,-16.637728,80.121918
28765000000,-14.406873,-159.20464
28820000000,-30.89076,17.564325
28875000000,-18.460123,-156.66779
28930000000,-22.086388,-100.94967
28985000000,-24.59222,-113.55484
29040000000,-17.401762,107.42783
29095000000,-15.794978,-134.87383
29150000000,-16.035614,55.886032
29205000000,-14.321875,-173.73607
29260000000,-21.170353,3.3645556
29315000000,-17.589108,161.04523
29370000000,-34.39975,138.48376
29425000000,-23.930851,-125.83274
29480000000,-19.205196,59.841713
29535000000,-16.299007,-158.3508
29590000000,-17.879887,22.838284
29645000000,-14.247211,165.81181
29700000000,-18.642057,-29.027269
29755000000,-17.60651,125.44566
29810000000,-26.043943,-151.63995
29865000000,-22.327183,-150.80336
29920000000,-38.064812,140.3075
29975000000,-15.453881,-138.81352
30030000000,-21.095278,3.7007775
30085000000,-14.953571,160.43756
30140000000,-20.308901,-86.621712
30195000000,-23.524658,125.49853
30250000000,-22.135569,166.60237
30305000000,-21.182932,-127.06421
30360000000,-21.659992,78.742371
30415000000,-13.737147,-147.3084
30470000000,-18.982605,7.330369
30525000000,-16.786665,160.54378
30580000000,-25.123497,-27.669699
30635000000,-24.297306,164.77438
30690000000,-25.080986,93.119736
30745000000,-16.210499,-138.26508
30800000000,-17.273949,30.917723
30855000000,-12.040023,-172.4951
30910000000,-14.681722,-12.215576
30965000000,-13.601012,155.77029
31020000000,-17.928986,-38.44944
31075000000,-18.486887,152.49083
31130000000,-25.34351,-4.2228723
31185000000,-15.801367,-177.44289
31240000000,-15.880354,-3.0946529
31295000000,-11.658582,162.85156
31350000000,-12.893184,-46.539417
31405000000,-12.032482,134.48532
31460000000,-15.112787,-89.446815
31515000000,-18.353661,121.58752
31570000000,-20.799015,-68.835106
31625000000,-17.583084,165.43594
31680000000,-13.903163,-34.064884
31735000000,-13.943237,128.2471
31790000000,-12.890338,-69.181068
31845000000,-13.970345,106.25716
31900000000,-14.555047,-98.800156
31955000000,-20.135166,84.862305
32010000000,-23.183887,-119.34063
32065000000,-19.000402,143.88445
32120000000,-17.514139,-68.347061
32175000000,-14.518314,125.91545
32230000000,-12.687795,-81.628212
32285000000,-13.414289,82.041878
32340000000,-14.612574,-101.41102
32395000000,-17.161844,35.660713
32450000000,-21.503021,-92.985008
32505000000,-24.015383,155.7973
32560000000,-15.178248,-70.604118
32615000000,-13.997645,109.8975
32670000000,-12.36184,-100.93975
32725000000,-15.439968,68.887993
32780000000,-14.818217,-128.39432
32835000000,-20.480938,34.768162
32890000000,-23.688013,-128.47922
32945000000,-19.239462,89.938599
33000000000,-17.445927,-83.15976
END

