!CSV A.01.01
!Keysight Technologies,N5224B,MY57181201,A.12.70.07
!Date: Wednesday, July 20, 2022 16:54:40
!Source: Standard

BEGIN CH1_DATA
Freq(Hz),S21(DB),S21(DEG)
22000000000,-60.331268,-159.29034
22055000000,-65.083015,40.18251
22110000000,-65.496124,154.76334
22165000000,-65.484932,-76.906776
22220000000,-78.373421,10.234511
22275000000,-61.255547,-99.943283
22330000000,-61.936504,2.8107784
22385000000,-62.19083,102.281
22440000000,-57.181732,-177.87141
22495000000,-58.418514,-49.586426
22550000000,-62.731705,43.078751
22605000000,-59.288483,175.24438
22660000000,-60.82188,-52.078899
22715000000,-61.372139,-122.66527
22770000000,-60.173656,-33.381168
22825000000,-79.711876,-40.722301
22880000000,-81.745964,153.79729
22935000000,-68.274895,-104.00258
22990000000,-71.105995,34.135635
23045000000,-60.684109,149.24118
23100000000,-61.365444,-23.123478
23155000000,-60.587749,72.414864
23210000000,-59.889542,-131.56709
23265000000,-61.375504,-37.413078
23320000000,-65.069206,104.45438
23375000000,-62.928673,-130.74734
23430000000,-63.410702,-8.6850634
23485000000,-59.904888,82.114677
23540000000,-66.834068,-99.60817
23595000000,-56.533859,-14.759984
23650000000,-63.980991,103.68639
23705000000,-66.084785,-76.850212
23760000000,-66.270668,132.70857
23815000000,-59.559891,-177.90402
23870000000,-65.73304,-127.59122
23925000000,-67.391998,112.26286
23980000000,-62.562004,-176.32268
24035000000,-63.196327,-99.411118
24090000000,-63.895092,141.70859
24145000000,-63.290703,-92.77964
24200000000,-63.430088,14.410222
24255000000,-62.798443,145.41055
24310000000,-61.856796,-97.198311
24365000000,-68.984169,40.655289
24420000000,-65.91217,-135.94984
24475000000,-61.242184,-40.677322
24530000000,-58.528233,75.049561
24585000000,-55.809357,-170.61819
24640000000,-57.437725,-59.582535
24695000000,-57.669823,91.831177
24750000000,-60.16087,-158.56905
24805000000,-66.950768,25.757902
24860000000,-60.892998,129.03883
24915000000,-72.147446,-150.66454
24970000000,-63.090385,21.819626
25025000000,-59.725765,114.17312
25080000000,-66.775307,-108.80627
25135000000,-60.309814,52.616119
25190000000,-61.090622,-179.13704
25245000000,-59.171726,-62.047688
25300000000,-60.130196,80.901833
25355000000,-57.647228,-157.19679
25410000000,-60.586304,-34.095226
25465000000,-63.446308,81.289772
25520000000,-64.418221,-159.46121
25575000000,-61.94693,-13.033501
25630000000,-62.153938,139.1356
25685000000,-62.694168,-105.50018
25740000000,-59.577175,25.352839
25795000000,-61.204277,124.44801
25850000000,-60.664604,-58.7635
25905000000,-57.360023,62.804962
25960000000,-63.227295,175.13707
26015000000,-62.117393,-12.563296
26070000000,-56.972469,86.551453
26125000000,-61.765221,-175.48381
26180000000,-59.612011,-26.82148
26235000000,-59.815796,84.724716
26290000000,-61.75938,-137.69962
26345000000,-60.231377,-3.1697931
26400000000,-69.346359,81.414276
26455000000,-59.679199,-65.295776
26510000000,-62.838806,66.788979
26565000000,-62.651897,178.84361
26620000000,-61.869724,-82.478638
26675000000,-60.05587,32.230103
26730000000,-61.481121,-169.32523
26785000000,-61.726959,-18.564253
26840000000,-57.245579,111.565
26895000000,-57.721802,-107.93436
26950000000,-55.843227,2.7177117
27005000000,-57.662907,114.30469
27060000000,-58.585285,-130.92282
27115000000,-57.822773,-6.9952559
27170000000,-63.758327,119.10113
27225000000,-61.590015,-64.034195
27280000000,-59.26326,55.089893
27335000000,-58.994701,-160.41576
27390000000,-63.927135,-33.524387
27445000000,-61.290455,73.352104
27500000000,-63.338318,-136.19025
27555000000,-65.298012,-16.103758
27610000000,-56.421387,122.17966
27665000000,-56.93211,-136.38225
27720000000,-60.919521,6.0033374
27775000000,-59.442245,136.64584
27830000000,-71.12384,-66.191704
27885000000,-61.555004,83.687943
27940000000,-57.245041,-172.53773
27995000000,-59.377045,-67.565804
28050000000,-57.739838,87.773651
28105000000,-57.968513,-171.34245
28160000000,-57.098785,-59.528664
28215000000,-56.76083,87.136848
28270000000,-62.043049,-124.31445
28325000000,-59.270676,5.3917885
28380000000,-64.059898,136.77014
28435000000,-58.652603,-104.46645
28490000000,-57.432251,26.174356
28545000000,-58.861702,150.90416
28600000000,-61.857502,-72.640961
28655000000,-57.466988,47.22673
28710000000,-62.424736,174.99788
28765000000,-61.189747,-28.257231
28820000000,-60.249241,118.67043
28875000000,-58.437622,-150.98586
28930000000,-58.383289,-0.30582914
28985000000,-61.118317,98.142448
29040000000,-60.183098,-140.91811
29095000000,-63.805851,-9.0826998
29150000000,-62.53833,110.57121
29205000000,-62.164524,-85.935478
29260000000,-63.093773,77.960007
29315000000,-58.6642,-177.00317
29370000000,-61.378906,-90.417801
29425000000,-62.674915,81.510689
29480000000,-68.881439,160.80257
29535000000,-73.721573,-42.925018
29590000000,-73.304298,77.442062
29645000000,-64.832954,-4.8221149
29700000000,-65.626266,91.652802
29755000000,-62.677605,-156.18419
29810000000,-66.153244,-99.350731
29865000000,-62.962208,75.175629
29920000000,-69.449081,155.373
29975000000,-82.181801,-147.12642
30030000000,-74.374161,159.79092
30085000000,-79.082321,-157.38391
30140000000,-62.858688,27.359964
30195000000,-63.087326,175.62814
30250000000,-65.673401,-107.76019
30305000000,-67.603775,49.532097
30360000000,-69.552475,-132.56306
30415000000,-66.052612,-9.6098671
30470000000,-61.536179,106.97054
30525000000,-62.799957,-161.33423
30580000000,-60.858009,-25.281593
30635000000,-59.472034,104.01556
30690000000,-61.616859,-158.29771
30745000000,-60.723579,-25.531713
30800000000,-64.23542,151.41669
30855000000,-62.314342,-100.84458
30910000000,-62.383316,15.603113
30965000000,-67.5,140.73515
31020000000,-63.049389,-53.895683
31075000000,-67.12365,47.714298
31130000000,-73.019524,-91.704964
31185000000,-64.598083,-15.515905
31240000000,-65.786842,69.747742
31295000000,-66.766212,-126.09786
31350000000,-63.796539,30.21018
31405000000,-65.981285,172.77016
31460000000,-71.182434,-60.16814
31515000000,-77.351288,133.09816
31570000000,-60.584465,-158.49763
31625000000,-59.1693,-58.880856
31680000000,-64.104347,87.533218
31735000000,-71.084068,-132.37396
31790000000,-65.109772,29.062807
31845000000,-63.370308,96.57766
31900000000,-65.17028,-108.08806
31955000000,-73.678497,-31.772308
32010000000,-68.258934,148.76517
32065000000,-59.771248,-103.63588
32120000000,-72.726906,-7.5665202
32175000000,-71.553627,-66.066055
32230000000,-69.747421,17.078545
32285000000,-60.914291,179.51147
32340000000,-66.921265,-109.65801
32395000000,-65.626312,47.452206
32450000000,-68.323341,-126.59689
32505000000,-65.591133,-111.3918
32560000000,-72.411446,-71.016151
32615000000,-65.786301,-82.080292
32670000000,-66.754639,0.40406641
32725000000,-66.993767,101.2232
32780000000,-66.714081,-146.99777
32835000000,-64.857849,-9.6888113
32890000000,-68.258751,132.26495
32945000000,-72.589478,-129.5081
33000000000,-64.825706,103.7723
END

